! COPPER MOUNTAIN TECHNOLOGIES, PLANAR TR1300/1, 00071119, 20.2.2/1.0
! Date: 12/11/2023 3:27:39 PM
! Data: Format [Calibration Info]
! Freq          	S11: Re/Im F1                  
# HZ S RI R 50
5.00000000E+07	 4.93700979E-01	 6.70175750E-02
5.00122080E+07	 4.93061007E-01	 6.56672357E-02
5.00244160E+07	 4.92412374E-01	 6.43249468E-02
5.00366241E+07	 4.91763109E-01	 6.29756110E-02
5.00488321E+07	 4.91106679E-01	 6.16316969E-02
5.00610401E+07	 4.90456929E-01	 6.02882811E-02
5.00732481E+07	 4.89789608E-01	 5.89505927E-02
5.00854562E+07	 4.89114855E-01	 5.76124194E-02
5.00976642E+07	 4.88451443E-01	 5.62816795E-02
5.01098722E+07	 4.87775684E-01	 5.49580932E-02
5.01220802E+07	 4.87077883E-01	 5.36417142E-02
5.01342883E+07	 4.86415186E-01	 5.23116225E-02
5.01464963E+07	 4.85728772E-01	 5.09914739E-02
5.01587043E+07	 4.85029862E-01	 4.96781696E-02
5.01709123E+07	 4.84335483E-01	 4.83665531E-02
5.01831204E+07	 4.83638363E-01	 4.70622193E-02
5.01953284E+07	 4.82938973E-01	 4.57490027E-02
5.02075364E+07	 4.82217816E-01	 4.44678616E-02
5.02197444E+07	 4.81512567E-01	 4.31642224E-02
5.02319525E+07	 4.80802506E-01	 4.18609118E-02
5.02441605E+07	 4.80076927E-01	 4.05735317E-02
5.02563685E+07	 4.79357522E-01	 3.92976541E-02
5.02685765E+07	 4.78609972E-01	 3.80147393E-02
5.02807846E+07	 4.77895964E-01	 3.67239130E-02
5.02929926E+07	 4.77157974E-01	 3.54535527E-02
5.03052006E+07	 4.76421950E-01	 3.41784564E-02
5.03174086E+07	 4.75674137E-01	 3.29078077E-02
5.03296167E+07	 4.74930169E-01	 3.16481552E-02
5.03418247E+07	 4.74174798E-01	 3.03836236E-02
5.03540327E+07	 4.73418226E-01	 2.91259288E-02
5.03662407E+07	 4.72669574E-01	 2.78688606E-02
5.03784488E+07	 4.71899143E-01	 2.66251668E-02
5.03906568E+07	 4.71122938E-01	 2.53897698E-02
5.04028648E+07	 4.70362493E-01	 2.41361330E-02
5.04150728E+07	 4.69592929E-01	 2.28982326E-02
5.04272809E+07	 4.68812240E-01	 2.16643206E-02
5.04394889E+07	 4.68011026E-01	 2.04455776E-02
5.04516969E+07	 4.67242474E-01	 1.92064588E-02
5.04639049E+07	 4.66449556E-01	 1.79815772E-02
5.04761130E+07	 4.65657109E-01	 1.67619371E-02
5.04883210E+07	 4.64856806E-01	 1.55444865E-02
5.05005290E+07	 4.64067895E-01	 1.43314130E-02
5.05127370E+07	 4.63263570E-01	 1.31340160E-02
5.05249451E+07	 4.62452417E-01	 1.19263937E-02
5.05371531E+07	 4.61642132E-01	 1.07285768E-02
5.05493611E+07	 4.60831033E-01	 9.52735790E-03
5.05615691E+07	 4.60006107E-01	 8.33470240E-03
5.05737772E+07	 4.59185569E-01	 7.15225658E-03
5.05859852E+07	 4.58354434E-01	 5.96225582E-03
5.05981932E+07	 4.57531793E-01	 4.77950541E-03
5.06104012E+07	 4.56702317E-01	 3.60503141E-03
5.06226093E+07	 4.55866492E-01	 2.43874151E-03
5.06348173E+07	 4.55024572E-01	 1.27441984E-03
5.06470253E+07	 4.54177629E-01	 1.04715937E-04
5.06592333E+07	 4.53341666E-01	-1.05562069E-03
5.06714414E+07	 4.52486112E-01	-2.21682191E-03
5.06836494E+07	 4.51634627E-01	-3.36987348E-03
5.06958574E+07	 4.50773430E-01	-4.51322260E-03
5.07080654E+07	 4.49918541E-01	-5.65910769E-03
5.07202735E+07	 4.49055446E-01	-6.80227418E-03
5.07324815E+07	 4.48188553E-01	-7.93995795E-03
5.07446895E+07	 4.47321045E-01	-9.06776686E-03
5.07568975E+07	 4.46446788E-01	-1.01916231E-02
5.07691056E+07	 4.45570742E-01	-1.13147506E-02
5.07813136E+07	 4.44686560E-01	-1.24404731E-02
5.07935216E+07	 4.43805623E-01	-1.35489966E-02
5.08057296E+07	 4.42917704E-01	-1.46583585E-02
5.08179377E+07	 4.42030675E-01	-1.57698512E-02
5.08301457E+07	 4.41139582E-01	-1.68727031E-02
5.08423537E+07	 4.40240590E-01	-1.79727658E-02
5.08545617E+07	 4.39339634E-01	-1.90641983E-02
5.08667698E+07	 4.38447779E-01	-2.01581244E-02
5.08789778E+07	 4.37537252E-01	-2.12332128E-02
5.08911858E+07	 4.36625360E-01	-2.23186710E-02
5.09033938E+07	 4.35717529E-01	-2.33926623E-02
5.09156019E+07	 4.34801135E-01	-2.44768718E-02
5.09278099E+07	 4.33885312E-01	-2.55449270E-02
5.09400179E+07	 4.32967090E-01	-2.66013518E-02
5.09522259E+07	 4.32039976E-01	-2.76588701E-02
5.09644340E+07	 4.31120144E-01	-2.87194346E-02
5.09766420E+07	 4.30183106E-01	-2.97674337E-02
5.09888500E+07	 4.29249916E-01	-3.08162336E-02
5.10010580E+07	 4.28322235E-01	-3.18594162E-02
5.10132661E+07	 4.27381402E-01	-3.28923186E-02
5.10254741E+07	 4.26444244E-01	-3.39263825E-02
5.10376821E+07	 4.25506190E-01	-3.49604441E-02
5.10498901E+07	 4.24553733E-01	-3.59849672E-02
5.10620982E+07	 4.23604587E-01	-3.70090361E-02
5.10743062E+07	 4.22649539E-01	-3.80250844E-02
5.10865142E+07	 4.21698583E-01	-3.90296001E-02
5.10987222E+07	 4.20743899E-01	-4.00374093E-02
5.11109303E+07	 4.19771096E-01	-4.10355245E-02
5.11231383E+07	 4.18813872E-01	-4.20414324E-02
5.11353463E+07	 4.17856476E-01	-4.30395259E-02
5.11475543E+07	 4.16886553E-01	-4.40256345E-02
5.11597624E+07	 4.15916151E-01	-4.50098303E-02
5.11719704E+07	 4.14945099E-01	-4.59938525E-02
5.11841784E+07	 4.13965827E-01	-4.69711624E-02
5.11963864E+07	 4.12980219E-01	-4.79378042E-02
5.12085944E+07	 4.12005155E-01	-4.89078508E-02
5.12208025E+07	 4.11017784E-01	-4.98664926E-02
5.12330105E+07	 4.10033415E-01	-5.08227900E-02
5.12452185E+07	 4.09043451E-01	-5.17780168E-02
5.12574265E+07	 4.08048474E-01	-5.27267212E-02
5.12696346E+07	 4.07055408E-01	-5.36753431E-02
5.12818426E+07	 4.06052808E-01	-5.46140983E-02
5.12940506E+07	 4.05062039E-01	-5.55426240E-02
5.13062586E+07	 4.04060179E-01	-5.64765932E-02
5.13184667E+07	 4.03055841E-01	-5.74066170E-02
5.13306747E+07	 4.02050711E-01	-5.83301062E-02
5.13428827E+07	 4.01044620E-01	-5.92468128E-02
5.13550907E+07	 4.00036552E-01	-6.01507452E-02
5.13672988E+07	 3.99017285E-01	-6.10623294E-02
5.13795068E+07	 3.98005727E-01	-6.19669594E-02
5.13917148E+07	 3.96991643E-01	-6.28649002E-02
5.14039228E+07	 3.95964340E-01	-6.37600007E-02
5.14161309E+07	 3.94944945E-01	-6.46461397E-02
5.14283389E+07	 3.93925856E-01	-6.55346986E-02
5.14405469E+07	 3.92891665E-01	-6.64125587E-02
5.14527549E+07	 3.91863507E-01	-6.72908162E-02
5.14649630E+07	 3.90834204E-01	-6.81622926E-02
5.14771710E+07	 3.89799252E-01	-6.90260254E-02
5.14893790E+07	 3.88763276E-01	-6.98829713E-02
5.15015870E+07	 3.87731077E-01	-7.07482210E-02
5.15137951E+07	 3.86686498E-01	-7.15969912E-02
5.15260031E+07	 3.85649823E-01	-7.24479972E-02
5.15382111E+07	 3.84608845E-01	-7.32874242E-02
5.15504191E+07	 3.83562350E-01	-7.41206627E-02
5.15626272E+07	 3.82510551E-01	-7.49559943E-02
5.15748352E+07	 3.81461928E-01	-7.57784241E-02
5.15870432E+07	 3.80413081E-01	-7.66090797E-02
5.15992512E+07	 3.79361374E-01	-7.74335640E-02
5.16114593E+07	 3.78307546E-01	-7.82422321E-02
5.16236673E+07	 3.77248150E-01	-7.90517740E-02
5.16358753E+07	 3.76193599E-01	-7.98623957E-02
5.16480833E+07	 3.75126055E-01	-8.06589176E-02
5.16602914E+07	 3.74061005E-01	-8.14590195E-02
5.16724994E+07	 3.72999410E-01	-8.22420166E-02
5.16847074E+07	 3.71933185E-01	-8.30329835E-02
5.16969154E+07	 3.70872853E-01	-8.38148162E-02
5.17091235E+07	 3.69795463E-01	-8.45863817E-02
5.17213315E+07	 3.68729340E-01	-8.53577317E-02
5.17335395E+07	 3.67651056E-01	-8.61301286E-02
5.17457475E+07	 3.66579176E-01	-8.68900695E-02
5.17579556E+07	 3.65502970E-01	-8.76523965E-02
5.17701636E+07	 3.64427081E-01	-8.84011808E-02
5.17823716E+07	 3.63347296E-01	-8.91479798E-02
5.17945796E+07	 3.62266362E-01	-8.98901636E-02
5.18067877E+07	 3.61183630E-01	-9.06306990E-02
5.18189957E+07	 3.60100444E-01	-9.13632356E-02
5.18312037E+07	 3.59008710E-01	-9.20899021E-02
5.18434117E+07	 3.57924780E-01	-9.28131997E-02
5.18556198E+07	 3.56837639E-01	-9.35356328E-02
5.18678278E+07	 3.55743061E-01	-9.42558628E-02
5.18800358E+07	 3.54647634E-01	-9.49644379E-02
5.18922438E+07	 3.53558022E-01	-9.56637289E-02
5.19044519E+07	 3.52463188E-01	-9.63634143E-02
5.19166599E+07	 3.51365123E-01	-9.70631034E-02
5.19288679E+07	 3.50266215E-01	-9.77490242E-02
5.19410759E+07	 3.49165911E-01	-9.84364744E-02
5.19532840E+07	 3.48071355E-01	-9.91182662E-02
5.19654920E+07	 3.46970179E-01	-9.97934357E-02
5.19777000E+07	 3.45861063E-01	-1.00461919E-01
5.19899080E+07	 3.44759025E-01	-1.01128037E-01
5.20021161E+07	 3.43656502E-01	-1.01788927E-01
5.20143241E+07	 3.42545375E-01	-1.02441724E-01
5.20265321E+07	 3.41439119E-01	-1.03098641E-01
5.20387401E+07	 3.40335887E-01	-1.03750430E-01
5.20509482E+07	 3.39220100E-01	-1.04383961E-01
5.20631562E+07	 3.38111471E-01	-1.05031442E-01
5.20753642E+07	 3.36996937E-01	-1.05657507E-01
5.20875722E+07	 3.35886114E-01	-1.06285586E-01
5.20997803E+07	 3.34768390E-01	-1.06907575E-01
5.21119883E+07	 3.33650166E-01	-1.07527591E-01
5.21241963E+07	 3.32536806E-01	-1.08136296E-01
5.21364043E+07	 3.31415488E-01	-1.08748680E-01
5.21486124E+07	 3.30296236E-01	-1.09347210E-01
5.21608204E+07	 3.29173197E-01	-1.09950724E-01
5.21730284E+07	 3.28055196E-01	-1.10549938E-01
5.21852364E+07	 3.26934011E-01	-1.11135314E-01
5.21974445E+07	 3.25808936E-01	-1.11722032E-01
5.22096525E+07	 3.24686779E-01	-1.12297395E-01
5.22218605E+07	 3.23563874E-01	-1.12870511E-01
5.22340685E+07	 3.22437131E-01	-1.13437133E-01
5.22462766E+07	 3.21307624E-01	-1.14006502E-01
5.22584846E+07	 3.20183241E-01	-1.14566776E-01
5.22706926E+07	 3.19057024E-01	-1.15119312E-01
5.22829006E+07	 3.17919350E-01	-1.15672724E-01
5.22951087E+07	 3.16794767E-01	-1.16213286E-01
5.23073167E+07	 3.15661537E-01	-1.16759058E-01
5.23195247E+07	 3.14533918E-01	-1.17289442E-01
5.23317327E+07	 3.13403385E-01	-1.17816444E-01
5.23439408E+07	 3.12269980E-01	-1.18350523E-01
5.23561488E+07	 3.11138312E-01	-1.18869925E-01
5.23683568E+07	 3.10008469E-01	-1.19393918E-01
5.23805648E+07	 3.08862864E-01	-1.19899677E-01
5.23927728E+07	 3.07735381E-01	-1.20408266E-01
5.24049809E+07	 3.06594208E-01	-1.20911212E-01
5.24171889E+07	 3.05460233E-01	-1.21407765E-01
5.24293969E+07	 3.04325080E-01	-1.21898574E-01
5.24416049E+07	 3.03188941E-01	-1.22381701E-01
5.24538130E+07	 3.02050420E-01	-1.22871324E-01
5.24660210E+07	 3.00910412E-01	-1.23346791E-01
5.24782290E+07	 2.99773212E-01	-1.23816495E-01
5.24904370E+07	 2.98642157E-01	-1.24295442E-01
5.25026451E+07	 2.97494022E-01	-1.24754438E-01
5.25148531E+07	 2.96358544E-01	-1.25212112E-01
5.25270611E+07	 2.95214509E-01	-1.25667912E-01
5.25392691E+07	 2.94072112E-01	-1.26114903E-01
5.25514772E+07	 2.92931006E-01	-1.26556949E-01
5.25636852E+07	 2.91794805E-01	-1.26995259E-01
5.25758932E+07	 2.90654309E-01	-1.27431832E-01
5.25881012E+07	 2.89507151E-01	-1.27860604E-01
5.26003093E+07	 2.88365858E-01	-1.28288805E-01
5.26125173E+07	 2.87226201E-01	-1.28709809E-01
5.26247253E+07	 2.86084914E-01	-1.29127638E-01
5.26369333E+07	 2.84938791E-01	-1.29527810E-01
5.26491414E+07	 2.83796817E-01	-1.29941594E-01
5.26613494E+07	 2.82650540E-01	-1.30341802E-01
5.26735574E+07	 2.81504061E-01	-1.30736027E-01
5.26857654E+07	 2.80366868E-01	-1.31129299E-01
5.26979735E+07	 2.79227730E-01	-1.31522509E-01
5.27101815E+07	 2.78080776E-01	-1.31900939E-01
5.27223895E+07	 2.76930293E-01	-1.32277527E-01
5.27345975E+07	 2.75795337E-01	-1.32643747E-01
5.27468056E+07	 2.74646041E-01	-1.33013370E-01
5.27590136E+07	 2.73503259E-01	-1.33376132E-01
5.27712216E+07	 2.72359372E-01	-1.33734482E-01
5.27834296E+07	 2.71212448E-01	-1.34093237E-01
5.27956377E+07	 2.70074303E-01	-1.34436403E-01
5.28078457E+07	 2.68928025E-01	-1.34783578E-01
5.28200537E+07	 2.67788085E-01	-1.35123912E-01
5.28322617E+07	 2.66639113E-01	-1.35460903E-01
5.28444698E+07	 2.65498957E-01	-1.35791834E-01
5.28566778E+07	 2.64356730E-01	-1.36119616E-01
5.28688858E+07	 2.63209126E-01	-1.36434452E-01
5.28810938E+07	 2.62067914E-01	-1.36754472E-01
5.28933019E+07	 2.60931110E-01	-1.37065307E-01
5.29055099E+07	 2.59786757E-01	-1.37368839E-01
5.29177179E+07	 2.58641844E-01	-1.37669388E-01
5.29299259E+07	 2.57501905E-01	-1.37961781E-01
5.29421340E+07	 2.56350056E-01	-1.38260042E-01
5.29543420E+07	 2.55215746E-01	-1.38552906E-01
5.29665500E+07	 2.54074414E-01	-1.38841882E-01
5.29787580E+07	 2.52936671E-01	-1.39112554E-01
5.29909661E+07	 2.51795596E-01	-1.39389934E-01
5.30031741E+07	 2.50657238E-01	-1.39658460E-01
5.30153821E+07	 2.49518225E-01	-1.39919410E-01
5.30275901E+07	 2.48376866E-01	-1.40177258E-01
5.30397982E+07	 2.47242255E-01	-1.40435305E-01
5.30520062E+07	 2.46105859E-01	-1.40684194E-01
5.30642142E+07	 2.44964311E-01	-1.40931691E-01
5.30764222E+07	 2.43829079E-01	-1.41173493E-01
5.30886303E+07	 2.42690429E-01	-1.41412227E-01
5.31008383E+07	 2.41551936E-01	-1.41644538E-01
5.31130463E+07	 2.40419360E-01	-1.41869309E-01
5.31252543E+07	 2.39284521E-01	-1.42092969E-01
5.31374624E+07	 2.38153755E-01	-1.42312293E-01
5.31496704E+07	 2.37018501E-01	-1.42524507E-01
5.31618784E+07	 2.35880524E-01	-1.42735397E-01
5.31740864E+07	 2.34752064E-01	-1.42932458E-01
5.31862945E+07	 2.33620321E-01	-1.43137058E-01
5.31985025E+07	 2.32482565E-01	-1.43335011E-01
5.32107105E+07	 2.31355731E-01	-1.43530113E-01
5.32229185E+07	 2.30228050E-01	-1.43709418E-01
5.32351266E+07	 2.29094757E-01	-1.43893589E-01
5.32473346E+07	 2.27967365E-01	-1.44073698E-01
5.32595426E+07	 2.26836222E-01	-1.44243331E-01
5.32717506E+07	 2.25719952E-01	-1.44419856E-01
5.32839587E+07	 2.24580566E-01	-1.44573414E-01
5.32961667E+07	 2.23461735E-01	-1.44726577E-01
5.33083747E+07	 2.22332383E-01	-1.44891031E-01
5.33205827E+07	 2.21204848E-01	-1.45033043E-01
5.33327908E+07	 2.20084272E-01	-1.45187279E-01
5.33449988E+07	 2.18961737E-01	-1.45337212E-01
5.33572068E+07	 2.17846789E-01	-1.45470600E-01
5.33694148E+07	 2.16721420E-01	-1.45597098E-01
5.33816229E+07	 2.15603383E-01	-1.45729682E-01
5.33938309E+07	 2.14486494E-01	-1.45851808E-01
5.34060389E+07	 2.13365083E-01	-1.45969484E-01
5.34182469E+07	 2.12255800E-01	-1.46084267E-01
5.34304550E+07	 2.11136000E-01	-1.46194388E-01
5.34426630E+07	 2.10020258E-01	-1.46302369E-01
5.34548710E+07	 2.08897036E-01	-1.46404617E-01
5.34670790E+07	 2.07779971E-01	-1.46500922E-01
5.34792871E+07	 2.06669830E-01	-1.46593628E-01
5.34914951E+07	 2.05558844E-01	-1.46682090E-01
5.35037031E+07	 2.04452697E-01	-1.46767889E-01
5.35159111E+07	 2.03336773E-01	-1.46850330E-01
5.35281192E+07	 2.02239014E-01	-1.46928511E-01
5.35403272E+07	 2.01125390E-01	-1.46995899E-01
5.35525352E+07	 2.00024879E-01	-1.47063253E-01
5.35647432E+07	 1.98920688E-01	-1.47129518E-01
5.35769512E+07	 1.97817439E-01	-1.47191209E-01
5.35891593E+07	 1.96720333E-01	-1.47241900E-01
5.36013673E+07	 1.95614053E-01	-1.47294301E-01
5.36135753E+07	 1.94518755E-01	-1.47336573E-01
5.36257833E+07	 1.93425938E-01	-1.47377544E-01
5.36379914E+07	 1.92322864E-01	-1.47419086E-01
5.36501994E+07	 1.91227883E-01	-1.47453751E-01
5.36624074E+07	 1.90134406E-01	-1.47475219E-01
5.36746154E+07	 1.89040878E-01	-1.47502647E-01
5.36868235E+07	 1.87947092E-01	-1.47529763E-01
5.36990315E+07	 1.86861114E-01	-1.47534829E-01
5.37112395E+07	 1.85776094E-01	-1.47554528E-01
5.37234475E+07	 1.84685153E-01	-1.47554084E-01
5.37356556E+07	 1.83594574E-01	-1.47567404E-01
5.37478636E+07	 1.82513530E-01	-1.47561905E-01
5.37600716E+07	 1.81427084E-01	-1.47557461E-01
5.37722796E+07	 1.80349057E-01	-1.47551138E-01
5.37844877E+07	 1.79268347E-01	-1.47535722E-01
5.37966957E+07	 1.78189867E-01	-1.47522791E-01
5.38089037E+07	 1.77110550E-01	-1.47495612E-01
5.38211117E+07	 1.76032162E-01	-1.47474332E-01
5.38333198E+07	 1.74951746E-01	-1.47440715E-01
5.38455278E+07	 1.73887551E-01	-1.47411767E-01
5.38577358E+07	 1.72816958E-01	-1.47375978E-01
5.38699438E+07	 1.71749507E-01	-1.47331858E-01
5.38821519E+07	 1.70681638E-01	-1.47284269E-01
5.38943599E+07	 1.69616889E-01	-1.47232219E-01
5.39065679E+07	 1.68552115E-01	-1.47181601E-01
5.39187759E+07	 1.67486313E-01	-1.47122989E-01
5.39309840E+07	 1.66421086E-01	-1.47063787E-01
5.39431920E+07	 1.65357378E-01	-1.46998076E-01
5.39554000E+07	 1.64303776E-01	-1.46934429E-01
5.39676080E+07	 1.63247836E-01	-1.46855165E-01
5.39798161E+07	 1.62195406E-01	-1.46771404E-01
5.39920241E+07	 1.61139865E-01	-1.46691343E-01
5.40042321E+07	 1.60085284E-01	-1.46611261E-01
5.40164401E+07	 1.59035964E-01	-1.46525818E-01
5.40286482E+07	 1.57986839E-01	-1.46426846E-01
5.40408562E+07	 1.56937579E-01	-1.46326295E-01
5.40530642E+07	 1.55901908E-01	-1.46228690E-01
5.40652722E+07	 1.54855022E-01	-1.46130582E-01
5.40774803E+07	 1.53810643E-01	-1.46018835E-01
5.40896883E+07	 1.52773684E-01	-1.45909905E-01
5.41018963E+07	 1.51735298E-01	-1.45787193E-01
5.41141043E+07	 1.50700782E-01	-1.45670028E-01
5.41263124E+07	 1.49660864E-01	-1.45547764E-01
5.41385204E+07	 1.48625593E-01	-1.45422494E-01
5.41507284E+07	 1.47599202E-01	-1.45281808E-01
5.41629364E+07	 1.46570851E-01	-1.45153988E-01
5.41751445E+07	 1.45541963E-01	-1.45013707E-01
5.41873525E+07	 1.44517110E-01	-1.44868035E-01
5.41995605E+07	 1.43498490E-01	-1.44724047E-01
5.42117685E+07	 1.42477145E-01	-1.44569601E-01
5.42239766E+07	 1.41455732E-01	-1.44415241E-01
5.42361846E+07	 1.40439045E-01	-1.44258529E-01
5.42483926E+07	 1.39421948E-01	-1.44098496E-01
5.42606006E+07	 1.38411152E-01	-1.43938458E-01
5.42728087E+07	 1.37397029E-01	-1.43769185E-01
5.42850167E+07	 1.36389933E-01	-1.43592593E-01
5.42972247E+07	 1.35379214E-01	-1.43415063E-01
5.43094327E+07	 1.34374186E-01	-1.43234644E-01
5.43216408E+07	 1.33368553E-01	-1.43052279E-01
5.43338488E+07	 1.32370309E-01	-1.42862459E-01
5.43460568E+07	 1.31371269E-01	-1.42680307E-01
5.43582648E+07	 1.30372461E-01	-1.42486006E-01
5.43704729E+07	 1.29376644E-01	-1.42282159E-01
5.43826809E+07	 1.28385439E-01	-1.42079089E-01
5.43948889E+07	 1.27389361E-01	-1.41873402E-01
5.44070969E+07	 1.26409472E-01	-1.41667923E-01
5.44193050E+07	 1.25419486E-01	-1.41456612E-01
5.44315130E+07	 1.24434639E-01	-1.41242713E-01
5.44437210E+07	 1.23450641E-01	-1.41017761E-01
5.44559290E+07	 1.22474735E-01	-1.40797915E-01
5.44681371E+07	 1.21489553E-01	-1.40573359E-01
5.44803451E+07	 1.20518968E-01	-1.40335129E-01
5.44925531E+07	 1.19541064E-01	-1.40108277E-01
5.45047611E+07	 1.18571397E-01	-1.39873967E-01
5.45169692E+07	 1.17596884E-01	-1.39631238E-01
5.45291772E+07	 1.16634344E-01	-1.39384950E-01
5.45413852E+07	 1.15668888E-01	-1.39144213E-01
5.45535932E+07	 1.14704421E-01	-1.38889537E-01
5.45658013E+07	 1.13743304E-01	-1.38640429E-01
5.45780093E+07	 1.12788241E-01	-1.38381389E-01
5.45902173E+07	 1.11835525E-01	-1.38122427E-01
5.46024253E+07	 1.10878020E-01	-1.37857683E-01
5.46146334E+07	 1.09925863E-01	-1.37588112E-01
5.46268414E+07	 1.08978615E-01	-1.37316850E-01
5.46390494E+07	 1.08031150E-01	-1.37046357E-01
5.46512574E+07	 1.07083161E-01	-1.36765285E-01
5.46634655E+07	 1.06143163E-01	-1.36487426E-01
5.46756735E+07	 1.05202178E-01	-1.36203233E-01
5.46878815E+07	 1.04263726E-01	-1.35919728E-01
5.47000895E+07	 1.03333627E-01	-1.35630347E-01
5.47122976E+07	 1.02394264E-01	-1.35332366E-01
5.47245056E+07	 1.01469009E-01	-1.35042364E-01
5.47367136E+07	 1.00545594E-01	-1.34739046E-01
5.47489216E+07	 9.96163393E-02	-1.34437352E-01
5.47611296E+07	 9.86952654E-02	-1.34128872E-01
5.47733377E+07	 9.77676514E-02	-1.33818271E-01
5.47855457E+07	 9.68537215E-02	-1.33508551E-01
5.47977537E+07	 9.59335353E-02	-1.33194961E-01
5.48099617E+07	 9.50230982E-02	-1.32874441E-01
5.48221698E+07	 9.41158547E-02	-1.32549757E-01
5.48343778E+07	 9.32034658E-02	-1.32226963E-01
5.48465858E+07	 9.22963837E-02	-1.31899769E-01
5.48587938E+07	 9.13966274E-02	-1.31569419E-01
5.48710019E+07	 9.04929665E-02	-1.31239004E-01
5.48832099E+07	 8.95898123E-02	-1.30893679E-01
5.48954179E+07	 8.86947302E-02	-1.30556939E-01
5.49076259E+07	 8.78089375E-02	-1.30213806E-01
5.49198340E+07	 8.69180108E-02	-1.29867514E-01
5.49320420E+07	 8.60421404E-02	-1.29524796E-01
5.49442500E+07	 8.51557543E-02	-1.29165628E-01
5.49564580E+07	 8.42683732E-02	-1.28815513E-01
5.49686661E+07	 8.33980247E-02	-1.28459688E-01
5.49808741E+07	 8.25099821E-02	-1.28103694E-01
5.49930821E+07	 8.16403544E-02	-1.27736721E-01
5.50052901E+07	 8.07610967E-02	-1.27365906E-01
5.50174982E+07	 7.98876115E-02	-1.26998805E-01
5.50297062E+07	 7.90234651E-02	-1.26623689E-01
5.50419142E+07	 7.81586227E-02	-1.26255526E-01
5.50541222E+07	 7.72975385E-02	-1.25868762E-01
5.50663303E+07	 7.64367561E-02	-1.25488783E-01
5.50785383E+07	 7.55844872E-02	-1.25109834E-01
5.50907463E+07	 7.47236416E-02	-1.24718906E-01
5.51029543E+07	 7.38750316E-02	-1.24328320E-01
5.51151624E+07	 7.30212234E-02	-1.23942993E-01
5.51273704E+07	 7.21817221E-02	-1.23548609E-01
