! COPPER MOUNTAIN TECHNOLOGIES, PLANAR TR1300/1, 00071119, 20.2.2/1.0
! Date: 12/11/2023 3:18:22 PM
! Data: Format [Calibration Info]
! Freq          	S11: Re/Im F1                  
# HZ S RI R 50
5.00000000E+07	 2.81498861E-01	 3.81886916E-02
5.00122080E+07	 2.81558231E-01	 3.77597533E-02
5.00244160E+07	 2.81613616E-01	 3.73274719E-02
5.00366241E+07	 2.81662083E-01	 3.68932412E-02
5.00488321E+07	 2.81715368E-01	 3.64642199E-02
5.00610401E+07	 2.81766816E-01	 3.60285162E-02
5.00732481E+07	 2.81817706E-01	 3.55968683E-02
5.00854562E+07	 2.81873455E-01	 3.51671287E-02
5.00976642E+07	 2.81924062E-01	 3.47317268E-02
5.01098722E+07	 2.81975986E-01	 3.43026053E-02
5.01220802E+07	 2.82021433E-01	 3.38685039E-02
5.01342883E+07	 2.82076345E-01	 3.34341562E-02
5.01464963E+07	 2.82119704E-01	 3.29975210E-02
5.01587043E+07	 2.82167980E-01	 3.25718493E-02
5.01709123E+07	 2.82212238E-01	 3.21385752E-02
5.01831204E+07	 2.82261348E-01	 3.17077123E-02
5.01953284E+07	 2.82309354E-01	 3.12668506E-02
5.02075364E+07	 2.82349063E-01	 3.08409619E-02
5.02197444E+07	 2.82397660E-01	 3.04071014E-02
5.02319525E+07	 2.82442163E-01	 2.99710029E-02
5.02441605E+07	 2.82487309E-01	 2.95375015E-02
5.02563685E+07	 2.82527766E-01	 2.91080855E-02
5.02685765E+07	 2.82562381E-01	 2.86740110E-02
5.02807846E+07	 2.82607398E-01	 2.82361990E-02
5.02929926E+07	 2.82645925E-01	 2.78089862E-02
5.03052006E+07	 2.82692264E-01	 2.73786323E-02
5.03174086E+07	 2.82728370E-01	 2.69391244E-02
5.03296167E+07	 2.82765402E-01	 2.65074913E-02
5.03418247E+07	 2.82807756E-01	 2.60689836E-02
5.03540327E+07	 2.82839593E-01	 2.56353967E-02
5.03662407E+07	 2.82885052E-01	 2.52026225E-02
5.03784488E+07	 2.82917581E-01	 2.47716156E-02
5.03906568E+07	 2.82948453E-01	 2.43387967E-02
5.04028648E+07	 2.82981709E-01	 2.39032606E-02
5.04150728E+07	 2.83019939E-01	 2.34713063E-02
5.04272809E+07	 2.83052387E-01	 2.30361938E-02
5.04394889E+07	 2.83075018E-01	 2.26027108E-02
5.04516969E+07	 2.83114113E-01	 2.21658379E-02
5.04639049E+07	 2.83149004E-01	 2.17321068E-02
5.04761130E+07	 2.83178687E-01	 2.12984630E-02
5.04883210E+07	 2.83205026E-01	 2.08635171E-02
5.05005290E+07	 2.83237761E-01	 2.04280335E-02
5.05127370E+07	 2.83270731E-01	 1.99951567E-02
5.05249451E+07	 2.83293681E-01	 1.95637026E-02
5.05371531E+07	 2.83321748E-01	 1.91311263E-02
5.05493611E+07	 2.83350337E-01	 1.86900203E-02
5.05615691E+07	 2.83374274E-01	 1.82598001E-02
5.05737772E+07	 2.83402654E-01	 1.78259436E-02
5.05859852E+07	 2.83419732E-01	 1.73865062E-02
5.05981932E+07	 2.83450264E-01	 1.69550549E-02
5.06104012E+07	 2.83477279E-01	 1.65173565E-02
5.06226093E+07	 2.83495375E-01	 1.60858190E-02
5.06348173E+07	 2.83516250E-01	 1.56518773E-02
5.06470253E+07	 2.83536143E-01	 1.52158102E-02
5.06592333E+07	 2.83563850E-01	 1.47833576E-02
5.06714414E+07	 2.83578118E-01	 1.43444069E-02
5.06836494E+07	 2.83602179E-01	 1.39097633E-02
5.06958574E+07	 2.83622228E-01	 1.34711516E-02
5.07080654E+07	 2.83635995E-01	 1.30415982E-02
5.07202735E+07	 2.83658963E-01	 1.26050215E-02
5.07324815E+07	 2.83669166E-01	 1.21670176E-02
5.07446895E+07	 2.83687071E-01	 1.17338139E-02
5.07568975E+07	 2.83703902E-01	 1.12993996E-02
5.07691056E+07	 2.83719350E-01	 1.08631662E-02
5.07813136E+07	 2.83734374E-01	 1.04258715E-02
5.07935216E+07	 2.83748956E-01	 9.99812917E-03
5.08057296E+07	 2.83757756E-01	 9.56375890E-03
5.08179377E+07	 2.83773517E-01	 9.12765622E-03
5.08301457E+07	 2.83784158E-01	 8.68624096E-03
5.08423537E+07	 2.83794851E-01	 8.25167740E-03
5.08545617E+07	 2.83800311E-01	 7.82124183E-03
5.08667698E+07	 2.83816188E-01	 7.38205279E-03
5.08789778E+07	 2.83823867E-01	 6.95241038E-03
5.08911858E+07	 2.83830604E-01	 6.51658687E-03
5.09033938E+07	 2.83838302E-01	 6.07885729E-03
5.09156019E+07	 2.83846978E-01	 5.63817153E-03
5.09278099E+07	 2.83854557E-01	 5.20528321E-03
5.09400179E+07	 2.83855400E-01	 4.77212516E-03
5.09522259E+07	 2.83864556E-01	 4.33634477E-03
5.09644340E+07	 2.83867870E-01	 3.90276136E-03
5.09766420E+07	 2.83866986E-01	 3.46674459E-03
5.09888500E+07	 2.83874245E-01	 3.02962275E-03
5.10010580E+07	 2.83880523E-01	 2.59752635E-03
5.10132661E+07	 2.83878325E-01	 2.16070421E-03
5.10254741E+07	 2.83880104E-01	 1.72179653E-03
5.10376821E+07	 2.83882529E-01	 1.28983613E-03
5.10498901E+07	 2.83879629E-01	 8.52629871E-04
5.10620982E+07	 2.83880798E-01	 4.18445275E-04
5.10743062E+07	 2.83877723E-01	-1.89385245E-05
5.10865142E+07	 2.83881833E-01	-4.49096401E-04
5.10987222E+07	 2.83872420E-01	-8.87042436E-04
5.11109303E+07	 2.83872255E-01	-1.31669388E-03
5.11231383E+07	 2.83870750E-01	-1.76051546E-03
5.11353463E+07	 2.83866767E-01	-2.19209147E-03
5.11475543E+07	 2.83857384E-01	-2.63569990E-03
5.11597624E+07	 2.83855155E-01	-3.06530375E-03
5.11719704E+07	 2.83847769E-01	-3.50018323E-03
5.11841784E+07	 2.83841740E-01	-3.93620394E-03
5.11963864E+07	 2.83831676E-01	-4.37313274E-03
5.12085944E+07	 2.83820158E-01	-4.80898479E-03
5.12208025E+07	 2.83813666E-01	-5.24115874E-03
5.12330105E+07	 2.83804950E-01	-5.67439657E-03
5.12452185E+07	 2.83796851E-01	-6.10659826E-03
5.12574265E+07	 2.83782598E-01	-6.54445555E-03
5.12696346E+07	 2.83770729E-01	-6.98688392E-03
5.12818426E+07	 2.83750603E-01	-7.42160166E-03
5.12940506E+07	 2.83740408E-01	-7.85206080E-03
5.13062586E+07	 2.83728822E-01	-8.28698132E-03
5.13184667E+07	 2.83714019E-01	-8.72425939E-03
5.13306747E+07	 2.83704859E-01	-9.15482180E-03
5.13428827E+07	 2.83686670E-01	-9.59634908E-03
5.13550907E+07	 2.83671161E-01	-1.00213348E-02
5.13672988E+07	 2.83652975E-01	-1.04631399E-02
5.13795068E+07	 2.83637336E-01	-1.08958422E-02
5.13917148E+07	 2.83619643E-01	-1.13360757E-02
5.14039228E+07	 2.83593196E-01	-1.17700828E-02
5.14161309E+07	 2.83576621E-01	-1.22026742E-02
5.14283389E+07	 2.83562317E-01	-1.26376107E-02
5.14405469E+07	 2.83538352E-01	-1.30677474E-02
5.14527549E+07	 2.83514732E-01	-1.35094398E-02
5.14649630E+07	 2.83495895E-01	-1.39431240E-02
5.14771710E+07	 2.83469385E-01	-1.43807714E-02
5.14893790E+07	 2.83448285E-01	-1.48050762E-02
5.15015870E+07	 2.83425016E-01	-1.52458736E-02
5.15137951E+07	 2.83394812E-01	-1.56820824E-02
5.15260031E+07	 2.83373152E-01	-1.61127787E-02
5.15382111E+07	 2.83345705E-01	-1.65507555E-02
5.15504191E+07	 2.83321332E-01	-1.69851292E-02
5.15626272E+07	 2.83289482E-01	-1.74160874E-02
5.15748352E+07	 2.83261022E-01	-1.78520353E-02
5.15870432E+07	 2.83232314E-01	-1.82839307E-02
5.15992512E+07	 2.83206105E-01	-1.87230210E-02
5.16114593E+07	 2.83173944E-01	-1.91584358E-02
5.16236673E+07	 2.83146324E-01	-1.95881772E-02
5.16358753E+07	 2.83119671E-01	-2.00244870E-02
5.16480833E+07	 2.83083196E-01	-2.04616343E-02
5.16602914E+07	 2.83048643E-01	-2.08981614E-02
5.16724994E+07	 2.83009334E-01	-2.13264716E-02
5.16847074E+07	 2.82975767E-01	-2.17619188E-02
5.16969154E+07	 2.82945684E-01	-2.21946723E-02
5.17091235E+07	 2.82909033E-01	-2.26275460E-02
5.17213315E+07	 2.82874848E-01	-2.30607883E-02
5.17335395E+07	 2.82832675E-01	-2.34973448E-02
5.17457475E+07	 2.82800237E-01	-2.39339445E-02
5.17579556E+07	 2.82763151E-01	-2.43668081E-02
5.17701636E+07	 2.82727982E-01	-2.47952644E-02
5.17823716E+07	 2.82684210E-01	-2.52320578E-02
5.17945796E+07	 2.82649014E-01	-2.56609941E-02
5.18067877E+07	 2.82609808E-01	-2.60995147E-02
5.18189957E+07	 2.82562768E-01	-2.65317709E-02
5.18312037E+07	 2.82519303E-01	-2.69652426E-02
5.18434117E+07	 2.82481559E-01	-2.73952286E-02
5.18556198E+07	 2.82435810E-01	-2.78336687E-02
5.18678278E+07	 2.82389618E-01	-2.82635435E-02
5.18800358E+07	 2.82350246E-01	-2.86929808E-02
5.18922438E+07	 2.82305112E-01	-2.91283998E-02
5.19044519E+07	 2.82254533E-01	-2.95620731E-02
5.19166599E+07	 2.82207162E-01	-2.99915828E-02
5.19288679E+07	 2.82158974E-01	-3.04272389E-02
5.19410759E+07	 2.82109891E-01	-3.08616502E-02
5.19532840E+07	 2.82064845E-01	-3.12967988E-02
5.19654920E+07	 2.82021657E-01	-3.17294687E-02
5.19777000E+07	 2.81969038E-01	-3.21583757E-02
5.19899080E+07	 2.81911847E-01	-3.25920539E-02
5.20021161E+07	 2.81863098E-01	-3.30246131E-02
5.20143241E+07	 2.81810466E-01	-3.34576662E-02
5.20265321E+07	 2.81755782E-01	-3.38894212E-02
5.20387401E+07	 2.81708083E-01	-3.43206682E-02
5.20509482E+07	 2.81649010E-01	-3.47512183E-02
5.20631562E+07	 2.81599016E-01	-3.51885956E-02
5.20753642E+07	 2.81542136E-01	-3.56179598E-02
5.20875722E+07	 2.81485862E-01	-3.60479588E-02
5.20997803E+07	 2.81432980E-01	-3.64811867E-02
5.21119883E+07	 2.81369773E-01	-3.69122391E-02
5.21241963E+07	 2.81311344E-01	-3.73407259E-02
5.21364043E+07	 2.81256641E-01	-3.77747557E-02
5.21486124E+07	 2.81195141E-01	-3.82040469E-02
5.21608204E+07	 2.81131921E-01	-3.86417390E-02
5.21730284E+07	 2.81077498E-01	-3.90739647E-02
5.21852364E+07	 2.81015955E-01	-3.95016136E-02
5.21974445E+07	 2.80948739E-01	-3.99317501E-02
5.22096525E+07	 2.80892329E-01	-4.03579962E-02
5.22218605E+07	 2.80830223E-01	-4.07897738E-02
5.22340685E+07	 2.80757236E-01	-4.12202023E-02
5.22462766E+07	 2.80695541E-01	-4.16556314E-02
5.22584846E+07	 2.80633915E-01	-4.20838438E-02
5.22706926E+07	 2.80570584E-01	-4.25151338E-02
5.22829006E+07	 2.80497956E-01	-4.29462853E-02
5.22951087E+07	 2.80436388E-01	-4.33728595E-02
5.23073167E+07	 2.80367694E-01	-4.38085355E-02
5.23195247E+07	 2.80298252E-01	-4.42328408E-02
5.23317327E+07	 2.80226003E-01	-4.46645305E-02
5.23439408E+07	 2.80162507E-01	-4.50931930E-02
5.23561488E+07	 2.80089412E-01	-4.55247661E-02
5.23683568E+07	 2.80018286E-01	-4.59591471E-02
5.23805648E+07	 2.79942206E-01	-4.63806553E-02
5.23927728E+07	 2.79874386E-01	-4.68158409E-02
5.24049809E+07	 2.79793616E-01	-4.72468152E-02
5.24171889E+07	 2.79724416E-01	-4.76710960E-02
5.24293969E+07	 2.79649640E-01	-4.81004063E-02
5.24416049E+07	 2.79582250E-01	-4.85333302E-02
5.24538130E+07	 2.79500205E-01	-4.89630271E-02
5.24660210E+07	 2.79425324E-01	-4.93896157E-02
5.24782290E+07	 2.79345319E-01	-4.98149673E-02
5.24904370E+07	 2.79281938E-01	-5.02473072E-02
5.25026451E+07	 2.79189460E-01	-5.06738067E-02
5.25148531E+07	 2.79114220E-01	-5.11049548E-02
5.25270611E+07	 2.79034337E-01	-5.15293242E-02
5.25392691E+07	 2.78956176E-01	-5.19512153E-02
5.25514772E+07	 2.78874948E-01	-5.23830124E-02
5.25636852E+07	 2.78796125E-01	-5.28138239E-02
5.25758932E+07	 2.78712522E-01	-5.32397468E-02
5.25881012E+07	 2.78629532E-01	-5.36671041E-02
5.26003093E+07	 2.78542488E-01	-5.40990197E-02
5.26125173E+07	 2.78461679E-01	-5.45217721E-02
5.26247253E+07	 2.78376412E-01	-5.49478319E-02
5.26369333E+07	 2.78290527E-01	-5.53737002E-02
5.26491414E+07	 2.78205284E-01	-5.58049352E-02
5.26613494E+07	 2.78117843E-01	-5.62314945E-02
5.26735574E+07	 2.78026711E-01	-5.66593214E-02
5.26857654E+07	 2.77941263E-01	-5.70856251E-02
5.26979735E+07	 2.77855175E-01	-5.75131924E-02
5.27101815E+07	 2.77764576E-01	-5.79373846E-02
5.27223895E+07	 2.77676909E-01	-5.83690464E-02
5.27345975E+07	 2.77583324E-01	-5.87874830E-02
5.27468056E+07	 2.77492837E-01	-5.92131140E-02
5.27590136E+07	 2.77407075E-01	-5.96410055E-02
5.27712216E+07	 2.77310247E-01	-6.00652366E-02
5.27834296E+07	 2.77215862E-01	-6.04916262E-02
5.27956377E+07	 2.77124436E-01	-6.09148273E-02
5.28078457E+07	 2.77029922E-01	-6.13398233E-02
5.28200537E+07	 2.76933042E-01	-6.17698377E-02
5.28322617E+07	 2.76835473E-01	-6.21898297E-02
5.28444698E+07	 2.76740097E-01	-6.26142760E-02
5.28566778E+07	 2.76647039E-01	-6.30418225E-02
5.28688858E+07	 2.76540001E-01	-6.34647075E-02
5.28810938E+07	 2.76450926E-01	-6.38897337E-02
5.28933019E+07	 2.76354013E-01	-6.43136671E-02
5.29055099E+07	 2.76257827E-01	-6.47382089E-02
5.29177179E+07	 2.76146902E-01	-6.51621393E-02
5.29299259E+07	 2.76048880E-01	-6.55802387E-02
5.29421340E+07	 2.75944234E-01	-6.60066291E-02
5.29543420E+07	 2.75845045E-01	-6.64348275E-02
5.29665500E+07	 2.75743031E-01	-6.68580467E-02
5.29787580E+07	 2.75640850E-01	-6.72807219E-02
5.29909661E+07	 2.75538264E-01	-6.77052178E-02
5.30031741E+07	 2.75431343E-01	-6.81297816E-02
5.30153821E+07	 2.75327021E-01	-6.85494356E-02
5.30275901E+07	 2.75223568E-01	-6.89706402E-02
5.30397982E+07	 2.75120559E-01	-6.93910017E-02
5.30520062E+07	 2.75014807E-01	-6.98129073E-02
5.30642142E+07	 2.74899403E-01	-7.02394952E-02
5.30764222E+07	 2.74793338E-01	-7.06561025E-02
5.30886303E+07	 2.74682567E-01	-7.10810939E-02
5.31008383E+07	 2.74573899E-01	-7.14985565E-02
5.31130463E+07	 2.74461270E-01	-7.19181345E-02
5.31252543E+07	 2.74355783E-01	-7.23412193E-02
5.31374624E+07	 2.74245593E-01	-7.27571741E-02
5.31496704E+07	 2.74128895E-01	-7.31822046E-02
5.31618784E+07	 2.74014069E-01	-7.36037424E-02
5.31740864E+07	 2.73907373E-01	-7.40185877E-02
5.31862945E+07	 2.73790212E-01	-7.44369671E-02
5.31985025E+07	 2.73675321E-01	-7.48624690E-02
5.32107105E+07	 2.73559469E-01	-7.52869410E-02
5.32229185E+07	 2.73444785E-01	-7.57057703E-02
5.32351266E+07	 2.73328589E-01	-7.61237879E-02
5.32473346E+07	 2.73208021E-01	-7.65394672E-02
5.32595426E+07	 2.73089897E-01	-7.69621257E-02
5.32717506E+07	 2.72975781E-01	-7.73778205E-02
5.32839587E+07	 2.72852682E-01	-7.77972952E-02
5.32961667E+07	 2.72731309E-01	-7.82148019E-02
5.33083747E+07	 2.72612493E-01	-7.86335508E-02
5.33205827E+07	 2.72493835E-01	-7.90519255E-02
5.33327908E+07	 2.72368405E-01	-7.94676264E-02
5.33449988E+07	 2.72255455E-01	-7.98879476E-02
5.33572068E+07	 2.72131242E-01	-8.03078513E-02
5.33694148E+07	 2.71997170E-01	-8.07200882E-02
5.33816229E+07	 2.71880963E-01	-8.11388233E-02
5.33938309E+07	 2.71752166E-01	-8.15580209E-02
5.34060389E+07	 2.71621010E-01	-8.19739382E-02
5.34182469E+07	 2.71504535E-01	-8.23905241E-02
5.34304550E+07	 2.71376677E-01	-8.28050237E-02
5.34426630E+07	 2.71252169E-01	-8.32225310E-02
5.34548710E+07	 2.71116495E-01	-8.36401873E-02
5.34670790E+07	 2.70992323E-01	-8.40534648E-02
5.34792871E+07	 2.70859494E-01	-8.44703755E-02
5.34914951E+07	 2.70734372E-01	-8.48871518E-02
5.35037031E+07	 2.70607522E-01	-8.52980468E-02
5.35159111E+07	 2.70471412E-01	-8.57183374E-02
5.35281192E+07	 2.70352045E-01	-8.61310004E-02
5.35403272E+07	 2.70207052E-01	-8.65464367E-02
5.35525352E+07	 2.70073552E-01	-8.69601460E-02
5.35647432E+07	 2.69940477E-01	-8.73757691E-02
5.35769512E+07	 2.69814056E-01	-8.77890704E-02
5.35891593E+07	 2.69677305E-01	-8.82015487E-02
5.36013673E+07	 2.69532190E-01	-8.86153691E-02
5.36135753E+07	 2.69397323E-01	-8.90235033E-02
5.36257833E+07	 2.69268628E-01	-8.94395983E-02
5.36379914E+07	 2.69123258E-01	-8.98579070E-02
5.36501994E+07	 2.68987776E-01	-9.02701940E-02
5.36624074E+07	 2.68850212E-01	-9.06803004E-02
5.36746154E+07	 2.68713662E-01	-9.10963843E-02
5.36868235E+07	 2.68570712E-01	-9.15080339E-02
5.36990315E+07	 2.68434995E-01	-9.19177863E-02
5.37112395E+07	 2.68292725E-01	-9.23300176E-02
5.37234475E+07	 2.68149971E-01	-9.27438533E-02
5.37356556E+07	 2.68004245E-01	-9.31531323E-02
5.37478636E+07	 2.67861897E-01	-9.35639022E-02
5.37600716E+07	 2.67715913E-01	-9.39727944E-02
5.37722796E+07	 2.67577517E-01	-9.43852445E-02
5.37844877E+07	 2.67432756E-01	-9.47932250E-02
5.37966957E+07	 2.67285934E-01	-9.52111456E-02
5.38089037E+07	 2.67139144E-01	-9.56156633E-02
5.38211117E+07	 2.66995639E-01	-9.60323059E-02
5.38333198E+07	 2.66842131E-01	-9.64358353E-02
5.38455278E+07	 2.66695793E-01	-9.68484557E-02
5.38577358E+07	 2.66548339E-01	-9.72587566E-02
5.38699438E+07	 2.66398605E-01	-9.76612774E-02
5.38821519E+07	 2.66250091E-01	-9.80734240E-02
5.38943599E+07	 2.66102025E-01	-9.84791025E-02
5.39065679E+07	 2.65949131E-01	-9.88899561E-02
5.39187759E+07	 2.65799233E-01	-9.92959020E-02
5.39309840E+07	 2.65647356E-01	-9.97044398E-02
5.39431920E+07	 2.65494379E-01	-1.00116444E-01
5.39554000E+07	 2.65338900E-01	-1.00522997E-01
5.39676080E+07	 2.65184303E-01	-1.00924857E-01
5.39798161E+07	 2.65031117E-01	-1.01335857E-01
5.39920241E+07	 2.64873348E-01	-1.01737611E-01
5.40042321E+07	 2.64719048E-01	-1.02152224E-01
5.40164401E+07	 2.64560576E-01	-1.02556159E-01
5.40286482E+07	 2.64397376E-01	-1.02959723E-01
5.40408562E+07	 2.64239650E-01	-1.03360714E-01
5.40530642E+07	 2.64087963E-01	-1.03772508E-01
5.40652722E+07	 2.63934069E-01	-1.04185821E-01
5.40774803E+07	 2.63770526E-01	-1.04584428E-01
5.40896883E+07	 2.63607084E-01	-1.04992746E-01
5.41018963E+07	 2.63450625E-01	-1.05390990E-01
5.41141043E+07	 2.63285214E-01	-1.05794964E-01
5.41263124E+07	 2.63125361E-01	-1.06204109E-01
5.41385204E+07	 2.62959648E-01	-1.06610673E-01
5.41507284E+07	 2.62796253E-01	-1.07007488E-01
5.41629364E+07	 2.62634560E-01	-1.07414936E-01
5.41751445E+07	 2.62465964E-01	-1.07816416E-01
5.41873525E+07	 2.62300734E-01	-1.08218126E-01
5.41995605E+07	 2.62138427E-01	-1.08619930E-01
5.42117685E+07	 2.61974092E-01	-1.09025152E-01
5.42239766E+07	 2.61804128E-01	-1.09427241E-01
5.42361846E+07	 2.61637772E-01	-1.09829380E-01
5.42483926E+07	 2.61468539E-01	-1.10230675E-01
5.42606006E+07	 2.61300608E-01	-1.10636147E-01
5.42728087E+07	 2.61133105E-01	-1.11040557E-01
5.42850167E+07	 2.60962846E-01	-1.11435806E-01
5.42972247E+07	 2.60786617E-01	-1.11842163E-01
5.43094327E+07	 2.60619307E-01	-1.12239973E-01
5.43216408E+07	 2.60443038E-01	-1.12640418E-01
5.43338488E+07	 2.60272711E-01	-1.13034279E-01
5.43460568E+07	 2.60102894E-01	-1.13437623E-01
5.43582648E+07	 2.59925552E-01	-1.13837351E-01
5.43704729E+07	 2.59750462E-01	-1.14235549E-01
5.43826809E+07	 2.59577496E-01	-1.14633402E-01
5.43948889E+07	 2.59400618E-01	-1.15034999E-01
5.44070969E+07	 2.59229259E-01	-1.15435241E-01
5.44193050E+07	 2.59048440E-01	-1.15829904E-01
5.44315130E+07	 2.58871161E-01	-1.16233829E-01
5.44437210E+07	 2.58688443E-01	-1.16624980E-01
5.44559290E+07	 2.58513687E-01	-1.17024047E-01
5.44681371E+07	 2.58329677E-01	-1.17424036E-01
5.44803451E+07	 2.58154974E-01	-1.17814928E-01
5.44925531E+07	 2.57975193E-01	-1.18210928E-01
5.45047611E+07	 2.57790432E-01	-1.18612266E-01
5.45169692E+07	 2.57608680E-01	-1.19010366E-01
5.45291772E+07	 2.57429903E-01	-1.19401133E-01
5.45413852E+07	 2.57244802E-01	-1.19800790E-01
5.45535932E+07	 2.57062277E-01	-1.20191743E-01
5.45658013E+07	 2.56875293E-01	-1.20590055E-01
5.45780093E+07	 2.56692840E-01	-1.20985769E-01
5.45902173E+07	 2.56511712E-01	-1.21375293E-01
5.46024253E+07	 2.56321114E-01	-1.21766924E-01
5.46146334E+07	 2.56137584E-01	-1.22165450E-01
5.46268414E+07	 2.55951161E-01	-1.22556260E-01
5.46390494E+07	 2.55761319E-01	-1.22956582E-01
5.46512574E+07	 2.55571332E-01	-1.23347217E-01
5.46634655E+07	 2.55384368E-01	-1.23735923E-01
5.46756735E+07	 2.55191862E-01	-1.24128636E-01
5.46878815E+07	 2.55003012E-01	-1.24518963E-01
5.47000895E+07	 2.54816137E-01	-1.24917261E-01
5.47122976E+07	 2.54624261E-01	-1.25306050E-01
5.47245056E+07	 2.54430666E-01	-1.25698483E-01
5.47367136E+07	 2.54247154E-01	-1.26083934E-01
5.47489216E+07	 2.54045593E-01	-1.26478152E-01
5.47611296E+07	 2.53856960E-01	-1.26866618E-01
5.47733377E+07	 2.53655295E-01	-1.27260144E-01
5.47855457E+07	 2.53462517E-01	-1.27652047E-01
5.47977537E+07	 2.53266070E-01	-1.28042066E-01
5.48099617E+07	 2.53073249E-01	-1.28424349E-01
5.48221698E+07	 2.52873084E-01	-1.28812849E-01
5.48343778E+07	 2.52673685E-01	-1.29208300E-01
5.48465858E+07	 2.52477245E-01	-1.29595544E-01
5.48587938E+07	 2.52279942E-01	-1.29986621E-01
5.48710019E+07	 2.52086071E-01	-1.30373285E-01
5.48832099E+07	 2.51884472E-01	-1.30757800E-01
5.48954179E+07	 2.51678644E-01	-1.31143966E-01
5.49076259E+07	 2.51484268E-01	-1.31529862E-01
5.49198340E+07	 2.51283356E-01	-1.31916933E-01
5.49320420E+07	 2.51080307E-01	-1.32302221E-01
5.49442500E+07	 2.50872269E-01	-1.32683342E-01
5.49564580E+07	 2.50665513E-01	-1.33070384E-01
5.49686661E+07	 2.50472293E-01	-1.33458750E-01
5.49808741E+07	 2.50267709E-01	-1.33849761E-01
5.49930821E+07	 2.50064938E-01	-1.34228197E-01
5.50052901E+07	 2.49855101E-01	-1.34615691E-01
5.50174982E+07	 2.49648868E-01	-1.34998007E-01
5.50297062E+07	 2.49446369E-01	-1.35384075E-01
5.50419142E+07	 2.49240347E-01	-1.35766464E-01
5.50541222E+07	 2.49028590E-01	-1.36148110E-01
5.50663303E+07	 2.48823712E-01	-1.36527307E-01
5.50785383E+07	 2.48617487E-01	-1.36910443E-01
5.50907463E+07	 2.48404012E-01	-1.37293734E-01
5.51029543E+07	 2.48190376E-01	-1.37682593E-01
5.51151624E+07	 2.47982371E-01	-1.38061932E-01
5.51273704E+07	 2.47773895E-01	-1.38441395E-01
