! COPPER MOUNTAIN TECHNOLOGIES, PLANAR TR1300/1, 00071119, 20.2.2/1.0
! Date: 12/11/2023 3:09:03 PM
! Data: Format [Calibration Info]
! Freq          	S11: Re/Im F1                  
# HZ S RI R 50
5.00000000E+07	 1.54386220E-01	 2.53434909E-02
5.00122080E+07	 1.54426706E-01	 2.51030105E-02
5.00244160E+07	 1.54461133E-01	 2.48644351E-02
5.00366241E+07	 1.54498949E-01	 2.46209772E-02
5.00488321E+07	 1.54529461E-01	 2.43838281E-02
5.00610401E+07	 1.54564108E-01	 2.41455640E-02
5.00732481E+07	 1.54600554E-01	 2.39020145E-02
5.00854562E+07	 1.54632541E-01	 2.36660321E-02
5.00976642E+07	 1.54669122E-01	 2.34227918E-02
5.01098722E+07	 1.54699987E-01	 2.31839094E-02
5.01220802E+07	 1.54727666E-01	 2.29430995E-02
5.01342883E+07	 1.54766870E-01	 2.27006743E-02
5.01464963E+07	 1.54797905E-01	 2.24592447E-02
5.01587043E+07	 1.54828449E-01	 2.22256192E-02
5.01709123E+07	 1.54857292E-01	 2.19842404E-02
5.01831204E+07	 1.54894777E-01	 2.17426386E-02
5.01953284E+07	 1.54921164E-01	 2.14996671E-02
5.02075364E+07	 1.54951382E-01	 2.12635710E-02
5.02197444E+07	 1.54979072E-01	 2.10234673E-02
5.02319525E+07	 1.55010000E-01	 2.07770063E-02
5.02441605E+07	 1.55043551E-01	 2.05390309E-02
5.02563685E+07	 1.55070812E-01	 2.03036004E-02
5.02685765E+07	 1.55097660E-01	 2.00603224E-02
5.02807846E+07	 1.55127515E-01	 1.98151155E-02
5.02929926E+07	 1.55153740E-01	 1.95778627E-02
5.03052006E+07	 1.55180938E-01	 1.93328749E-02
5.03174086E+07	 1.55207235E-01	 1.90923487E-02
5.03296167E+07	 1.55235143E-01	 1.88522578E-02
5.03418247E+07	 1.55266028E-01	 1.86122220E-02
5.03540327E+07	 1.55289322E-01	 1.83725027E-02
5.03662407E+07	 1.55317207E-01	 1.81314547E-02
5.03784488E+07	 1.55338087E-01	 1.78881137E-02
5.03906568E+07	 1.55359686E-01	 1.76505789E-02
5.04028648E+07	 1.55384856E-01	 1.74062334E-02
5.04150728E+07	 1.55410582E-01	 1.71649698E-02
5.04272809E+07	 1.55434616E-01	 1.69280298E-02
5.04394889E+07	 1.55452973E-01	 1.66841442E-02
5.04516969E+07	 1.55481177E-01	 1.64415452E-02
5.04639049E+07	 1.55500834E-01	 1.62018805E-02
5.04761130E+07	 1.55522755E-01	 1.59589933E-02
5.04883210E+07	 1.55544244E-01	 1.57181219E-02
5.05005290E+07	 1.55568421E-01	 1.54755951E-02
5.05127370E+07	 1.55593689E-01	 1.52375006E-02
5.05249451E+07	 1.55609980E-01	 1.49965627E-02
5.05371531E+07	 1.55632641E-01	 1.47532673E-02
5.05493611E+07	 1.55651196E-01	 1.45116363E-02
5.05615691E+07	 1.55672977E-01	 1.42696228E-02
5.05737772E+07	 1.55692932E-01	 1.40258528E-02
5.05859852E+07	 1.55709190E-01	 1.37833309E-02
5.05981932E+07	 1.55731350E-01	 1.35428131E-02
5.06104012E+07	 1.55745356E-01	 1.33010682E-02
5.06226093E+07	 1.55765431E-01	 1.30594476E-02
5.06348173E+07	 1.55782081E-01	 1.28210257E-02
5.06470253E+07	 1.55799812E-01	 1.25742491E-02
5.06592333E+07	 1.55816385E-01	 1.23329222E-02
5.06714414E+07	 1.55832751E-01	 1.20945448E-02
5.06836494E+07	 1.55846894E-01	 1.18537260E-02
5.06958574E+07	 1.55863462E-01	 1.16076962E-02
5.07080654E+07	 1.55877544E-01	 1.13694045E-02
5.07202735E+07	 1.55892834E-01	 1.11247280E-02
5.07324815E+07	 1.55907944E-01	 1.08863249E-02
5.07446895E+07	 1.55922411E-01	 1.06415244E-02
5.07568975E+07	 1.55940006E-01	 1.03988382E-02
5.07691056E+07	 1.55948618E-01	 1.01571383E-02
5.07813136E+07	 1.55965773E-01	 9.91334823E-03
5.07935216E+07	 1.55979715E-01	 9.67793020E-03
5.08057296E+07	 1.55990644E-01	 9.43168534E-03
5.08179377E+07	 1.56005552E-01	 9.18792857E-03
5.08301457E+07	 1.56014830E-01	 8.94600139E-03
5.08423537E+07	 1.56020970E-01	 8.70482890E-03
5.08545617E+07	 1.56035680E-01	 8.46014469E-03
5.08667698E+07	 1.56047744E-01	 8.22050147E-03
5.08789778E+07	 1.56055319E-01	 7.97889709E-03
5.08911858E+07	 1.56067201E-01	 7.73860356E-03
5.09033938E+07	 1.56075646E-01	 7.49279700E-03
5.09156019E+07	 1.56084182E-01	 7.24912551E-03
5.09278099E+07	 1.56092214E-01	 7.00472096E-03
5.09400179E+07	 1.56098338E-01	 6.76392521E-03
5.09522259E+07	 1.56110368E-01	 6.52490776E-03
5.09644340E+07	 1.56110834E-01	 6.28245201E-03
5.09766420E+07	 1.56123099E-01	 6.03965042E-03
5.09888500E+07	 1.56127474E-01	 5.79420616E-03
5.10010580E+07	 1.56139397E-01	 5.55571631E-03
5.10132661E+07	 1.56147004E-01	 5.31004404E-03
5.10254741E+07	 1.56147588E-01	 5.07278141E-03
5.10376821E+07	 1.56160932E-01	 4.82943272E-03
5.10498901E+07	 1.56160647E-01	 4.58016652E-03
5.10620982E+07	 1.56168651E-01	 4.34610970E-03
5.10743062E+07	 1.56170221E-01	 4.09893386E-03
5.10865142E+07	 1.56179293E-01	 3.85884344E-03
5.10987222E+07	 1.56179375E-01	 3.61864006E-03
5.11109303E+07	 1.56181548E-01	 3.37837277E-03
5.11231383E+07	 1.56185229E-01	 3.12955015E-03
5.11353463E+07	 1.56189333E-01	 2.89000933E-03
5.11475543E+07	 1.56193224E-01	 2.64081906E-03
5.11597624E+07	 1.56197661E-01	 2.40462681E-03
5.11719704E+07	 1.56200639E-01	 2.16390412E-03
5.11841784E+07	 1.56197725E-01	 1.91964465E-03
5.11963864E+07	 1.56199118E-01	 1.67822694E-03
5.12085944E+07	 1.56200476E-01	 1.43405084E-03
5.12208025E+07	 1.56198912E-01	 1.19058525E-03
5.12330105E+07	 1.56201797E-01	 9.50396343E-04
5.12452185E+07	 1.56205840E-01	 7.06530765E-04
5.12574265E+07	 1.56200357E-01	 4.67410235E-04
5.12696346E+07	 1.56198503E-01	 2.19280502E-04
5.12818426E+07	 1.56197209E-01	-2.46086433E-05
5.12940506E+07	 1.56193941E-01	-2.59446816E-04
5.13062586E+07	 1.56194854E-01	-5.07937888E-04
5.13184667E+07	 1.56186026E-01	-7.48015645E-04
5.13306747E+07	 1.56184309E-01	-9.91828359E-04
5.13428827E+07	 1.56183563E-01	-1.23897321E-03
5.13550907E+07	 1.56180326E-01	-1.47120352E-03
5.13672988E+07	 1.56177683E-01	-1.71992138E-03
5.13795068E+07	 1.56174081E-01	-1.95996405E-03
5.13917148E+07	 1.56169839E-01	-2.20131718E-03
5.14039228E+07	 1.56162943E-01	-2.44378707E-03
5.14161309E+07	 1.56159953E-01	-2.68445490E-03
5.14283389E+07	 1.56157141E-01	-2.92812061E-03
5.14405469E+07	 1.56148091E-01	-3.16840007E-03
5.14527549E+07	 1.56139029E-01	-3.41802937E-03
5.14649630E+07	 1.56131477E-01	-3.65553759E-03
5.14771710E+07	 1.56124184E-01	-3.89813366E-03
5.14893790E+07	 1.56117168E-01	-4.14053177E-03
5.15015870E+07	 1.56111609E-01	-4.38480644E-03
5.15137951E+07	 1.56098362E-01	-4.62330940E-03
5.15260031E+07	 1.56088791E-01	-4.86920957E-03
5.15382111E+07	 1.56085041E-01	-5.10969122E-03
5.15504191E+07	 1.56070784E-01	-5.34997148E-03
5.15626272E+07	 1.56063806E-01	-5.59352285E-03
5.15748352E+07	 1.56054102E-01	-5.83212637E-03
5.15870432E+07	 1.56040632E-01	-6.07876629E-03
5.15992512E+07	 1.56032617E-01	-6.32115927E-03
5.16114593E+07	 1.56025501E-01	-6.56681118E-03
5.16236673E+07	 1.56011052E-01	-6.80091412E-03
5.16358753E+07	 1.56002025E-01	-7.04456691E-03
5.16480833E+07	 1.55982677E-01	-7.28902234E-03
5.16602914E+07	 1.55972492E-01	-7.53197367E-03
5.16724994E+07	 1.55958019E-01	-7.77233551E-03
5.16847074E+07	 1.55942862E-01	-8.01864871E-03
5.16969154E+07	 1.55932412E-01	-8.26068720E-03
5.17091235E+07	 1.55916264E-01	-8.50222040E-03
5.17213315E+07	 1.55906408E-01	-8.73896072E-03
5.17335395E+07	 1.55886010E-01	-8.98286718E-03
5.17457475E+07	 1.55868642E-01	-9.23099766E-03
5.17579556E+07	 1.55858411E-01	-9.46724676E-03
5.17701636E+07	 1.55840362E-01	-9.70821605E-03
5.17823716E+07	 1.55823227E-01	-9.95031112E-03
5.17945796E+07	 1.55806737E-01	-1.01925633E-02
5.18067877E+07	 1.55790241E-01	-1.04341605E-02
5.18189957E+07	 1.55771141E-01	-1.06769752E-02
5.18312037E+07	 1.55757837E-01	-1.09200208E-02
5.18434117E+07	 1.55734662E-01	-1.11566394E-02
5.18556198E+07	 1.55717923E-01	-1.14016116E-02
5.18678278E+07	 1.55699455E-01	-1.16458494E-02
5.18800358E+07	 1.55682598E-01	-1.18821259E-02
5.18922438E+07	 1.55662259E-01	-1.21262214E-02
5.19044519E+07	 1.55640689E-01	-1.23677921E-02
5.19166599E+07	 1.55614398E-01	-1.26049783E-02
5.19288679E+07	 1.55599856E-01	-1.28516273E-02
5.19410759E+07	 1.55576716E-01	-1.30880584E-02
5.19532840E+07	 1.55554515E-01	-1.33324027E-02
5.19654920E+07	 1.55538025E-01	-1.35767605E-02
5.19777000E+07	 1.55514474E-01	-1.38138417E-02
5.19899080E+07	 1.55489236E-01	-1.40585972E-02
5.20021161E+07	 1.55467111E-01	-1.42921221E-02
5.20143241E+07	 1.55445532E-01	-1.45391131E-02
5.20265321E+07	 1.55418073E-01	-1.47783842E-02
5.20387401E+07	 1.55396141E-01	-1.50229271E-02
5.20509482E+07	 1.55370600E-01	-1.52586422E-02
5.20631562E+07	 1.55349846E-01	-1.55077906E-02
5.20753642E+07	 1.55319557E-01	-1.57463829E-02
5.20875722E+07	 1.55292699E-01	-1.59859077E-02
5.20997803E+07	 1.55270877E-01	-1.62278986E-02
5.21119883E+07	 1.55238712E-01	-1.64690661E-02
5.21241963E+07	 1.55211205E-01	-1.67092569E-02
5.21364043E+07	 1.55185916E-01	-1.69493972E-02
5.21486124E+07	 1.55157617E-01	-1.71865462E-02
5.21608204E+07	 1.55130663E-01	-1.74327045E-02
5.21730284E+07	 1.55104258E-01	-1.76770805E-02
5.21852364E+07	 1.55070297E-01	-1.79123566E-02
5.21974445E+07	 1.55043430E-01	-1.81524180E-02
5.22096525E+07	 1.55013853E-01	-1.83920081E-02
5.22218605E+07	 1.54984643E-01	-1.86339332E-02
5.22340685E+07	 1.54956094E-01	-1.88748235E-02
5.22462766E+07	 1.54926914E-01	-1.91135297E-02
5.22584846E+07	 1.54895100E-01	-1.93544029E-02
5.22706926E+07	 1.54862957E-01	-1.95964176E-02
5.22829006E+07	 1.54828768E-01	-1.98354980E-02
5.22951087E+07	 1.54795964E-01	-2.00771784E-02
5.23073167E+07	 1.54767569E-01	-2.03171496E-02
5.23195247E+07	 1.54734885E-01	-2.05530179E-02
5.23317327E+07	 1.54699250E-01	-2.07919301E-02
5.23439408E+07	 1.54671577E-01	-2.10309550E-02
5.23561488E+07	 1.54631100E-01	-2.12778002E-02
5.23683568E+07	 1.54601264E-01	-2.15188843E-02
5.23805648E+07	 1.54558605E-01	-2.17567698E-02
5.23927728E+07	 1.54529222E-01	-2.19945793E-02
5.24049809E+07	 1.54492263E-01	-2.22374369E-02
5.24171889E+07	 1.54457554E-01	-2.24743582E-02
5.24293969E+07	 1.54420718E-01	-2.27160382E-02
5.24416049E+07	 1.54390101E-01	-2.29531572E-02
5.24538130E+07	 1.54350467E-01	-2.31936978E-02
5.24660210E+07	 1.54315649E-01	-2.34325667E-02
5.24782290E+07	 1.54275912E-01	-2.36701842E-02
5.24904370E+07	 1.54242815E-01	-2.39121666E-02
5.25026451E+07	 1.54194796E-01	-2.41504281E-02
5.25148531E+07	 1.54160752E-01	-2.43897329E-02
5.25270611E+07	 1.54116256E-01	-2.46302382E-02
5.25392691E+07	 1.54083388E-01	-2.48662795E-02
5.25514772E+07	 1.54041590E-01	-2.51064995E-02
5.25636852E+07	 1.54005068E-01	-2.53493653E-02
5.25758932E+07	 1.53963886E-01	-2.55845298E-02
5.25881012E+07	 1.53922510E-01	-2.58229537E-02
5.26003093E+07	 1.53879847E-01	-2.60673490E-02
5.26125173E+07	 1.53839349E-01	-2.63064012E-02
5.26247253E+07	 1.53798533E-01	-2.65412627E-02
5.26369333E+07	 1.53759735E-01	-2.67789116E-02
5.26491414E+07	 1.53713776E-01	-2.70200923E-02
5.26613494E+07	 1.53667662E-01	-2.72591049E-02
5.26735574E+07	 1.53628518E-01	-2.74962978E-02
5.26857654E+07	 1.53586621E-01	-2.77345073E-02
5.26979735E+07	 1.53539844E-01	-2.79761550E-02
5.27101815E+07	 1.53497159E-01	-2.82121295E-02
5.27223895E+07	 1.53452187E-01	-2.84526491E-02
5.27345975E+07	 1.53407296E-01	-2.86884227E-02
5.27468056E+07	 1.53358139E-01	-2.89222672E-02
5.27590136E+07	 1.53316088E-01	-2.91634590E-02
5.27712216E+07	 1.53267448E-01	-2.93988537E-02
5.27834296E+07	 1.53217884E-01	-2.96391086E-02
5.27956377E+07	 1.53174942E-01	-2.98761121E-02
5.28078457E+07	 1.53129256E-01	-3.01138763E-02
5.28200537E+07	 1.53079853E-01	-3.03536553E-02
5.28322617E+07	 1.53029021E-01	-3.05864377E-02
5.28444698E+07	 1.52985574E-01	-3.08274737E-02
5.28566778E+07	 1.52937285E-01	-3.10622697E-02
5.28688858E+07	 1.52884589E-01	-3.12997020E-02
5.28810938E+07	 1.52836457E-01	-3.15415584E-02
5.28933019E+07	 1.52789393E-01	-3.17760455E-02
5.29055099E+07	 1.52740885E-01	-3.20116889E-02
5.29177179E+07	 1.52687304E-01	-3.22517358E-02
5.29299259E+07	 1.52636258E-01	-3.24835229E-02
5.29421340E+07	 1.52579748E-01	-3.27226615E-02
5.29543420E+07	 1.52535018E-01	-3.29618284E-02
5.29665500E+07	 1.52481968E-01	-3.31979167E-02
5.29787580E+07	 1.52432688E-01	-3.34346332E-02
5.29909661E+07	 1.52378391E-01	-3.36756925E-02
5.30031741E+07	 1.52326682E-01	-3.39079182E-02
5.30153821E+07	 1.52271629E-01	-3.41423909E-02
5.30275901E+07	 1.52218849E-01	-3.43801031E-02
5.30397982E+07	 1.52166687E-01	-3.46136580E-02
5.30520062E+07	 1.52115285E-01	-3.48522274E-02
5.30642142E+07	 1.52059237E-01	-3.50924627E-02
5.30764222E+07	 1.52000821E-01	-3.53270504E-02
5.30886303E+07	 1.51945704E-01	-3.55609573E-02
5.31008383E+07	 1.51890229E-01	-3.57959498E-02
5.31130463E+07	 1.51835006E-01	-3.60302055E-02
5.31252543E+07	 1.51779109E-01	-3.62678258E-02
5.31374624E+07	 1.51727434E-01	-3.65031294E-02
5.31496704E+07	 1.51667018E-01	-3.67436855E-02
5.31618784E+07	 1.51607742E-01	-3.69760958E-02
5.31740864E+07	 1.51553329E-01	-3.72045090E-02
5.31862945E+07	 1.51494784E-01	-3.74452372E-02
5.31985025E+07	 1.51433950E-01	-3.76763910E-02
5.32107105E+07	 1.51372765E-01	-3.79128527E-02
5.32229185E+07	 1.51317352E-01	-3.81481210E-02
5.32351266E+07	 1.51254457E-01	-3.83873915E-02
5.32473346E+07	 1.51193981E-01	-3.86159818E-02
5.32595426E+07	 1.51134706E-01	-3.88548424E-02
5.32717506E+07	 1.51082131E-01	-3.90839533E-02
5.32839587E+07	 1.51016604E-01	-3.93209064E-02
5.32961667E+07	 1.50953550E-01	-3.95541913E-02
5.33083747E+07	 1.50890516E-01	-3.97892293E-02
5.33205827E+07	 1.50825978E-01	-4.00210832E-02
5.33327908E+07	 1.50760958E-01	-4.02597768E-02
5.33449988E+07	 1.50708310E-01	-4.04940194E-02
5.33572068E+07	 1.50644384E-01	-4.07278165E-02
5.33694148E+07	 1.50574628E-01	-4.09580660E-02
5.33816229E+07	 1.50517003E-01	-4.11930161E-02
5.33938309E+07	 1.50448408E-01	-4.14291262E-02
5.34060389E+07	 1.50385815E-01	-4.16618037E-02
5.34182469E+07	 1.50324192E-01	-4.18893010E-02
5.34304550E+07	 1.50258840E-01	-4.21271764E-02
5.34426630E+07	 1.50192279E-01	-4.23589225E-02
5.34548710E+07	 1.50126592E-01	-4.25942902E-02
5.34670790E+07	 1.50062089E-01	-4.28259422E-02
5.34792871E+07	 1.49995046E-01	-4.30570545E-02
5.34914951E+07	 1.49929229E-01	-4.32903598E-02
5.35037031E+07	 1.49864299E-01	-4.35204276E-02
5.35159111E+07	 1.49790406E-01	-4.37613955E-02
5.35281192E+07	 1.49731785E-01	-4.39909465E-02
5.35403272E+07	 1.49654299E-01	-4.42229209E-02
5.35525352E+07	 1.49589232E-01	-4.44516601E-02
5.35647432E+07	 1.49518138E-01	-4.46852905E-02
5.35769512E+07	 1.49447958E-01	-4.49225784E-02
5.35891593E+07	 1.49384982E-01	-4.51511876E-02
5.36013673E+07	 1.49304563E-01	-4.53848853E-02
5.36135753E+07	 1.49237636E-01	-4.56101675E-02
5.36257833E+07	 1.49171389E-01	-4.58458741E-02
5.36379914E+07	 1.49098079E-01	-4.60772983E-02
5.36501994E+07	 1.49023036E-01	-4.63079978E-02
5.36624074E+07	 1.48952441E-01	-4.65383897E-02
5.36746154E+07	 1.48883095E-01	-4.67695820E-02
5.36868235E+07	 1.48809879E-01	-4.70074641E-02
5.36990315E+07	 1.48738754E-01	-4.72312841E-02
5.37112395E+07	 1.48667047E-01	-4.74663786E-02
5.37234475E+07	 1.48590690E-01	-4.76918913E-02
5.37356556E+07	 1.48517565E-01	-4.79248159E-02
5.37478636E+07	 1.48442396E-01	-4.81578971E-02
5.37600716E+07	 1.48363659E-01	-4.83859908E-02
5.37722796E+07	 1.48292978E-01	-4.86164587E-02
5.37844877E+07	 1.48221784E-01	-4.88463686E-02
5.37966957E+07	 1.48144035E-01	-4.90788359E-02
5.38089037E+07	 1.48064089E-01	-4.93078219E-02
5.38211117E+07	 1.47991964E-01	-4.95397092E-02
5.38333198E+07	 1.47907499E-01	-4.97666569E-02
5.38455278E+07	 1.47837289E-01	-5.00025955E-02
5.38577358E+07	 1.47759740E-01	-5.02300226E-02
5.38699438E+07	 1.47682539E-01	-5.04558224E-02
5.38821519E+07	 1.47603870E-01	-5.06870345E-02
5.38943599E+07	 1.47523082E-01	-5.09128117E-02
5.39065679E+07	 1.47450310E-01	-5.11421809E-02
5.39187759E+07	 1.47366555E-01	-5.13668003E-02
5.39309840E+07	 1.47289128E-01	-5.15996620E-02
5.39431920E+07	 1.47208183E-01	-5.18312245E-02
5.39554000E+07	 1.47125326E-01	-5.20625974E-02
5.39676080E+07	 1.47049781E-01	-5.22852039E-02
5.39798161E+07	 1.46967366E-01	-5.25174068E-02
5.39920241E+07	 1.46882943E-01	-5.27390001E-02
5.40042321E+07	 1.46802696E-01	-5.29729736E-02
5.40164401E+07	 1.46721605E-01	-5.31961848E-02
5.40286482E+07	 1.46639185E-01	-5.34219572E-02
5.40408562E+07	 1.46554246E-01	-5.36539221E-02
5.40530642E+07	 1.46476795E-01	-5.38875576E-02
5.40652722E+07	 1.46390712E-01	-5.41165853E-02
5.40774803E+07	 1.46306436E-01	-5.43413058E-02
5.40896883E+07	 1.46227042E-01	-5.45719681E-02
5.41018963E+07	 1.46140295E-01	-5.47908209E-02
5.41141043E+07	 1.46061223E-01	-5.50210345E-02
5.41263124E+07	 1.45975720E-01	-5.52501325E-02
5.41385204E+07	 1.45880539E-01	-5.54738282E-02
5.41507284E+07	 1.45798597E-01	-5.57018746E-02
5.41629364E+07	 1.45708833E-01	-5.59292341E-02
5.41751445E+07	 1.45625600E-01	-5.61551810E-02
5.41873525E+07	 1.45537155E-01	-5.63828141E-02
5.41995605E+07	 1.45454463E-01	-5.66064616E-02
5.42117685E+07	 1.45366554E-01	-5.68285214E-02
5.42239766E+07	 1.45275852E-01	-5.70552326E-02
5.42361846E+07	 1.45192981E-01	-5.72825230E-02
5.42483926E+07	 1.45101026E-01	-5.75094504E-02
5.42606006E+07	 1.45012165E-01	-5.77373077E-02
5.42728087E+07	 1.44923358E-01	-5.79642146E-02
5.42850167E+07	 1.44833955E-01	-5.81837153E-02
5.42972247E+07	 1.44737358E-01	-5.84129841E-02
5.43094327E+07	 1.44653011E-01	-5.86367671E-02
5.43216408E+07	 1.44561981E-01	-5.88656734E-02
5.43338488E+07	 1.44472280E-01	-5.90835535E-02
5.43460568E+07	 1.44376385E-01	-5.93102190E-02
5.43582648E+07	 1.44288483E-01	-5.95356633E-02
5.43704729E+07	 1.44193714E-01	-5.97558101E-02
5.43826809E+07	 1.44105677E-01	-5.99791725E-02
5.43948889E+07	 1.44009569E-01	-6.02040655E-02
5.44070969E+07	 1.43920192E-01	-6.04305903E-02
5.44193050E+07	 1.43826833E-01	-6.06526078E-02
5.44315130E+07	 1.43729066E-01	-6.08804917E-02
5.44437210E+07	 1.43635447E-01	-6.11020171E-02
5.44559290E+07	 1.43547444E-01	-6.13233421E-02
5.44681371E+07	 1.43446386E-01	-6.15486765E-02
5.44803451E+07	 1.43353687E-01	-6.17635449E-02
5.44925531E+07	 1.43258491E-01	-6.19926654E-02
5.45047611E+07	 1.43162788E-01	-6.22170642E-02
5.45169692E+07	 1.43063517E-01	-6.24424047E-02
5.45291772E+07	 1.42973193E-01	-6.26625156E-02
5.45413852E+07	 1.42871325E-01	-6.28849692E-02
5.45535932E+07	 1.42773098E-01	-6.31074909E-02
5.45658013E+07	 1.42680644E-01	-6.33310683E-02
5.45780093E+07	 1.42580915E-01	-6.35511766E-02
5.45902173E+07	 1.42482165E-01	-6.37745863E-02
5.46024253E+07	 1.42386261E-01	-6.39928972E-02
5.46146334E+07	 1.42287162E-01	-6.42162887E-02
5.46268414E+07	 1.42187147E-01	-6.44347833E-02
5.46390494E+07	 1.42093277E-01	-6.46620861E-02
5.46512574E+07	 1.41992082E-01	-6.48797728E-02
5.46634655E+07	 1.41891384E-01	-6.50981541E-02
5.46756735E+07	 1.41787176E-01	-6.53181565E-02
5.46878815E+07	 1.41685256E-01	-6.55415973E-02
5.47000895E+07	 1.41589081E-01	-6.57605359E-02
5.47122976E+07	 1.41484368E-01	-6.59809335E-02
5.47245056E+07	 1.41383622E-01	-6.62018037E-02
5.47367136E+07	 1.41284623E-01	-6.64180726E-02
5.47489216E+07	 1.41179010E-01	-6.66412720E-02
5.47611296E+07	 1.41079379E-01	-6.68585363E-02
5.47733377E+07	 1.40974367E-01	-6.70811607E-02
5.47855457E+07	 1.40870664E-01	-6.73017270E-02
5.47977537E+07	 1.40767856E-01	-6.75250165E-02
5.48099617E+07	 1.40663191E-01	-6.77403099E-02
5.48221698E+07	 1.40561534E-01	-6.79603356E-02
5.48343778E+07	 1.40453375E-01	-6.81774764E-02
5.48465858E+07	 1.40348217E-01	-6.83979720E-02
5.48587938E+07	 1.40245443E-01	-6.86168615E-02
5.48710019E+07	 1.40136874E-01	-6.88329470E-02
5.48832099E+07	 1.40037054E-01	-6.90466862E-02
5.48954179E+07	 1.39925159E-01	-6.92665502E-02
5.49076259E+07	 1.39821110E-01	-6.94874747E-02
5.49198340E+07	 1.39713062E-01	-6.97062938E-02
5.49320420E+07	 1.39610611E-01	-6.99202299E-02
5.49442500E+07	 1.39498115E-01	-7.01337190E-02
5.49564580E+07	 1.39390956E-01	-7.03521552E-02
5.49686661E+07	 1.39286071E-01	-7.05682494E-02
5.49808741E+07	 1.39173867E-01	-7.07919492E-02
5.49930821E+07	 1.39067176E-01	-7.10031353E-02
5.50052901E+07	 1.38956686E-01	-7.12222746E-02
5.50174982E+07	 1.38846931E-01	-7.14356103E-02
5.50297062E+07	 1.38739531E-01	-7.16547959E-02
5.50419142E+07	 1.38627443E-01	-7.18727357E-02
5.50541222E+07	 1.38517880E-01	-7.20832594E-02
5.50663303E+07	 1.38409552E-01	-7.22998932E-02
5.50785383E+07	 1.38304095E-01	-7.25179322E-02
5.50907463E+07	 1.38184595E-01	-7.27309703E-02
5.51029543E+07	 1.38069654E-01	-7.29523116E-02
5.51151624E+07	 1.37960122E-01	-7.31695262E-02
5.51273704E+07	 1.37849551E-01	-7.33775576E-02
