! COPPER MOUNTAIN TECHNOLOGIES, PLANAR TR1300/1, 00071119, 20.2.2/1.0
! Date: 12/11/2023 3:13:43 PM
! Data: Format [Calibration Info]
! Freq          	S11: Re/Im F1                  
# HZ S RI R 50
5.00000000E+07	-2.77949422E-01	-1.44298319E-02
5.00122080E+07	-2.77971940E-01	-1.40265469E-02
5.00244160E+07	-2.77988078E-01	-1.36131808E-02
5.00366241E+07	-2.78006608E-01	-1.32058691E-02
5.00488321E+07	-2.78024291E-01	-1.27966640E-02
5.00610401E+07	-2.78044946E-01	-1.23836566E-02
5.00732481E+07	-2.78060658E-01	-1.19727082E-02
5.00854562E+07	-2.78073606E-01	-1.15596584E-02
5.00976642E+07	-2.78086407E-01	-1.11513781E-02
5.01098722E+07	-2.78103721E-01	-1.07438858E-02
5.01220802E+07	-2.78118721E-01	-1.03278200E-02
5.01342883E+07	-2.78130321E-01	-9.91733359E-03
5.01464963E+07	-2.78141067E-01	-9.51306937E-03
5.01587043E+07	-2.78153249E-01	-9.09849286E-03
5.01709123E+07	-2.78172869E-01	-8.68656400E-03
5.01831204E+07	-2.78176489E-01	-8.27351864E-03
5.01953284E+07	-2.78180941E-01	-7.85995130E-03
5.02075364E+07	-2.78199649E-01	-7.45351645E-03
5.02197444E+07	-2.78206753E-01	-7.04105488E-03
5.02319525E+07	-2.78218370E-01	-6.62892802E-03
5.02441605E+07	-2.78220130E-01	-6.22244806E-03
5.02563685E+07	-2.78228351E-01	-5.81036250E-03
5.02685765E+07	-2.78230627E-01	-5.40310628E-03
5.02807846E+07	-2.78245151E-01	-4.99018229E-03
5.02929926E+07	-2.78251921E-01	-4.57967392E-03
5.03052006E+07	-2.78253365E-01	-4.16622818E-03
5.03174086E+07	-2.78255619E-01	-3.75611881E-03
5.03296167E+07	-2.78259928E-01	-3.34118573E-03
5.03418247E+07	-2.78262875E-01	-2.93773223E-03
5.03540327E+07	-2.78266980E-01	-2.52209773E-03
5.03662407E+07	-2.78269161E-01	-2.11226451E-03
5.03784488E+07	-2.78268908E-01	-1.69827199E-03
5.03906568E+07	-2.78265444E-01	-1.28874290E-03
5.04028648E+07	-2.78272598E-01	-8.74445463E-04
5.04150728E+07	-2.78267933E-01	-4.69501727E-04
5.04272809E+07	-2.78273247E-01	-5.17612840E-05
5.04394889E+07	-2.78261241E-01	 3.53626218E-04
5.04516969E+07	-2.78265043E-01	 7.63235737E-04
5.04639049E+07	-2.78257832E-01	 1.17549833E-03
5.04761130E+07	-2.78257649E-01	 1.59166276E-03
5.04883210E+07	-2.78249651E-01	 1.99904601E-03
5.05005290E+07	-2.78246963E-01	 2.40666142E-03
5.05127370E+07	-2.78239058E-01	 2.81864909E-03
5.05249451E+07	-2.78236528E-01	 3.22843955E-03
5.05371531E+07	-2.78226520E-01	 3.64314345E-03
5.05493611E+07	-2.78218506E-01	 4.05146238E-03
5.05615691E+07	-2.78210906E-01	 4.46517666E-03
5.05737772E+07	-2.78202660E-01	 4.87143235E-03
5.05859852E+07	-2.78197272E-01	 5.27916900E-03
5.05981932E+07	-2.78181112E-01	 5.69394314E-03
5.06104012E+07	-2.78176511E-01	 6.11195173E-03
5.06226093E+07	-2.78160900E-01	 6.51717914E-03
5.06348173E+07	-2.78154257E-01	 6.92774234E-03
5.06470253E+07	-2.78139555E-01	 7.33800094E-03
5.06592333E+07	-2.78125773E-01	 7.74404615E-03
5.06714414E+07	-2.78109608E-01	 8.15942399E-03
5.06836494E+07	-2.78099068E-01	 8.56752442E-03
5.06958574E+07	-2.78081252E-01	 8.97118196E-03
5.07080654E+07	-2.78069421E-01	 9.38566161E-03
5.07202735E+07	-2.78053826E-01	 9.79761540E-03
5.07324815E+07	-2.78032571E-01	 1.02164088E-02
5.07446895E+07	-2.78015870E-01	 1.06165122E-02
5.07568975E+07	-2.77996877E-01	 1.10273971E-02
5.07691056E+07	-2.77980048E-01	 1.14387272E-02
5.07813136E+07	-2.77962055E-01	 1.18453574E-02
5.07935216E+07	-2.77940866E-01	 1.22641996E-02
5.08057296E+07	-2.77918539E-01	 1.26705416E-02
5.08179377E+07	-2.77895472E-01	 1.30843888E-02
5.08301457E+07	-2.77877489E-01	 1.34876403E-02
5.08423537E+07	-2.77861172E-01	 1.39004628E-02
5.08545617E+07	-2.77836737E-01	 1.43002774E-02
5.08667698E+07	-2.77807336E-01	 1.47179859E-02
5.08789778E+07	-2.77785677E-01	 1.51357301E-02
5.08911858E+07	-2.77760367E-01	 1.55422402E-02
5.09033938E+07	-2.77737471E-01	 1.59464352E-02
5.09156019E+07	-2.77713769E-01	 1.63581964E-02
5.09278099E+07	-2.77682321E-01	 1.67663096E-02
5.09400179E+07	-2.77654371E-01	 1.71823636E-02
5.09522259E+07	-2.77627646E-01	 1.75891465E-02
5.09644340E+07	-2.77606425E-01	 1.79965249E-02
5.09766420E+07	-2.77565749E-01	 1.84025162E-02
5.09888500E+07	-2.77540837E-01	 1.88152219E-02
5.10010580E+07	-2.77509314E-01	 1.92318422E-02
5.10132661E+07	-2.77478173E-01	 1.96338423E-02
5.10254741E+07	-2.77450234E-01	 2.00410237E-02
5.10376821E+07	-2.77413640E-01	 2.04549281E-02
5.10498901E+07	-2.77384884E-01	 2.08625293E-02
5.10620982E+07	-2.77348288E-01	 2.12701836E-02
5.10743062E+07	-2.77313738E-01	 2.16771469E-02
5.10865142E+07	-2.77276062E-01	 2.20893949E-02
5.10987222E+07	-2.77244980E-01	 2.24965895E-02
5.11109303E+07	-2.77208093E-01	 2.29058222E-02
5.11231383E+07	-2.77173918E-01	 2.33125777E-02
5.11353463E+07	-2.77131647E-01	 2.37237191E-02
5.11475543E+07	-2.77094086E-01	 2.41335927E-02
5.11597624E+07	-2.77056876E-01	 2.45440580E-02
5.11719704E+07	-2.77016564E-01	 2.49484835E-02
5.11841784E+07	-2.76973923E-01	 2.53582022E-02
5.11963864E+07	-2.76937056E-01	 2.57671883E-02
5.12085944E+07	-2.76897437E-01	 2.61751019E-02
5.12208025E+07	-2.76853699E-01	 2.65823151E-02
5.12330105E+07	-2.76810540E-01	 2.69908951E-02
5.12452185E+07	-2.76765054E-01	 2.73903537E-02
5.12574265E+07	-2.76726710E-01	 2.78058533E-02
5.12696346E+07	-2.76682646E-01	 2.82117248E-02
5.12818426E+07	-2.76637831E-01	 2.86219223E-02
5.12940506E+07	-2.76593707E-01	 2.90319939E-02
5.13062586E+07	-2.76545239E-01	 2.94331303E-02
5.13184667E+07	-2.76501356E-01	 2.98400384E-02
5.13306747E+07	-2.76450386E-01	 3.02522224E-02
5.13428827E+07	-2.76403478E-01	 3.06623124E-02
5.13550907E+07	-2.76354468E-01	 3.10652712E-02
5.13672988E+07	-2.76308922E-01	 3.14739631E-02
5.13795068E+07	-2.76258770E-01	 3.18778590E-02
5.13917148E+07	-2.76204966E-01	 3.22901432E-02
5.14039228E+07	-2.76154557E-01	 3.26880394E-02
5.14161309E+07	-2.76099908E-01	 3.31046250E-02
5.14283389E+07	-2.76050658E-01	 3.35034847E-02
5.14405469E+07	-2.75998787E-01	 3.39164467E-02
5.14527549E+07	-2.75945932E-01	 3.43193916E-02
5.14649630E+07	-2.75894119E-01	 3.47303349E-02
5.14771710E+07	-2.75837223E-01	 3.51338754E-02
5.14893790E+07	-2.75779309E-01	 3.55399760E-02
5.15015870E+07	-2.75725223E-01	 3.59496120E-02
5.15137951E+07	-2.75666422E-01	 3.63500389E-02
5.15260031E+07	-2.75616425E-01	 3.67612001E-02
5.15382111E+07	-2.75561305E-01	 3.71682139E-02
5.15504191E+07	-2.75500496E-01	 3.75713032E-02
5.15626272E+07	-2.75438640E-01	 3.79769794E-02
5.15748352E+07	-2.75382012E-01	 3.83866916E-02
5.15870432E+07	-2.75319525E-01	 3.87858099E-02
5.15992512E+07	-2.75259583E-01	 3.91973010E-02
5.16114593E+07	-2.75198920E-01	 3.95960920E-02
5.16236673E+07	-2.75138211E-01	 4.00046431E-02
5.16358753E+07	-2.75068612E-01	 4.04130951E-02
5.16480833E+07	-2.75011294E-01	 4.08169777E-02
5.16602914E+07	-2.74949034E-01	 4.12188536E-02
5.16724994E+07	-2.74883833E-01	 4.16240152E-02
5.16847074E+07	-2.74824665E-01	 4.20288991E-02
5.16969154E+07	-2.74755039E-01	 4.24325976E-02
5.17091235E+07	-2.74689624E-01	 4.28392078E-02
5.17213315E+07	-2.74623687E-01	 4.32472986E-02
5.17335395E+07	-2.74554432E-01	 4.36495754E-02
5.17457475E+07	-2.74487893E-01	 4.40516768E-02
5.17579556E+07	-2.74419098E-01	 4.44547837E-02
5.17701636E+07	-2.74344873E-01	 4.48635072E-02
5.17823716E+07	-2.74275723E-01	 4.52589848E-02
5.17945796E+07	-2.74209499E-01	 4.56683882E-02
5.18067877E+07	-2.74133523E-01	 4.60769812E-02
5.18189957E+07	-2.74066840E-01	 4.64793242E-02
5.18312037E+07	-2.73995714E-01	 4.68806540E-02
5.18434117E+07	-2.73924207E-01	 4.72847234E-02
5.18556198E+07	-2.73847561E-01	 4.76852863E-02
5.18678278E+07	-2.73772708E-01	 4.80868037E-02
5.18800358E+07	-2.73695552E-01	 4.84950638E-02
5.18922438E+07	-2.73626223E-01	 4.88934771E-02
5.19044519E+07	-2.73549858E-01	 4.92999032E-02
5.19166599E+07	-2.73476385E-01	 4.97029502E-02
5.19288679E+07	-2.73396874E-01	 5.01020818E-02
5.19410759E+07	-2.73322123E-01	 5.05025767E-02
5.19532840E+07	-2.73242100E-01	 5.09091773E-02
5.19654920E+07	-2.73160974E-01	 5.13094623E-02
5.19777000E+07	-2.73080656E-01	 5.17162414E-02
5.19899080E+07	-2.73001583E-01	 5.21140049E-02
5.20021161E+07	-2.72921708E-01	 5.25186171E-02
5.20143241E+07	-2.72840712E-01	 5.29177712E-02
5.20265321E+07	-2.72761278E-01	 5.33183665E-02
5.20387401E+07	-2.72679965E-01	 5.37210926E-02
5.20509482E+07	-2.72596472E-01	 5.41280231E-02
5.20631562E+07	-2.72512692E-01	 5.45195918E-02
5.20753642E+07	-2.72432513E-01	 5.49194908E-02
5.20875722E+07	-2.72344982E-01	 5.53285368E-02
5.20997803E+07	-2.72260188E-01	 5.57243693E-02
5.21119883E+07	-2.72173205E-01	 5.61306544E-02
5.21241963E+07	-2.72090794E-01	 5.65285097E-02
5.21364043E+07	-2.71998670E-01	 5.69295437E-02
5.21486124E+07	-2.71910284E-01	 5.73334868E-02
5.21608204E+07	-2.71821545E-01	 5.77295001E-02
5.21730284E+07	-2.71736263E-01	 5.81301600E-02
5.21852364E+07	-2.71645394E-01	 5.85301050E-02
5.21974445E+07	-2.71561728E-01	 5.89276596E-02
5.22096525E+07	-2.71468415E-01	 5.93268329E-02
5.22218605E+07	-2.71376214E-01	 5.97298966E-02
5.22340685E+07	-2.71284022E-01	 6.01299602E-02
5.22462766E+07	-2.71190400E-01	 6.05232861E-02
5.22584846E+07	-2.71104040E-01	 6.09248702E-02
5.22706926E+07	-2.71005291E-01	 6.13211633E-02
5.22829006E+07	-2.70911578E-01	 6.17255919E-02
5.22951087E+07	-2.70817942E-01	 6.21165226E-02
5.23073167E+07	-2.70723399E-01	 6.25206945E-02
5.23195247E+07	-2.70624239E-01	 6.29176013E-02
5.23317327E+07	-2.70531347E-01	 6.33183116E-02
5.23439408E+07	-2.70429731E-01	 6.37158628E-02
5.23561488E+07	-2.70336199E-01	 6.41114772E-02
5.23683568E+07	-2.70234728E-01	 6.45101276E-02
5.23805648E+07	-2.70145802E-01	 6.49118847E-02
5.23927728E+07	-2.70040211E-01	 6.53060085E-02
5.24049809E+07	-2.69945034E-01	 6.57014377E-02
5.24171889E+07	-2.69839446E-01	 6.61019449E-02
5.24293969E+07	-2.69735862E-01	 6.64949005E-02
5.24416049E+07	-2.69629099E-01	 6.68919765E-02
5.24538130E+07	-2.69534558E-01	 6.72892654E-02
5.24660210E+07	-2.69435580E-01	 6.76870414E-02
5.24782290E+07	-2.69328375E-01	 6.80847900E-02
5.24904370E+07	-2.69236938E-01	 6.84809341E-02
5.25026451E+07	-2.69127205E-01	 6.88740043E-02
5.25148531E+07	-2.69015567E-01	 6.92714592E-02
5.25270611E+07	-2.68906923E-01	 6.96696042E-02
5.25392691E+07	-2.68804555E-01	 7.00634386E-02
5.25514772E+07	-2.68696059E-01	 7.04570577E-02
5.25636852E+07	-2.68583745E-01	 7.08493912E-02
5.25758932E+07	-2.68482481E-01	 7.12491544E-02
5.25881012E+07	-2.68371539E-01	 7.16416871E-02
5.26003093E+07	-2.68263193E-01	 7.20335217E-02
5.26125173E+07	-2.68152702E-01	 7.24316689E-02
5.26247253E+07	-2.68042472E-01	 7.28259357E-02
5.26369333E+07	-2.67926796E-01	 7.32218362E-02
5.26491414E+07	-2.67815529E-01	 7.36099160E-02
5.26613494E+07	-2.67710057E-01	 7.40035163E-02
5.26735574E+07	-2.67594558E-01	 7.44023990E-02
5.26857654E+07	-2.67474176E-01	 7.47939494E-02
5.26979735E+07	-2.67363697E-01	 7.51839866E-02
5.27101815E+07	-2.67245272E-01	 7.55801591E-02
5.27223895E+07	-2.67131116E-01	 7.59686205E-02
5.27345975E+07	-2.67020616E-01	 7.63686540E-02
5.27468056E+07	-2.66905137E-01	 7.67607463E-02
5.27590136E+07	-2.66786667E-01	 7.71459084E-02
5.27712216E+07	-2.66669589E-01	 7.75464103E-02
5.27834296E+07	-2.66555820E-01	 7.79333253E-02
5.27956377E+07	-2.66433620E-01	 7.83294183E-02
5.28078457E+07	-2.66310847E-01	 7.87226459E-02
5.28200537E+07	-2.66192936E-01	 7.91080153E-02
5.28322617E+07	-2.66079322E-01	 7.94978240E-02
5.28444698E+07	-2.65954136E-01	 7.98937662E-02
5.28566778E+07	-2.65825658E-01	 8.02829244E-02
5.28688858E+07	-2.65708697E-01	 8.06762675E-02
5.28810938E+07	-2.65589180E-01	 8.10613838E-02
5.28933019E+07	-2.65462192E-01	 8.14580054E-02
5.29055099E+07	-2.65335135E-01	 8.18432520E-02
5.29177179E+07	-2.65214420E-01	 8.22344518E-02
5.29299259E+07	-2.65089878E-01	 8.26259056E-02
5.29421340E+07	-2.64961662E-01	 8.30182171E-02
5.29543420E+07	-2.64838646E-01	 8.34081521E-02
5.29665500E+07	-2.64708832E-01	 8.37889252E-02
5.29787580E+07	-2.64579350E-01	 8.41793074E-02
5.29909661E+07	-2.64451689E-01	 8.45674040E-02
5.30031741E+07	-2.64322664E-01	 8.49564439E-02
5.30153821E+07	-2.64192784E-01	 8.53497008E-02
5.30275901E+07	-2.64065508E-01	 8.57340845E-02
5.30397982E+07	-2.63931908E-01	 8.61252514E-02
5.30520062E+07	-2.63799819E-01	 8.65092835E-02
5.30642142E+07	-2.63671078E-01	 8.68977035E-02
5.30764222E+07	-2.63544178E-01	 8.72917141E-02
5.30886303E+07	-2.63410418E-01	 8.76744534E-02
5.31008383E+07	-2.63272398E-01	 8.80636074E-02
5.31130463E+07	-2.63140285E-01	 8.84481384E-02
5.31252543E+07	-2.63006661E-01	 8.88294817E-02
5.31374624E+07	-2.62871599E-01	 8.92220186E-02
5.31496704E+07	-2.62738058E-01	 8.96000240E-02
5.31618784E+07	-2.62602911E-01	 8.99906842E-02
5.31740864E+07	-2.62466717E-01	 9.03739443E-02
5.31862945E+07	-2.62326783E-01	 9.07613844E-02
5.31985025E+07	-2.62187902E-01	 9.11490590E-02
5.32107105E+07	-2.62052092E-01	 9.15328771E-02
5.32229185E+07	-2.61913798E-01	 9.19152435E-02
5.32351266E+07	-2.61777817E-01	 9.22997733E-02
5.32473346E+07	-2.61635640E-01	 9.26872044E-02
5.32595426E+07	-2.61494488E-01	 9.30685376E-02
5.32717506E+07	-2.61345101E-01	 9.34554797E-02
5.32839587E+07	-2.61205606E-01	 9.38387383E-02
5.32961667E+07	-2.61060985E-01	 9.42241491E-02
5.33083747E+07	-2.60920413E-01	 9.46053749E-02
5.33205827E+07	-2.60778733E-01	 9.49914904E-02
5.33327908E+07	-2.60632131E-01	 9.53743093E-02
5.33449988E+07	-2.60490316E-01	 9.57561542E-02
5.33572068E+07	-2.60342897E-01	 9.61336095E-02
5.33694148E+07	-2.60196798E-01	 9.65243289E-02
5.33816229E+07	-2.60051254E-01	 9.68993095E-02
5.33938309E+07	-2.59903935E-01	 9.72787874E-02
5.34060389E+07	-2.59753887E-01	 9.76624488E-02
5.34182469E+07	-2.59606145E-01	 9.80446946E-02
5.34304550E+07	-2.59466994E-01	 9.84275843E-02
5.34426630E+07	-2.59310061E-01	 9.88109502E-02
5.34548710E+07	-2.59164958E-01	 9.91880224E-02
5.34670790E+07	-2.59008625E-01	 9.95682900E-02
5.34792871E+07	-2.58855884E-01	 9.99513016E-02
5.34914951E+07	-2.58708196E-01	 1.00333473E-01
5.35037031E+07	-2.58552060E-01	 1.00712349E-01
5.35159111E+07	-2.58407260E-01	 1.01088583E-01
5.35281192E+07	-2.58254836E-01	 1.01473337E-01
5.35403272E+07	-2.58098791E-01	 1.01849895E-01
5.35525352E+07	-2.57947545E-01	 1.02224362E-01
5.35647432E+07	-2.57794999E-01	 1.02599179E-01
5.35769512E+07	-2.57635336E-01	 1.02986187E-01
5.35891593E+07	-2.57474141E-01	 1.03361329E-01
5.36013673E+07	-2.57321457E-01	 1.03735322E-01
5.36135753E+07	-2.57164648E-01	 1.04111972E-01
5.36257833E+07	-2.57007006E-01	 1.04493554E-01
5.36379914E+07	-2.56844140E-01	 1.04869107E-01
5.36501994E+07	-2.56692156E-01	 1.05248222E-01
5.36624074E+07	-2.56533647E-01	 1.05624125E-01
5.36746154E+07	-2.56371933E-01	 1.06002012E-01
5.36868235E+07	-2.56208330E-01	 1.06372573E-01
5.36990315E+07	-2.56048245E-01	 1.06756932E-01
5.37112395E+07	-2.55889379E-01	 1.07122970E-01
5.37234475E+07	-2.55721448E-01	 1.07503739E-01
5.37356556E+07	-2.55564611E-01	 1.07878357E-01
5.37478636E+07	-2.55402714E-01	 1.08252899E-01
5.37600716E+07	-2.55242445E-01	 1.08629205E-01
5.37722796E+07	-2.55073386E-01	 1.09001728E-01
5.37844877E+07	-2.54901913E-01	 1.09379126E-01
5.37966957E+07	-2.54740842E-01	 1.09744816E-01
5.38089037E+07	-2.54576358E-01	 1.10123385E-01
5.38211117E+07	-2.54407768E-01	 1.10497739E-01
5.38333198E+07	-2.54241951E-01	 1.10873428E-01
5.38455278E+07	-2.54071232E-01	 1.11239171E-01
5.38577358E+07	-2.53909908E-01	 1.11615055E-01
5.38699438E+07	-2.53734670E-01	 1.11990647E-01
5.38821519E+07	-2.53565118E-01	 1.12364795E-01
5.38943599E+07	-2.53396725E-01	 1.12730558E-01
5.39065679E+07	-2.53225770E-01	 1.13104217E-01
5.39187759E+07	-2.53055327E-01	 1.13479378E-01
5.39309840E+07	-2.52883413E-01	 1.13850645E-01
5.39431920E+07	-2.52709343E-01	 1.14219507E-01
5.39554000E+07	-2.52536242E-01	 1.14587692E-01
5.39676080E+07	-2.52365303E-01	 1.14959182E-01
5.39798161E+07	-2.52192454E-01	 1.15326261E-01
5.39920241E+07	-2.52016548E-01	 1.15700996E-01
5.40042321E+07	-2.51842467E-01	 1.16071805E-01
5.40164401E+07	-2.51667072E-01	 1.16437109E-01
5.40286482E+07	-2.51493537E-01	 1.16809436E-01
5.40408562E+07	-2.51313634E-01	 1.17177124E-01
5.40530642E+07	-2.51139700E-01	 1.17539978E-01
5.40652722E+07	-2.50964159E-01	 1.17913802E-01
5.40774803E+07	-2.50776908E-01	 1.18282590E-01
5.40896883E+07	-2.50604292E-01	 1.18646003E-01
5.41018963E+07	-2.50425707E-01	 1.19013174E-01
5.41141043E+07	-2.50240009E-01	 1.19385782E-01
5.41263124E+07	-2.50059154E-01	 1.19749314E-01
5.41385204E+07	-2.49886518E-01	 1.20112043E-01
5.41507284E+07	-2.49698415E-01	 1.20480894E-01
5.41629364E+07	-2.49516881E-01	 1.20850219E-01
5.41751445E+07	-2.49333629E-01	 1.21211270E-01
5.41873525E+07	-2.49148156E-01	 1.21574915E-01
5.41995605E+07	-2.48968727E-01	 1.21946396E-01
5.42117685E+07	-2.48782785E-01	 1.22312135E-01
5.42239766E+07	-2.48595784E-01	 1.22676316E-01
5.42361846E+07	-2.48415764E-01	 1.23036668E-01
5.42483926E+07	-2.48230405E-01	 1.23404761E-01
5.42606006E+07	-2.48041719E-01	 1.23767104E-01
5.42728087E+07	-2.47852564E-01	 1.24128377E-01
5.42850167E+07	-2.47668480E-01	 1.24495287E-01
5.42972247E+07	-2.47478344E-01	 1.24857891E-01
5.43094327E+07	-2.47284166E-01	 1.25220291E-01
5.43216408E+07	-2.47102946E-01	 1.25575086E-01
5.43338488E+07	-2.46909200E-01	 1.25943739E-01
5.43460568E+07	-2.46723572E-01	 1.26301225E-01
5.43582648E+07	-2.46529207E-01	 1.26659495E-01
5.43704729E+07	-2.46337634E-01	 1.27025099E-01
5.43826809E+07	-2.46148864E-01	 1.27389390E-01
5.43948889E+07	-2.45952560E-01	 1.27745778E-01
5.44070969E+07	-2.45761804E-01	 1.28102516E-01
5.44193050E+07	-2.45566426E-01	 1.28465770E-01
5.44315130E+07	-2.45374329E-01	 1.28824439E-01
5.44437210E+07	-2.45175802E-01	 1.29183288E-01
5.44559290E+07	-2.44982627E-01	 1.29546772E-01
5.44681371E+07	-2.44788623E-01	 1.29901986E-01
5.44803451E+07	-2.44598691E-01	 1.30266614E-01
5.44925531E+07	-2.44397411E-01	 1.30621665E-01
5.45047611E+07	-2.44196896E-01	 1.30976372E-01
5.45169692E+07	-2.44002639E-01	 1.31336408E-01
5.45291772E+07	-2.43801702E-01	 1.31694167E-01
5.45413852E+07	-2.43604329E-01	 1.32053893E-01
5.45535932E+07	-2.43408008E-01	 1.32404861E-01
5.45658013E+07	-2.43205920E-01	 1.32763496E-01
5.45780093E+07	-2.43004517E-01	 1.33115811E-01
5.45902173E+07	-2.42799644E-01	 1.33476361E-01
5.46024253E+07	-2.42602243E-01	 1.33832005E-01
5.46146334E+07	-2.42407256E-01	 1.34184129E-01
5.46268414E+07	-2.42195944E-01	 1.34539261E-01
5.46390494E+07	-2.41992658E-01	 1.34898832E-01
5.46512574E+07	-2.41789588E-01	 1.35246428E-01
5.46634655E+07	-2.41582829E-01	 1.35606358E-01
5.46756735E+07	-2.41385438E-01	 1.35958333E-01
5.46878815E+07	-2.41180761E-01	 1.36310937E-01
5.47000895E+07	-2.40970867E-01	 1.36663740E-01
5.47122976E+07	-2.40767053E-01	 1.37018388E-01
5.47245056E+07	-2.40559701E-01	 1.37365447E-01
5.47367136E+07	-2.40348401E-01	 1.37718250E-01
5.47489216E+07	-2.40141929E-01	 1.38070960E-01
5.47611296E+07	-2.39939871E-01	 1.38422658E-01
5.47733377E+07	-2.39728462E-01	 1.38772131E-01
5.47855457E+07	-2.39521033E-01	 1.39118952E-01
5.47977537E+07	-2.39305696E-01	 1.39471202E-01
5.48099617E+07	-2.39098127E-01	 1.39820901E-01
5.48221698E+07	-2.38882767E-01	 1.40166733E-01
5.48343778E+07	-2.38679314E-01	 1.40520110E-01
5.48465858E+07	-2.38462712E-01	 1.40872655E-01
5.48587938E+07	-2.38250072E-01	 1.41223364E-01
5.48710019E+07	-2.38037014E-01	 1.41568402E-01
5.48832099E+07	-2.37825900E-01	 1.41923413E-01
5.48954179E+07	-2.37609342E-01	 1.42265430E-01
5.49076259E+07	-2.37394704E-01	 1.42616035E-01
5.49198340E+07	-2.37181055E-01	 1.42960138E-01
5.49320420E+07	-2.36965157E-01	 1.43309823E-01
5.49442500E+07	-2.36741502E-01	 1.43658370E-01
5.49564580E+07	-2.36531603E-01	 1.44003148E-01
5.49686661E+07	-2.36312264E-01	 1.44349039E-01
5.49808741E+07	-2.36094370E-01	 1.44688029E-01
5.49930821E+07	-2.35872828E-01	 1.45037974E-01
5.50052901E+07	-2.35660715E-01	 1.45385644E-01
5.50174982E+07	-2.35440420E-01	 1.45732814E-01
5.50297062E+07	-2.35217981E-01	 1.46081752E-01
5.50419142E+07	-2.35008295E-01	 1.46415387E-01
5.50541222E+07	-2.34776514E-01	 1.46758018E-01
5.50663303E+07	-2.34559801E-01	 1.47103867E-01
5.50785383E+07	-2.34339363E-01	 1.47444405E-01
5.50907463E+07	-2.34118833E-01	 1.47791813E-01
5.51029543E+07	-2.33888172E-01	 1.48121547E-01
5.51151624E+07	-2.33671647E-01	 1.48468362E-01
5.51273704E+07	-2.33448961E-01	 1.48812658E-01
