! COPPER MOUNTAIN TECHNOLOGIES, PLANAR TR1300/1, 00071119, 20.2.2/1.0
! Date: 12/11/2023 3:04:23 PM
! Data: Format [Calibration Info]
! Freq          	S11: Re/Im F1                  
# HZ S RI R 50
5.00000000E+07	-1.44399430E-01	-3.04033478E-03
5.00122080E+07	-1.44403233E-01	-2.83371308E-03
5.00244160E+07	-1.44409980E-01	-2.62597125E-03
5.00366241E+07	-1.44413536E-01	-2.41754461E-03
5.00488321E+07	-1.44413277E-01	-2.20816967E-03
5.00610401E+07	-1.44418814E-01	-1.99398191E-03
5.00732481E+07	-1.44422712E-01	-1.78418988E-03
5.00854562E+07	-1.44426267E-01	-1.57319080E-03
5.00976642E+07	-1.44422162E-01	-1.36315204E-03
5.01098722E+07	-1.44425547E-01	-1.15269574E-03
5.01220802E+07	-1.44429259E-01	-9.43206781E-04
5.01342883E+07	-1.44430539E-01	-7.32425832E-04
5.01464963E+07	-1.44432272E-01	-5.28200464E-04
5.01587043E+07	-1.44432144E-01	-3.15536933E-04
5.01709123E+07	-1.44437644E-01	-1.03196242E-04
5.01831204E+07	-1.44433337E-01	 1.10206111E-04
5.01953284E+07	-1.44433125E-01	 3.15948370E-04
5.02075364E+07	-1.44428543E-01	 5.27780257E-04
5.02197444E+07	-1.44434739E-01	 7.34595839E-04
5.02319525E+07	-1.44430973E-01	 9.46047427E-04
5.02441605E+07	-1.44429563E-01	 1.15741820E-03
5.02563685E+07	-1.44429379E-01	 1.37194836E-03
5.02685765E+07	-1.44423265E-01	 1.57577502E-03
5.02807846E+07	-1.44425325E-01	 1.78704284E-03
5.02929926E+07	-1.44425166E-01	 1.99982255E-03
5.03052006E+07	-1.44417137E-01	 2.20784018E-03
5.03174086E+07	-1.44413360E-01	 2.41489780E-03
5.03296167E+07	-1.44410501E-01	 2.62582981E-03
5.03418247E+07	-1.44403528E-01	 2.83376710E-03
5.03540327E+07	-1.44400269E-01	 3.04799739E-03
5.03662407E+07	-1.44392892E-01	 3.25779208E-03
5.03784488E+07	-1.44389071E-01	 3.47053212E-03
5.03906568E+07	-1.44383903E-01	 3.68025027E-03
5.04028648E+07	-1.44379997E-01	 3.89009809E-03
5.04150728E+07	-1.44367346E-01	 4.10087001E-03
5.04272809E+07	-1.44370589E-01	 4.31121307E-03
5.04394889E+07	-1.44364077E-01	 4.51953905E-03
5.04516969E+07	-1.44357175E-01	 4.72799536E-03
5.04639049E+07	-1.44347919E-01	 4.93813682E-03
5.04761130E+07	-1.44342252E-01	 5.14764174E-03
5.04883210E+07	-1.44332166E-01	 5.35865603E-03
5.05005290E+07	-1.44323889E-01	 5.56730835E-03
5.05127370E+07	-1.44314250E-01	 5.77951754E-03
5.05249451E+07	-1.44309521E-01	 5.98529726E-03
5.05371531E+07	-1.44298045E-01	 6.20058544E-03
5.05493611E+07	-1.44286417E-01	 6.40459667E-03
5.05615691E+07	-1.44278320E-01	 6.61464361E-03
5.05737772E+07	-1.44271741E-01	 6.82616779E-03
5.05859852E+07	-1.44259143E-01	 7.03344183E-03
5.05981932E+07	-1.44247692E-01	 7.24914451E-03
5.06104012E+07	-1.44240109E-01	 7.45521591E-03
5.06226093E+07	-1.44226067E-01	 7.66638414E-03
5.06348173E+07	-1.44220565E-01	 7.87559253E-03
5.06470253E+07	-1.44203697E-01	 8.08263734E-03
5.06592333E+07	-1.44189625E-01	 8.29422840E-03
5.06714414E+07	-1.44176854E-01	 8.50490242E-03
5.06836494E+07	-1.44165277E-01	 8.71245186E-03
5.06958574E+07	-1.44151537E-01	 8.92131168E-03
5.07080654E+07	-1.44138670E-01	 9.13120722E-03
5.07202735E+07	-1.44122863E-01	 9.34154820E-03
5.07324815E+07	-1.44105860E-01	 9.55312521E-03
5.07446895E+07	-1.44098720E-01	 9.76007761E-03
5.07568975E+07	-1.44078323E-01	 9.96996262E-03
5.07691056E+07	-1.44071122E-01	 1.01803110E-02
5.07813136E+07	-1.44053164E-01	 1.03875552E-02
5.07935216E+07	-1.44034524E-01	 1.06032177E-02
5.08057296E+07	-1.44012115E-01	 1.08133206E-02
5.08179377E+07	-1.43996752E-01	 1.10188628E-02
5.08301457E+07	-1.43985955E-01	 1.12278255E-02
5.08423537E+07	-1.43972433E-01	 1.14363409E-02
5.08545617E+07	-1.43956092E-01	 1.16396022E-02
5.08667698E+07	-1.43932897E-01	 1.18513276E-02
5.08789778E+07	-1.43915324E-01	 1.20637387E-02
5.08911858E+07	-1.43898070E-01	 1.22740894E-02
5.09033938E+07	-1.43878727E-01	 1.24764018E-02
5.09156019E+07	-1.43864323E-01	 1.26885129E-02
5.09278099E+07	-1.43842346E-01	 1.28999610E-02
5.09400179E+07	-1.43821245E-01	 1.31137271E-02
5.09522259E+07	-1.43799716E-01	 1.33195290E-02
5.09644340E+07	-1.43785446E-01	 1.35239793E-02
5.09766420E+07	-1.43760517E-01	 1.37363913E-02
5.09888500E+07	-1.43742931E-01	 1.39435461E-02
5.10010580E+07	-1.43716839E-01	 1.41562950E-02
5.10132661E+07	-1.43696484E-01	 1.43650910E-02
5.10254741E+07	-1.43678742E-01	 1.45718540E-02
5.10376821E+07	-1.43652432E-01	 1.47826420E-02
5.10498901E+07	-1.43634253E-01	 1.49901087E-02
5.10620982E+07	-1.43608250E-01	 1.51952332E-02
5.10743062E+07	-1.43586265E-01	 1.54065649E-02
5.10865142E+07	-1.43555998E-01	 1.56169063E-02
5.10987222E+07	-1.43538632E-01	 1.58257615E-02
5.11109303E+07	-1.43516471E-01	 1.60317429E-02
5.11231383E+07	-1.43488861E-01	 1.62375047E-02
5.11353463E+07	-1.43459295E-01	 1.64470993E-02
5.11475543E+07	-1.43435085E-01	 1.66522434E-02
5.11597624E+07	-1.43413346E-01	 1.68702459E-02
5.11719704E+07	-1.43384966E-01	 1.70740900E-02
5.11841784E+07	-1.43359858E-01	 1.72799369E-02
5.11963864E+07	-1.43333065E-01	 1.74913368E-02
5.12085944E+07	-1.43306320E-01	 1.76968165E-02
5.12208025E+07	-1.43281069E-01	 1.79034823E-02
5.12330105E+07	-1.43248646E-01	 1.81160578E-02
5.12452185E+07	-1.43225335E-01	 1.83163977E-02
5.12574265E+07	-1.43201807E-01	 1.85283501E-02
5.12696346E+07	-1.43167717E-01	 1.87370187E-02
5.12818426E+07	-1.43138505E-01	 1.89461867E-02
5.12940506E+07	-1.43111496E-01	 1.91559567E-02
5.13062586E+07	-1.43080418E-01	 1.93603605E-02
5.13184667E+07	-1.43053915E-01	 1.95697084E-02
5.13306747E+07	-1.43021280E-01	 1.97746606E-02
5.13428827E+07	-1.42991370E-01	 1.99808891E-02
5.13550907E+07	-1.42958395E-01	 2.01900466E-02
5.13672988E+07	-1.42930006E-01	 2.03974929E-02
5.13795068E+07	-1.42898545E-01	 2.06046400E-02
5.13917148E+07	-1.42872131E-01	 2.08113778E-02
5.14039228E+07	-1.42836217E-01	 2.10176733E-02
5.14161309E+07	-1.42801599E-01	 2.12260298E-02
5.14283389E+07	-1.42770597E-01	 2.14342118E-02
5.14405469E+07	-1.42736815E-01	 2.16425556E-02
5.14527549E+07	-1.42700995E-01	 2.18456493E-02
5.14649630E+07	-1.42675355E-01	 2.20553037E-02
5.14771710E+07	-1.42638809E-01	 2.22619930E-02
5.14893790E+07	-1.42600637E-01	 2.24696577E-02
5.15015870E+07	-1.42569294E-01	 2.26756371E-02
5.15137951E+07	-1.42538979E-01	 2.28855493E-02
5.15260031E+07	-1.42504790E-01	 2.30919892E-02
5.15382111E+07	-1.42462288E-01	 2.32941294E-02
5.15504191E+07	-1.42431483E-01	 2.35034317E-02
5.15626272E+07	-1.42394106E-01	 2.37094731E-02
5.15748352E+07	-1.42355164E-01	 2.39196715E-02
5.15870432E+07	-1.42322222E-01	 2.41221168E-02
5.15992512E+07	-1.42281335E-01	 2.43281773E-02
5.16114593E+07	-1.42244686E-01	 2.45371858E-02
5.16236673E+07	-1.42210404E-01	 2.47432904E-02
5.16358753E+07	-1.42170853E-01	 2.49541403E-02
5.16480833E+07	-1.42135318E-01	 2.51569641E-02
5.16602914E+07	-1.42094941E-01	 2.53579518E-02
5.16724994E+07	-1.42059440E-01	 2.55690698E-02
5.16847074E+07	-1.42019816E-01	 2.57710652E-02
5.16969154E+07	-1.41982564E-01	 2.59769768E-02
5.17091235E+07	-1.41945212E-01	 2.61844945E-02
5.17213315E+07	-1.41898396E-01	 2.63946709E-02
5.17335395E+07	-1.41859598E-01	 2.65929998E-02
5.17457475E+07	-1.41819236E-01	 2.68002310E-02
5.17579556E+07	-1.41776147E-01	 2.70066722E-02
5.17701636E+07	-1.41736967E-01	 2.72142612E-02
5.17823716E+07	-1.41696476E-01	 2.74182574E-02
5.17945796E+07	-1.41652194E-01	 2.76218620E-02
5.18067877E+07	-1.41610277E-01	 2.78302730E-02
5.18189957E+07	-1.41568384E-01	 2.80347212E-02
5.18312037E+07	-1.41528463E-01	 2.82394565E-02
5.18434117E+07	-1.41484472E-01	 2.84443649E-02
5.18556198E+07	-1.41439855E-01	 2.86495644E-02
5.18678278E+07	-1.41396792E-01	 2.88556375E-02
5.18800358E+07	-1.41355349E-01	 2.90689292E-02
5.18922438E+07	-1.41309252E-01	 2.92656364E-02
5.19044519E+07	-1.41270580E-01	 2.94735683E-02
5.19166599E+07	-1.41225025E-01	 2.96774133E-02
5.19288679E+07	-1.41174100E-01	 2.98825425E-02
5.19410759E+07	-1.41134504E-01	 3.00845054E-02
5.19532840E+07	-1.41084232E-01	 3.02915321E-02
5.19654920E+07	-1.41039103E-01	 3.04941893E-02
5.19777000E+07	-1.40990803E-01	 3.07037140E-02
5.19899080E+07	-1.40948595E-01	 3.09014551E-02
5.20021161E+07	-1.40899795E-01	 3.11123674E-02
5.20143241E+07	-1.40850745E-01	 3.13155241E-02
5.20265321E+07	-1.40807597E-01	 3.15145967E-02
5.20387401E+07	-1.40756957E-01	 3.17201105E-02
5.20509482E+07	-1.40708926E-01	 3.19266942E-02
5.20631562E+07	-1.40656597E-01	 3.21247088E-02
5.20753642E+07	-1.40615683E-01	 3.23296840E-02
5.20875722E+07	-1.40562425E-01	 3.25359124E-02
5.20997803E+07	-1.40511836E-01	 3.27408364E-02
5.21119883E+07	-1.40465133E-01	 3.29477769E-02
5.21241963E+07	-1.40418675E-01	 3.31498603E-02
5.21364043E+07	-1.40363730E-01	 3.33513386E-02
5.21486124E+07	-1.40315659E-01	 3.35572786E-02
5.21608204E+07	-1.40267522E-01	 3.37569703E-02
5.21730284E+07	-1.40212604E-01	 3.39564407E-02
5.21852364E+07	-1.40166086E-01	 3.41619567E-02
5.21974445E+07	-1.40113208E-01	 3.43664509E-02
5.22096525E+07	-1.40061747E-01	 3.45666118E-02
5.22218605E+07	-1.40007795E-01	 3.47782636E-02
5.22340685E+07	-1.39952120E-01	 3.49774518E-02
5.22462766E+07	-1.39903046E-01	 3.51804563E-02
5.22584846E+07	-1.39852360E-01	 3.53823551E-02
5.22706926E+07	-1.39795656E-01	 3.55823629E-02
5.22829006E+07	-1.39740789E-01	 3.57907973E-02
5.22951087E+07	-1.39685895E-01	 3.59934106E-02
5.23073167E+07	-1.39629435E-01	 3.61904995E-02
5.23195247E+07	-1.39576103E-01	 3.63909298E-02
5.23317327E+07	-1.39522974E-01	 3.66009579E-02
5.23439408E+07	-1.39466899E-01	 3.68041471E-02
5.23561488E+07	-1.39413760E-01	 3.70018732E-02
5.23683568E+07	-1.39355694E-01	 3.72023441E-02
5.23805648E+07	-1.39305168E-01	 3.74057144E-02
5.23927728E+07	-1.39249132E-01	 3.76116488E-02
5.24049809E+07	-1.39191943E-01	 3.78067094E-02
5.24171889E+07	-1.39133018E-01	 3.80157669E-02
5.24293969E+07	-1.39075852E-01	 3.82133573E-02
5.24416049E+07	-1.39013693E-01	 3.84142026E-02
5.24538130E+07	-1.38957111E-01	 3.86142186E-02
5.24660210E+07	-1.38901844E-01	 3.88155085E-02
5.24782290E+07	-1.38844056E-01	 3.90182170E-02
5.24904370E+07	-1.38788090E-01	 3.92218950E-02
5.25026451E+07	-1.38731381E-01	 3.94154512E-02
5.25148531E+07	-1.38663548E-01	 3.96240161E-02
5.25270611E+07	-1.38607881E-01	 3.98241574E-02
5.25392691E+07	-1.38547804E-01	 4.00269777E-02
5.25514772E+07	-1.38486044E-01	 4.02251218E-02
5.25636852E+07	-1.38423212E-01	 4.04250195E-02
5.25758932E+07	-1.38365267E-01	 4.06274148E-02
5.25881012E+07	-1.38303628E-01	 4.08265082E-02
5.26003093E+07	-1.38243660E-01	 4.10226830E-02
5.26125173E+07	-1.38181709E-01	 4.12276770E-02
5.26247253E+07	-1.38118568E-01	 4.14258324E-02
5.26369333E+07	-1.38051184E-01	 4.16293389E-02
5.26491414E+07	-1.37991888E-01	 4.18250983E-02
5.26613494E+07	-1.37933481E-01	 4.20278705E-02
5.26735574E+07	-1.37868764E-01	 4.22268684E-02
5.26857654E+07	-1.37801778E-01	 4.24221539E-02
5.26979735E+07	-1.37737437E-01	 4.26223089E-02
5.27101815E+07	-1.37672304E-01	 4.28240217E-02
5.27223895E+07	-1.37607920E-01	 4.30182059E-02
5.27345975E+07	-1.37542314E-01	 4.32236235E-02
5.27468056E+07	-1.37481546E-01	 4.34221813E-02
5.27590136E+07	-1.37415811E-01	 4.36194692E-02
5.27712216E+07	-1.37351309E-01	 4.38220331E-02
5.27834296E+07	-1.37284372E-01	 4.40154964E-02
5.27956377E+07	-1.37216476E-01	 4.42204379E-02
5.28078457E+07	-1.37147116E-01	 4.44207326E-02
5.28200537E+07	-1.37082246E-01	 4.46161596E-02
5.28322617E+07	-1.37018929E-01	 4.48157195E-02
5.28444698E+07	-1.36949552E-01	 4.50129604E-02
5.28566778E+07	-1.36877026E-01	 4.52052662E-02
5.28688858E+07	-1.36814814E-01	 4.54062615E-02
5.28810938E+07	-1.36746142E-01	 4.56023710E-02
5.28933019E+07	-1.36676583E-01	 4.58020581E-02
5.29055099E+07	-1.36603127E-01	 4.60003431E-02
5.29177179E+07	-1.36539431E-01	 4.61965319E-02
5.29299259E+07	-1.36470382E-01	 4.63974500E-02
5.29421340E+07	-1.36400577E-01	 4.65930508E-02
5.29543420E+07	-1.36333662E-01	 4.67908185E-02
5.29665500E+07	-1.36258808E-01	 4.69869201E-02
5.29787580E+07	-1.36187011E-01	 4.71859641E-02
5.29909661E+07	-1.36115434E-01	 4.73786678E-02
5.30031741E+07	-1.36045444E-01	 4.75769069E-02
5.30153821E+07	-1.35969267E-01	 4.77784643E-02
5.30275901E+07	-1.35904021E-01	 4.79717777E-02
5.30397982E+07	-1.35824279E-01	 4.81662282E-02
5.30520062E+07	-1.35756057E-01	 4.83686069E-02
5.30642142E+07	-1.35682016E-01	 4.85600306E-02
5.30764222E+07	-1.35611993E-01	 4.87613098E-02
5.30886303E+07	-1.35541589E-01	 4.89564154E-02
5.31008383E+07	-1.35459565E-01	 4.91504716E-02
5.31130463E+07	-1.35387865E-01	 4.93474536E-02
5.31252543E+07	-1.35315045E-01	 4.95438654E-02
5.31374624E+07	-1.35242379E-01	 4.97389701E-02
5.31496704E+07	-1.35166956E-01	 4.99286975E-02
5.31618784E+07	-1.35096002E-01	 5.01269564E-02
5.31740864E+07	-1.35017704E-01	 5.03255140E-02
5.31862945E+07	-1.34936314E-01	 5.05185126E-02
5.31985025E+07	-1.34863912E-01	 5.07163233E-02
5.32107105E+07	-1.34788278E-01	 5.09118925E-02
5.32229185E+07	-1.34708943E-01	 5.11053657E-02
5.32351266E+07	-1.34632168E-01	 5.12989120E-02
5.32473346E+07	-1.34558145E-01	 5.14950967E-02
5.32595426E+07	-1.34481097E-01	 5.16875814E-02
5.32717506E+07	-1.34397498E-01	 5.18816624E-02
5.32839587E+07	-1.34322964E-01	 5.20770084E-02
5.32961667E+07	-1.34239502E-01	 5.22724198E-02
5.33083747E+07	-1.34168352E-01	 5.24659144E-02
5.33205827E+07	-1.34084422E-01	 5.26631996E-02
5.33327908E+07	-1.34007205E-01	 5.28509983E-02
5.33449988E+07	-1.33926397E-01	 5.30454324E-02
5.33572068E+07	-1.33844875E-01	 5.32456204E-02
5.33694148E+07	-1.33771206E-01	 5.34369618E-02
5.33816229E+07	-1.33687437E-01	 5.36242324E-02
5.33938309E+07	-1.33609946E-01	 5.38171319E-02
5.34060389E+07	-1.33525057E-01	 5.40113103E-02
5.34182469E+07	-1.33444602E-01	 5.42021029E-02
5.34304550E+07	-1.33366536E-01	 5.43987768E-02
5.34426630E+07	-1.33279219E-01	 5.45942176E-02
5.34548710E+07	-1.33196238E-01	 5.47849306E-02
5.34670790E+07	-1.33114492E-01	 5.49784929E-02
5.34792871E+07	-1.33030915E-01	 5.51706380E-02
5.34914951E+07	-1.32948778E-01	 5.53624951E-02
5.35037031E+07	-1.32860571E-01	 5.55564604E-02
5.35159111E+07	-1.32784609E-01	 5.57431112E-02
5.35281192E+07	-1.32700552E-01	 5.59404465E-02
5.35403272E+07	-1.32617180E-01	 5.61256446E-02
5.35525352E+07	-1.32533010E-01	 5.63236665E-02
5.35647432E+07	-1.32450636E-01	 5.65067755E-02
5.35769512E+07	-1.32361149E-01	 5.67028958E-02
5.35891593E+07	-1.32270727E-01	 5.68919531E-02
5.36013673E+07	-1.32191013E-01	 5.70810468E-02
5.36135753E+07	-1.32105799E-01	 5.72777731E-02
5.36257833E+07	-1.32018158E-01	 5.74671310E-02
5.36379914E+07	-1.31934695E-01	 5.76540296E-02
5.36501994E+07	-1.31847970E-01	 5.78506018E-02
5.36624074E+07	-1.31759007E-01	 5.80403009E-02
5.36746154E+07	-1.31671224E-01	 5.82280060E-02
5.36868235E+07	-1.31587284E-01	 5.84167919E-02
5.36990315E+07	-1.31493318E-01	 5.86092748E-02
5.37112395E+07	-1.31410659E-01	 5.87965950E-02
5.37234475E+07	-1.31316807E-01	 5.89874354E-02
5.37356556E+07	-1.31232764E-01	 5.91759537E-02
5.37478636E+07	-1.31142903E-01	 5.93676547E-02
5.37600716E+07	-1.31055822E-01	 5.95562790E-02
5.37722796E+07	-1.30963144E-01	 5.97457158E-02
5.37844877E+07	-1.30876494E-01	 5.99402781E-02
5.37966957E+07	-1.30785974E-01	 6.01206850E-02
5.38089037E+07	-1.30695685E-01	 6.03106672E-02
5.38211117E+07	-1.30602087E-01	 6.04992686E-02
5.38333198E+07	-1.30514253E-01	 6.06918196E-02
5.38455278E+07	-1.30415943E-01	 6.08763862E-02
5.38577358E+07	-1.30330923E-01	 6.10645597E-02
5.38699438E+07	-1.30238558E-01	 6.12534923E-02
5.38821519E+07	-1.30142450E-01	 6.14429669E-02
5.38943599E+07	-1.30050960E-01	 6.16304574E-02
5.39065679E+07	-1.29960322E-01	 6.18165226E-02
5.39187759E+07	-1.29862338E-01	 6.20094543E-02
5.39309840E+07	-1.29773947E-01	 6.21944524E-02
5.39431920E+07	-1.29677577E-01	 6.23820287E-02
5.39554000E+07	-1.29584891E-01	 6.25678473E-02
5.39676080E+07	-1.29493898E-01	 6.27553892E-02
5.39798161E+07	-1.29396850E-01	 6.29365579E-02
5.39920241E+07	-1.29299331E-01	 6.31272707E-02
5.40042321E+07	-1.29207455E-01	 6.33155478E-02
5.40164401E+07	-1.29111410E-01	 6.34997214E-02
5.40286482E+07	-1.29021455E-01	 6.36878199E-02
5.40408562E+07	-1.28925665E-01	 6.38705930E-02
5.40530642E+07	-1.28829712E-01	 6.40542862E-02
5.40652722E+07	-1.28726787E-01	 6.42407783E-02
5.40774803E+07	-1.28631623E-01	 6.44314823E-02
5.40896883E+07	-1.28535818E-01	 6.46116443E-02
5.41018963E+07	-1.28441422E-01	 6.48013562E-02
5.41141043E+07	-1.28341710E-01	 6.49841462E-02
5.41263124E+07	-1.28240699E-01	 6.51691423E-02
5.41385204E+07	-1.28150486E-01	 6.53561103E-02
5.41507284E+07	-1.28048251E-01	 6.55407760E-02
5.41629364E+07	-1.27949811E-01	 6.57239132E-02
5.41751445E+07	-1.27853192E-01	 6.59094291E-02
5.41873525E+07	-1.27752775E-01	 6.60893938E-02
5.41995605E+07	-1.27655683E-01	 6.62771744E-02
5.42117685E+07	-1.27550675E-01	 6.64615343E-02
5.42239766E+07	-1.27451107E-01	 6.66443746E-02
5.42361846E+07	-1.27353531E-01	 6.68278270E-02
5.42483926E+07	-1.27249826E-01	 6.70142696E-02
5.42606006E+07	-1.27155404E-01	 6.71945049E-02
5.42728087E+07	-1.27052629E-01	 6.73730252E-02
5.42850167E+07	-1.26950510E-01	 6.75620357E-02
5.42972247E+07	-1.26850694E-01	 6.77490983E-02
5.43094327E+07	-1.26747181E-01	 6.79261301E-02
5.43216408E+07	-1.26646672E-01	 6.81052845E-02
5.43338488E+07	-1.26544724E-01	 6.82950548E-02
5.43460568E+07	-1.26441111E-01	 6.84704084E-02
5.43582648E+07	-1.26338453E-01	 6.86520647E-02
5.43704729E+07	-1.26235198E-01	 6.88379880E-02
5.43826809E+07	-1.26128984E-01	 6.90213965E-02
5.43948889E+07	-1.26029749E-01	 6.91985918E-02
5.44070969E+07	-1.25925141E-01	 6.93827906E-02
5.44193050E+07	-1.25815511E-01	 6.95600344E-02
5.44315130E+07	-1.25716633E-01	 6.97416690E-02
5.44437210E+07	-1.25611213E-01	 6.99267222E-02
5.44559290E+07	-1.25501574E-01	 7.01072161E-02
5.44681371E+07	-1.25403028E-01	 7.02860154E-02
5.44803451E+07	-1.25302207E-01	 7.04736414E-02
5.44925531E+07	-1.25190313E-01	 7.06478319E-02
5.45047611E+07	-1.25082450E-01	 7.08256555E-02
5.45169692E+07	-1.24978307E-01	 7.10077370E-02
5.45291772E+07	-1.24868718E-01	 7.11915737E-02
5.45413852E+07	-1.24762845E-01	 7.13685138E-02
5.45535932E+07	-1.24658201E-01	 7.15469843E-02
5.45658013E+07	-1.24553011E-01	 7.17312502E-02
5.45780093E+07	-1.24441666E-01	 7.19048559E-02
5.45902173E+07	-1.24338815E-01	 7.20846923E-02
5.46024253E+07	-1.24226784E-01	 7.22666045E-02
5.46146334E+07	-1.24121166E-01	 7.24435901E-02
5.46268414E+07	-1.24011922E-01	 7.26207468E-02
5.46390494E+07	-1.23898364E-01	 7.28022044E-02
5.46512574E+07	-1.23791832E-01	 7.29806665E-02
5.46634655E+07	-1.23679175E-01	 7.31587406E-02
5.46756735E+07	-1.23573314E-01	 7.33375279E-02
5.46878815E+07	-1.23461499E-01	 7.35127635E-02
5.47000895E+07	-1.23350650E-01	 7.36896886E-02
5.47122976E+07	-1.23244710E-01	 7.38701733E-02
5.47245056E+07	-1.23130414E-01	 7.40446188E-02
5.47367136E+07	-1.23016968E-01	 7.42206494E-02
5.47489216E+07	-1.22907923E-01	 7.43988949E-02
5.47611296E+07	-1.22799745E-01	 7.45744481E-02
5.47733377E+07	-1.22685080E-01	 7.47521209E-02
5.47855457E+07	-1.22570594E-01	 7.49265432E-02
5.47977537E+07	-1.22460839E-01	 7.51007912E-02
5.48099617E+07	-1.22346937E-01	 7.52820383E-02
5.48221698E+07	-1.22232235E-01	 7.54552678E-02
5.48343778E+07	-1.22120576E-01	 7.56311152E-02
5.48465858E+07	-1.22006450E-01	 7.58045365E-02
5.48587938E+07	-1.21891273E-01	 7.59822524E-02
5.48710019E+07	-1.21776271E-01	 7.61552275E-02
5.48832099E+07	-1.21663328E-01	 7.63368172E-02
5.48954179E+07	-1.21551790E-01	 7.65049689E-02
5.49076259E+07	-1.21436627E-01	 7.66831888E-02
5.49198340E+07	-1.21319185E-01	 7.68590595E-02
5.49320420E+07	-1.21201292E-01	 7.70340347E-02
5.49442500E+07	-1.21084773E-01	 7.72040568E-02
5.49564580E+07	-1.20971888E-01	 7.73802340E-02
5.49686661E+07	-1.20856554E-01	 7.75543072E-02
5.49808741E+07	-1.20738547E-01	 7.77234013E-02
5.49930821E+07	-1.20621673E-01	 7.78997202E-02
5.50052901E+07	-1.20504508E-01	 7.80752401E-02
5.50174982E+07	-1.20386621E-01	 7.82475820E-02
5.50297062E+07	-1.20270847E-01	 7.84182621E-02
5.50419142E+07	-1.20158444E-01	 7.85887910E-02
5.50541222E+07	-1.20036514E-01	 7.87684577E-02
5.50663303E+07	-1.19918542E-01	 7.89363122E-02
5.50785383E+07	-1.19798383E-01	 7.91098084E-02
5.50907463E+07	-1.19684569E-01	 7.92823829E-02
5.51029543E+07	-1.19556169E-01	 7.94461092E-02
5.51151624E+07	-1.19443991E-01	 7.96224830E-02
5.51273704E+07	-1.19326591E-01	 7.97929059E-02
