! COPPER MOUNTAIN TECHNOLOGIES, PLANAR TR1300/1, 00071119, 20.2.2/1.0
! Date: 12/11/2023 3:11:24 PM
! Data: Format [Calibration Info]
! Freq          	S11: Re/Im F1                  
# HZ S RI R 50
5.00000000E+07	 4.89942702E-01	-6.79451331E-01
5.00122080E+07	 4.85564314E-01	-6.82618365E-01
5.00244160E+07	 4.81173283E-01	-6.85729253E-01
5.00366241E+07	 4.76735079E-01	-6.88801940E-01
5.00488321E+07	 4.72294529E-01	-6.91855447E-01
5.00610401E+07	 4.67813937E-01	-6.94858422E-01
5.00732481E+07	 4.63330247E-01	-6.97857165E-01
5.00854562E+07	 4.58839846E-01	-7.00827169E-01
5.00976642E+07	 4.54304896E-01	-7.03763139E-01
5.01098722E+07	 4.49768245E-01	-7.06682350E-01
5.01220802E+07	 4.45167896E-01	-7.09505224E-01
5.01342883E+07	 4.40619008E-01	-7.12391293E-01
5.01464963E+07	 4.36025908E-01	-7.15204505E-01
5.01587043E+07	 4.31410304E-01	-7.18002910E-01
5.01709123E+07	 4.26767531E-01	-7.20745415E-01
5.01831204E+07	 4.22128311E-01	-7.23469571E-01
5.01953284E+07	 4.17466422E-01	-7.26167739E-01
5.02075364E+07	 4.12737642E-01	-7.28784624E-01
5.02197444E+07	 4.08071930E-01	-7.31473972E-01
5.02319525E+07	 4.03337410E-01	-7.34068638E-01
5.02441605E+07	 3.98623069E-01	-7.36634128E-01
5.02563685E+07	 3.93872606E-01	-7.39180414E-01
5.02685765E+07	 3.89074172E-01	-7.41646645E-01
5.02807846E+07	 3.84318546E-01	-7.44176854E-01
5.02929926E+07	 3.79504598E-01	-7.46607459E-01
5.03052006E+07	 3.74691546E-01	-7.49024870E-01
5.03174086E+07	 3.69860434E-01	-7.51412479E-01
5.03296167E+07	 3.65020668E-01	-7.53766326E-01
5.03418247E+07	 3.60162580E-01	-7.56099036E-01
5.03540327E+07	 3.55285798E-01	-7.58376734E-01
5.03662407E+07	 3.50393235E-01	-7.60654566E-01
5.03784488E+07	 3.45492538E-01	-7.62873238E-01
5.03906568E+07	 3.40556306E-01	-7.65014221E-01
5.04028648E+07	 3.35634142E-01	-7.67214070E-01
5.04150728E+07	 3.30693424E-01	-7.69342794E-01
5.04272809E+07	 3.25734063E-01	-7.71439866E-01
5.04394889E+07	 3.20747147E-01	-7.73456654E-01
5.04516969E+07	 3.15776426E-01	-7.75532629E-01
5.04639049E+07	 3.10795382E-01	-7.77534317E-01
5.04761130E+07	 3.05766449E-01	-7.79504540E-01
5.04883210E+07	 3.00770325E-01	-7.81446162E-01
5.05005290E+07	 2.95720781E-01	-7.83354679E-01
5.05127370E+07	 2.90666621E-01	-7.85201378E-01
5.05249451E+07	 2.85630873E-01	-7.87056366E-01
5.05371531E+07	 2.80556425E-01	-7.88852192E-01
5.05493611E+07	 2.75488020E-01	-7.90629913E-01
5.05615691E+07	 2.70388980E-01	-7.92367840E-01
5.05737772E+07	 2.65290746E-01	-7.94071675E-01
5.05859852E+07	 2.60178284E-01	-7.95740186E-01
5.05981932E+07	 2.55060598E-01	-7.97372259E-01
5.06104012E+07	 2.49921070E-01	-7.98993562E-01
5.06226093E+07	 2.44783180E-01	-8.00549386E-01
5.06348173E+07	 2.39631693E-01	-8.02087377E-01
5.06470253E+07	 2.34500157E-01	-8.03591731E-01
5.06592333E+07	 2.29312447E-01	-8.05067837E-01
5.06714414E+07	 2.24133549E-01	-8.06495034E-01
5.06836494E+07	 2.18937436E-01	-8.07905063E-01
5.06958574E+07	 2.13761042E-01	-8.09273988E-01
5.07080654E+07	 2.08563205E-01	-8.10600473E-01
5.07202735E+07	 2.03330622E-01	-8.11899826E-01
5.07324815E+07	 1.98120886E-01	-8.13159438E-01
5.07446895E+07	 1.92894555E-01	-8.14410874E-01
5.07568975E+07	 1.87665504E-01	-8.15592066E-01
5.07691056E+07	 1.82414720E-01	-8.16764659E-01
5.07813136E+07	 1.77155882E-01	-8.17891414E-01
5.07935216E+07	 1.71913479E-01	-8.19001350E-01
5.08057296E+07	 1.66655689E-01	-8.20045949E-01
5.08179377E+07	 1.61391763E-01	-8.21073519E-01
5.08301457E+07	 1.56095832E-01	-8.22088069E-01
5.08423537E+07	 1.50832402E-01	-8.23064849E-01
5.08545617E+07	 1.45566539E-01	-8.23978708E-01
5.08667698E+07	 1.40273068E-01	-8.24867445E-01
5.08789778E+07	 1.34952464E-01	-8.25716791E-01
5.08911858E+07	 1.29667957E-01	-8.26531379E-01
5.09033938E+07	 1.24373372E-01	-8.27353115E-01
5.09156019E+07	 1.19054214E-01	-8.28095580E-01
5.09278099E+07	 1.13745076E-01	-8.28797063E-01
5.09400179E+07	 1.08429109E-01	-8.29479186E-01
5.09522259E+07	 1.03101855E-01	-8.30132130E-01
5.09644340E+07	 9.77735679E-02	-8.30764112E-01
5.09766420E+07	 9.24631673E-02	-8.31327712E-01
5.09888500E+07	 8.71224020E-02	-8.31892023E-01
5.10010580E+07	 8.17978777E-02	-8.32379931E-01
5.10132661E+07	 7.64648952E-02	-8.32875340E-01
5.10254741E+07	 7.11246916E-02	-8.33323910E-01
5.10376821E+07	 6.57948352E-02	-8.33742636E-01
5.10498901E+07	 6.04544675E-02	-8.34094365E-01
5.10620982E+07	 5.51150760E-02	-8.34455902E-01
5.10743062E+07	 4.97564784E-02	-8.34751735E-01
5.10865142E+07	 4.44353012E-02	-8.35031023E-01
5.10987222E+07	 3.90909912E-02	-8.35245874E-01
5.11109303E+07	 3.37381148E-02	-8.35460598E-01
5.11231383E+07	 2.83909299E-02	-8.35630654E-01
5.11353463E+07	 2.30400991E-02	-8.35760667E-01
5.11475543E+07	 1.76876529E-02	-8.35885430E-01
5.11597624E+07	 1.23403124E-02	-8.35920669E-01
5.11719704E+07	 7.00222789E-03	-8.35960722E-01
5.11841784E+07	 1.65271759E-03	-8.35951385E-01
5.11963864E+07	-3.70126461E-03	-8.35916102E-01
5.12085944E+07	-9.04143565E-03	-8.35853806E-01
5.12208025E+07	-1.43670929E-02	-8.35728775E-01
5.12330105E+07	-1.97093343E-02	-8.35588439E-01
5.12452185E+07	-2.50494809E-02	-8.35413708E-01
5.12574265E+07	-3.03836476E-02	-8.35227916E-01
5.12696346E+07	-3.57294817E-02	-8.34957369E-01
5.12818426E+07	-4.10628384E-02	-8.34662396E-01
5.12940506E+07	-4.63876761E-02	-8.34353137E-01
5.13062586E+07	-5.17089116E-02	-8.34004652E-01
5.13184667E+07	-5.70347868E-02	-8.33640267E-01
5.13306747E+07	-6.23664722E-02	-8.33209955E-01
5.13428827E+07	-6.76876643E-02	-8.32772789E-01
5.13550907E+07	-7.29684562E-02	-8.32266382E-01
5.13672988E+07	-7.82816687E-02	-8.31763395E-01
5.13795068E+07	-8.35950268E-02	-8.31217451E-01
5.13917148E+07	-8.88927094E-02	-8.30608650E-01
5.14039228E+07	-9.41800526E-02	-8.29990499E-01
5.14161309E+07	-9.94681510E-02	-8.29345617E-01
5.14283389E+07	-1.04758839E-01	-8.28677349E-01
5.14405469E+07	-1.10032582E-01	-8.27914998E-01
5.14527549E+07	-1.15309697E-01	-8.27163410E-01
5.14649630E+07	-1.20590493E-01	-8.26391713E-01
5.14771710E+07	-1.25864727E-01	-8.25542538E-01
5.14893790E+07	-1.31097987E-01	-8.24688290E-01
5.15015870E+07	-1.36349160E-01	-8.23809744E-01
5.15137951E+07	-1.41589613E-01	-8.22873255E-01
5.15260031E+07	-1.46847749E-01	-8.21932010E-01
5.15382111E+07	-1.52063752E-01	-8.20925904E-01
5.15504191E+07	-1.57276308E-01	-8.19899151E-01
5.15626272E+07	-1.62501274E-01	-8.18843936E-01
5.15748352E+07	-1.67705648E-01	-8.17735903E-01
5.15870432E+07	-1.72911804E-01	-8.16623282E-01
5.15992512E+07	-1.78100617E-01	-8.15463657E-01
5.16114593E+07	-1.83273797E-01	-8.14290361E-01
5.16236673E+07	-1.88434618E-01	-8.13038907E-01
5.16358753E+07	-1.93620607E-01	-8.11792125E-01
5.16480833E+07	-1.98778428E-01	-8.10498209E-01
5.16602914E+07	-2.03913808E-01	-8.09188834E-01
5.16724994E+07	-2.09049982E-01	-8.07809804E-01
5.16847074E+07	-2.14190721E-01	-8.06438732E-01
5.16969154E+07	-2.19304704E-01	-8.05019693E-01
5.17091235E+07	-2.24406074E-01	-8.03562137E-01
5.17213315E+07	-2.29505410E-01	-8.02074187E-01
5.17335395E+07	-2.34607223E-01	-8.00545340E-01
5.17457475E+07	-2.39669788E-01	-7.98988274E-01
5.17579556E+07	-2.44725828E-01	-7.97411589E-01
5.17701636E+07	-2.49780563E-01	-7.95797023E-01
5.17823716E+07	-2.54837111E-01	-7.94143979E-01
5.17945796E+07	-2.59856026E-01	-7.92472315E-01
5.18067877E+07	-2.64882834E-01	-7.90770559E-01
5.18189957E+07	-2.69898554E-01	-7.89015914E-01
5.18312037E+07	-2.74901348E-01	-7.87224217E-01
5.18434117E+07	-2.79877941E-01	-7.85423401E-01
5.18556198E+07	-2.84830462E-01	-7.83598620E-01
5.18678278E+07	-2.89803347E-01	-7.81718128E-01
5.18800358E+07	-2.94749443E-01	-7.79803862E-01
5.18922438E+07	-2.99679617E-01	-7.77893162E-01
5.19044519E+07	-3.04593987E-01	-7.75922672E-01
5.19166599E+07	-3.09506257E-01	-7.73926620E-01
5.19288679E+07	-3.14389837E-01	-7.71879360E-01
5.19410759E+07	-3.19279463E-01	-7.69847663E-01
5.19532840E+07	-3.24146958E-01	-7.67756428E-01
5.19654920E+07	-3.28972079E-01	-7.65626348E-01
5.19777000E+07	-3.33827716E-01	-7.63481403E-01
5.19899080E+07	-3.38654013E-01	-7.61312663E-01
5.20021161E+07	-3.43460148E-01	-7.59076230E-01
5.20143241E+07	-3.48251171E-01	-7.56864330E-01
5.20265321E+07	-3.53015527E-01	-7.54567284E-01
5.20387401E+07	-3.57797448E-01	-7.52281399E-01
5.20509482E+07	-3.62526981E-01	-7.49923634E-01
5.20631562E+07	-3.67252156E-01	-7.47584037E-01
5.20753642E+07	-3.71952521E-01	-7.45197367E-01
5.20875722E+07	-3.76674605E-01	-7.42772005E-01
5.20997803E+07	-3.81341503E-01	-7.40313551E-01
5.21119883E+07	-3.86015347E-01	-7.37832875E-01
5.21241963E+07	-3.90664488E-01	-7.35333224E-01
5.21364043E+07	-3.95296888E-01	-7.32780533E-01
5.21486124E+07	-3.99908503E-01	-7.30212976E-01
5.21608204E+07	-4.04502424E-01	-7.27623733E-01
5.21730284E+07	-4.09100780E-01	-7.25009370E-01
5.21852364E+07	-4.13637361E-01	-7.22333592E-01
5.21974445E+07	-4.18194320E-01	-7.19657665E-01
5.22096525E+07	-4.22710401E-01	-7.16976508E-01
5.22218605E+07	-4.27218688E-01	-7.14213469E-01
5.22340685E+07	-4.31700885E-01	-7.11431124E-01
5.22462766E+07	-4.36176157E-01	-7.08647159E-01
5.22584846E+07	-4.40624793E-01	-7.05835624E-01
5.22706926E+07	-4.45043918E-01	-7.02970682E-01
5.22829006E+07	-4.49463045E-01	-7.00071739E-01
5.22951087E+07	-4.53862996E-01	-6.97199377E-01
5.23073167E+07	-4.58237522E-01	-6.94247723E-01
5.23195247E+07	-4.62579263E-01	-6.91293872E-01
5.23317327E+07	-4.66923312E-01	-6.88291801E-01
5.23439408E+07	-4.71240464E-01	-6.85276808E-01
5.23561488E+07	-4.75527515E-01	-6.82243933E-01
5.23683568E+07	-4.79799532E-01	-6.79184951E-01
5.23805648E+07	-4.84060281E-01	-6.76060764E-01
5.23927728E+07	-4.88298025E-01	-6.72972259E-01
5.24049809E+07	-4.92519476E-01	-6.69810201E-01
5.24171889E+07	-4.96710075E-01	-6.66644559E-01
5.24293969E+07	-5.00881425E-01	-6.63436765E-01
5.24416049E+07	-5.05016139E-01	-6.60196169E-01
5.24538130E+07	-5.09157390E-01	-6.56962401E-01
5.24660210E+07	-5.13266089E-01	-6.53696841E-01
5.24782290E+07	-5.17340587E-01	-6.50362477E-01
5.24904370E+07	-5.21422670E-01	-6.47050982E-01
5.25026451E+07	-5.25470654E-01	-6.43701022E-01
5.25148531E+07	-5.29494850E-01	-6.40306957E-01
5.25270611E+07	-5.33471767E-01	-6.36903806E-01
5.25392691E+07	-5.37451915E-01	-6.33489455E-01
5.25514772E+07	-5.41407881E-01	-6.30039475E-01
5.25636852E+07	-5.45338223E-01	-6.26542866E-01
5.25758932E+07	-5.49243172E-01	-6.23051141E-01
5.25881012E+07	-5.53105762E-01	-6.19515314E-01
5.26003093E+07	-5.56989431E-01	-6.15990287E-01
5.26125173E+07	-5.60825082E-01	-6.12395617E-01
5.26247253E+07	-5.64629183E-01	-6.08825146E-01
5.26369333E+07	-5.68420384E-01	-6.05180648E-01
5.26491414E+07	-5.72188831E-01	-6.01537722E-01
5.26613494E+07	-5.75943963E-01	-5.97870095E-01
5.26735574E+07	-5.79648596E-01	-5.94188113E-01
5.26857654E+07	-5.83349192E-01	-5.90471756E-01
5.26979735E+07	-5.87021352E-01	-5.86735488E-01
5.27101815E+07	-5.90676983E-01	-5.82987344E-01
5.27223895E+07	-5.94305732E-01	-5.79213362E-01
5.27345975E+07	-5.97875770E-01	-5.75396551E-01
5.27468056E+07	-6.01449377E-01	-5.71568785E-01
5.27590136E+07	-6.04997444E-01	-5.67736393E-01
5.27712216E+07	-6.08521095E-01	-5.63851676E-01
5.27834296E+07	-6.12028695E-01	-5.59976945E-01
5.27956377E+07	-6.15488081E-01	-5.56059257E-01
5.28078457E+07	-6.18944580E-01	-5.52141152E-01
5.28200537E+07	-6.22371752E-01	-5.48176263E-01
5.28322617E+07	-6.25771143E-01	-5.44209291E-01
5.28444698E+07	-6.29121335E-01	-5.40221952E-01
5.28566778E+07	-6.32470464E-01	-5.36211614E-01
5.28688858E+07	-6.35784342E-01	-5.32158442E-01
5.28810938E+07	-6.39086030E-01	-5.28121575E-01
5.28933019E+07	-6.42361866E-01	-5.24034043E-01
5.29055099E+07	-6.45583434E-01	-5.19938978E-01
5.29177179E+07	-6.48790518E-01	-5.15825322E-01
5.29299259E+07	-6.51975980E-01	-5.11702283E-01
5.29421340E+07	-6.55155286E-01	-5.07531637E-01
5.29543420E+07	-6.58287010E-01	-5.03366748E-01
5.29665500E+07	-6.61382514E-01	-4.99180550E-01
5.29787580E+07	-6.64452692E-01	-4.94966104E-01
5.29909661E+07	-6.67498921E-01	-4.90743698E-01
5.30031741E+07	-6.70523000E-01	-4.86497631E-01
5.30153821E+07	-6.73515672E-01	-4.82225901E-01
5.30275901E+07	-6.76483780E-01	-4.77944251E-01
5.30397982E+07	-6.79432777E-01	-4.73650835E-01
5.30520062E+07	-6.82342444E-01	-4.69337066E-01
5.30642142E+07	-6.85233912E-01	-4.64984496E-01
5.30764222E+07	-6.88099794E-01	-4.60649942E-01
5.30886303E+07	-6.90927613E-01	-4.56258868E-01
5.31008383E+07	-6.93728464E-01	-4.51893769E-01
5.31130463E+07	-6.96487931E-01	-4.47492592E-01
5.31252543E+07	-6.99242265E-01	-4.43069162E-01
5.31374624E+07	-7.01941262E-01	-4.38634696E-01
5.31496704E+07	-7.04638295E-01	-4.34184077E-01
5.31618784E+07	-7.07292701E-01	-4.29708783E-01
5.31740864E+07	-7.09917812E-01	-4.25228182E-01
5.31862945E+07	-7.12523422E-01	-4.20729564E-01
5.31985025E+07	-7.15107052E-01	-4.16204715E-01
5.32107105E+07	-7.17658327E-01	-4.11677717E-01
5.32229185E+07	-7.20162312E-01	-4.07134435E-01
5.32351266E+07	-7.22647435E-01	-4.02567723E-01
5.32473346E+07	-7.25112157E-01	-3.97995080E-01
5.32595426E+07	-7.27546369E-01	-3.93417773E-01
5.32717506E+07	-7.29930649E-01	-3.88810574E-01
5.32839587E+07	-7.32297112E-01	-3.84165051E-01
5.32961667E+07	-7.34632377E-01	-3.79548883E-01
5.33083747E+07	-7.36950705E-01	-3.74905218E-01
5.33205827E+07	-7.39225916E-01	-3.70238057E-01
5.33327908E+07	-7.41481212E-01	-3.65561940E-01
5.33449988E+07	-7.43711603E-01	-3.60876324E-01
5.33572068E+07	-7.45908389E-01	-3.56185891E-01
5.33694148E+07	-7.48047983E-01	-3.51469228E-01
5.33816229E+07	-7.50188098E-01	-3.46743699E-01
5.33938309E+07	-7.52278326E-01	-3.42002591E-01
5.34060389E+07	-7.54352575E-01	-3.37259015E-01
5.34182469E+07	-7.56394768E-01	-3.32501841E-01
5.34304550E+07	-7.58409574E-01	-3.27715279E-01
5.34426630E+07	-7.60389796E-01	-3.22939677E-01
5.34548710E+07	-7.62335139E-01	-3.18139513E-01
5.34670790E+07	-7.64265753E-01	-3.13319388E-01
5.34792871E+07	-7.66159702E-01	-3.08497886E-01
5.34914951E+07	-7.68019571E-01	-3.03683615E-01
5.35037031E+07	-7.69832198E-01	-2.98830987E-01
5.35159111E+07	-7.71634628E-01	-2.93981801E-01
5.35281192E+07	-7.73402763E-01	-2.89128577E-01
5.35403272E+07	-7.75130359E-01	-2.84244106E-01
5.35525352E+07	-7.76845763E-01	-2.79371904E-01
5.35647432E+07	-7.78505259E-01	-2.74466436E-01
5.35769512E+07	-7.80164665E-01	-2.69569964E-01
5.35891593E+07	-7.81761666E-01	-2.64669093E-01
5.36013673E+07	-7.83350975E-01	-2.59724202E-01
5.36135753E+07	-7.84887013E-01	-2.54803280E-01
5.36257833E+07	-7.86417034E-01	-2.49865820E-01
5.36379914E+07	-7.87904918E-01	-2.44911204E-01
5.36501994E+07	-7.89366912E-01	-2.39972716E-01
5.36624074E+07	-7.90785339E-01	-2.35003009E-01
5.36746154E+07	-7.92188147E-01	-2.30033438E-01
5.36868235E+07	-7.93541333E-01	-2.25042025E-01
5.36990315E+07	-7.94868268E-01	-2.20061769E-01
5.37112395E+07	-7.96180447E-01	-2.15071957E-01
5.37234475E+07	-7.97437276E-01	-2.10076251E-01
5.37356556E+07	-7.98671953E-01	-2.05058031E-01
5.37478636E+07	-7.99871132E-01	-2.00047997E-01
5.37600716E+07	-8.01057169E-01	-1.95025855E-01
5.37722796E+07	-8.02183877E-01	-1.89996053E-01
5.37844877E+07	-8.03298799E-01	-1.84948927E-01
5.37966957E+07	-8.04379747E-01	-1.79921129E-01
5.38089037E+07	-8.05414702E-01	-1.74863247E-01
5.38211117E+07	-8.06444671E-01	-1.69817022E-01
5.38333198E+07	-8.07429822E-01	-1.64756017E-01
5.38455278E+07	-8.08378294E-01	-1.59696887E-01
5.38577358E+07	-8.09304229E-01	-1.54634998E-01
5.38699438E+07	-8.10174632E-01	-1.49545163E-01
5.38821519E+07	-8.11039991E-01	-1.44467916E-01
5.38943599E+07	-8.11844950E-01	-1.39389556E-01
5.39065679E+07	-8.12644438E-01	-1.34297455E-01
5.39187759E+07	-8.13407612E-01	-1.29212507E-01
5.39309840E+07	-8.14138971E-01	-1.24118717E-01
5.39431920E+07	-8.14841630E-01	-1.19010279E-01
5.39554000E+07	-8.15495489E-01	-1.13911713E-01
5.39676080E+07	-8.16137307E-01	-1.08813072E-01
5.39798161E+07	-8.16733816E-01	-1.03703474E-01
5.39920241E+07	-8.17288773E-01	-9.85996446E-02
5.40042321E+07	-8.17841152E-01	-9.34717469E-02
5.40164401E+07	-8.18352451E-01	-8.83704659E-02
5.40286482E+07	-8.18813804E-01	-8.32460185E-02
5.40408562E+07	-8.19244657E-01	-7.81114916E-02
5.40530642E+07	-8.19666994E-01	-7.29972662E-02
5.40652722E+07	-8.20038476E-01	-6.78723880E-02
5.40774803E+07	-8.20375708E-01	-6.27384515E-02
5.40896883E+07	-8.20693705E-01	-5.76095661E-02
5.41018963E+07	-8.20975887E-01	-5.24884065E-02
5.41141043E+07	-8.21219445E-01	-4.73591580E-02
5.41263124E+07	-8.21434636E-01	-4.22274355E-02
5.41385204E+07	-8.21614073E-01	-3.70884510E-02
5.41507284E+07	-8.21753141E-01	-3.19653438E-02
5.41629364E+07	-8.21870026E-01	-2.68320888E-02
5.41751445E+07	-8.21952322E-01	-2.17015899E-02
5.41873525E+07	-8.22023259E-01	-1.65711626E-02
5.41995605E+07	-8.22047125E-01	-1.14302745E-02
5.42117685E+07	-8.22041512E-01	-6.30864187E-03
5.42239766E+07	-8.21983030E-01	-1.17234507E-03
5.42361846E+07	-8.21928759E-01	 3.95486519E-03
5.42483926E+07	-8.21817015E-01	 9.07904131E-03
5.42606006E+07	-8.21671689E-01	 1.41986928E-02
5.42728087E+07	-8.21513676E-01	 1.93347488E-02
5.42850167E+07	-8.21310623E-01	 2.44440429E-02
5.42972247E+07	-8.21069739E-01	 2.95752873E-02
5.43094327E+07	-8.20803992E-01	 3.47013081E-02
5.43216408E+07	-8.20522254E-01	 3.97962979E-02
5.43338488E+07	-8.20176420E-01	 4.49175028E-02
5.43460568E+07	-8.19827032E-01	 5.00261960E-02
5.43582648E+07	-8.19436718E-01	 5.51380614E-02
5.43704729E+07	-8.19024486E-01	 6.02370131E-02
5.43826809E+07	-8.18557838E-01	 6.53347638E-02
5.43948889E+07	-8.18065861E-01	 7.04426855E-02
5.44070969E+07	-8.17564229E-01	 7.55276455E-02
5.44193050E+07	-8.17012243E-01	 8.06110859E-02
5.44315130E+07	-8.16433338E-01	 8.57002159E-02
5.44437210E+07	-8.15805188E-01	 9.07828590E-02
5.44559290E+07	-8.15172863E-01	 9.58588789E-02
5.44681371E+07	-8.14496127E-01	 1.00927676E-01
5.44803451E+07	-8.13800763E-01	 1.05995066E-01
5.44925531E+07	-8.13053749E-01	 1.11060860E-01
5.45047611E+07	-8.12291093E-01	 1.16120500E-01
5.45169692E+07	-8.11484444E-01	 1.21161969E-01
5.45291772E+07	-8.10639172E-01	 1.26217895E-01
5.45413852E+07	-8.09791474E-01	 1.31244942E-01
5.45535932E+07	-8.08889127E-01	 1.36272758E-01
5.45658013E+07	-8.07980705E-01	 1.41312264E-01
5.45780093E+07	-8.07004112E-01	 1.46316386E-01
5.45902173E+07	-8.06021743E-01	 1.51334799E-01
5.46024253E+07	-8.05006683E-01	 1.56350395E-01
5.46146334E+07	-8.03958022E-01	 1.61340381E-01
5.46268414E+07	-8.02879374E-01	 1.66344329E-01
5.46390494E+07	-8.01764599E-01	 1.71331047E-01
5.46512574E+07	-8.00609762E-01	 1.76305077E-01
5.46634655E+07	-7.99462093E-01	 1.81279184E-01
5.46756735E+07	-7.98245230E-01	 1.86224428E-01
5.46878815E+07	-7.97028203E-01	 1.91190255E-01
5.47000895E+07	-7.95752444E-01	 1.96133354E-01
5.47122976E+07	-7.94459478E-01	 2.01076575E-01
5.47245056E+07	-7.93127705E-01	 2.05997725E-01
5.47367136E+07	-7.91784978E-01	 2.10918487E-01
5.47489216E+07	-7.90386819E-01	 2.15834763E-01
5.47611296E+07	-7.88992869E-01	 2.20732526E-01
5.47733377E+07	-7.87533176E-01	 2.25625331E-01
5.47855457E+07	-7.86054092E-01	 2.30499443E-01
5.47977537E+07	-7.84541084E-01	 2.35382770E-01
5.48099617E+07	-7.83011986E-01	 2.40241113E-01
5.48221698E+07	-7.81432489E-01	 2.45090490E-01
5.48343778E+07	-7.79849670E-01	 2.49930935E-01
5.48465858E+07	-7.78216868E-01	 2.54767624E-01
5.48587938E+07	-7.76556554E-01	 2.59597091E-01
5.48710019E+07	-7.74881256E-01	 2.64392917E-01
5.48832099E+07	-7.73162347E-01	 2.69207197E-01
5.48954179E+07	-7.71412938E-01	 2.73982483E-01
5.49076259E+07	-7.69645617E-01	 2.78770985E-01
5.49198340E+07	-7.67837393E-01	 2.83532475E-01
5.49320420E+07	-7.66015559E-01	 2.88285060E-01
5.49442500E+07	-7.64131431E-01	 2.93018552E-01
5.49564580E+07	-7.62241757E-01	 2.97759997E-01
5.49686661E+07	-7.60336169E-01	 3.02473155E-01
5.49808741E+07	-7.58378726E-01	 3.07176254E-01
5.49930821E+07	-7.56405329E-01	 3.11862987E-01
5.50052901E+07	-7.54396398E-01	 3.16556118E-01
5.50174982E+07	-7.52359670E-01	 3.21226942E-01
5.50297062E+07	-7.50299926E-01	 3.25866392E-01
5.50419142E+07	-7.48215423E-01	 3.30516362E-01
5.50541222E+07	-7.46078486E-01	 3.35141606E-01
5.50663303E+07	-7.43940838E-01	 3.39764863E-01
5.50785383E+07	-7.41770385E-01	 3.44363468E-01
5.50907463E+07	-7.39560329E-01	 3.48946793E-01
5.51029543E+07	-7.37275286E-01	 3.53502022E-01
5.51151624E+07	-7.35051797E-01	 3.58079792E-01
5.51273704E+07	-7.32770906E-01	 3.62620879E-01
