! COPPER MOUNTAIN TECHNOLOGIES, PLANAR TR1300/1, 00071119, 20.2.2/1.0
! Date: 12/11/2023 3:02:03 PM
! Data: Format [Calibration Info]
! Freq          	S11: Re/Im F1                  
# HZ S RI R 50
5.00000000E+07	-3.09197714E-01	 4.44415527E-01
5.00122080E+07	-3.06381339E-01	 4.46328394E-01
5.00244160E+07	-3.03570890E-01	 4.48219732E-01
5.00366241E+07	-3.00722195E-01	 4.50076638E-01
5.00488321E+07	-2.97877178E-01	 4.51925791E-01
5.00610401E+07	-2.95019331E-01	 4.53743990E-01
5.00732481E+07	-2.92142562E-01	 4.55565763E-01
5.00854562E+07	-2.89268961E-01	 4.57358937E-01
5.00976642E+07	-2.86366845E-01	 4.59143480E-01
5.01098722E+07	-2.83471332E-01	 4.60904391E-01
5.01220802E+07	-2.80546616E-01	 4.62614302E-01
5.01342883E+07	-2.77626753E-01	 4.64363640E-01
5.01464963E+07	-2.74682611E-01	 4.66057952E-01
5.01587043E+07	-2.71752291E-01	 4.67751750E-01
5.01709123E+07	-2.68784772E-01	 4.69420034E-01
5.01831204E+07	-2.65821114E-01	 4.71065710E-01
5.01953284E+07	-2.62836826E-01	 4.72693392E-01
5.02075364E+07	-2.59842951E-01	 4.74281903E-01
5.02197444E+07	-2.56860997E-01	 4.75902732E-01
5.02319525E+07	-2.53844157E-01	 4.77475657E-01
5.02441605E+07	-2.50830775E-01	 4.79022015E-01
5.02563685E+07	-2.47802055E-01	 4.80561818E-01
5.02685765E+07	-2.44750286E-01	 4.82050794E-01
5.02807846E+07	-2.41718304E-01	 4.83583052E-01
5.02929926E+07	-2.38663416E-01	 4.85050419E-01
5.03052006E+07	-2.35596033E-01	 4.86511113E-01
5.03174086E+07	-2.32520157E-01	 4.87951714E-01
5.03296167E+07	-2.29437309E-01	 4.89370837E-01
5.03418247E+07	-2.26333915E-01	 4.90778155E-01
5.03540327E+07	-2.23236117E-01	 4.92163957E-01
5.03662407E+07	-2.20121857E-01	 4.93533605E-01
5.03784488E+07	-2.17014556E-01	 4.94872719E-01
5.03906568E+07	-2.13877340E-01	 4.96161660E-01
5.04028648E+07	-2.10752456E-01	 4.97495178E-01
5.04150728E+07	-2.07607644E-01	 4.98772490E-01
5.04272809E+07	-2.04450798E-01	 5.00045959E-01
5.04394889E+07	-2.01294932E-01	 5.01259505E-01
5.04516969E+07	-1.98135876E-01	 5.02505946E-01
5.04639049E+07	-1.94965331E-01	 5.03721747E-01
5.04761130E+07	-1.91771475E-01	 5.04903838E-01
5.04883210E+07	-1.88597798E-01	 5.06073322E-01
5.05005290E+07	-1.85388885E-01	 5.07223155E-01
5.05127370E+07	-1.82183941E-01	 5.08343400E-01
5.05249451E+07	-1.78988695E-01	 5.09456703E-01
5.05371531E+07	-1.75756472E-01	 5.10551788E-01
5.05493611E+07	-1.72533504E-01	 5.11603005E-01
5.05615691E+07	-1.69303623E-01	 5.12656279E-01
5.05737772E+07	-1.66060220E-01	 5.13673492E-01
5.05859852E+07	-1.62820217E-01	 5.14680797E-01
5.05981932E+07	-1.59569124E-01	 5.15661692E-01
5.06104012E+07	-1.56317214E-01	 5.16637264E-01
5.06226093E+07	-1.53048409E-01	 5.17577744E-01
5.06348173E+07	-1.49780078E-01	 5.18495334E-01
5.06470253E+07	-1.46519006E-01	 5.19396868E-01
5.06592333E+07	-1.43221613E-01	 5.20275660E-01
5.06714414E+07	-1.39938452E-01	 5.21140436E-01
5.06836494E+07	-1.36645533E-01	 5.21990760E-01
5.06958574E+07	-1.33355198E-01	 5.22809235E-01
5.07080654E+07	-1.30052535E-01	 5.23603096E-01
5.07202735E+07	-1.26742643E-01	 5.24375764E-01
5.07324815E+07	-1.23439220E-01	 5.25131355E-01
5.07446895E+07	-1.20130292E-01	 5.25879540E-01
5.07568975E+07	-1.16794093E-01	 5.26587114E-01
5.07691056E+07	-1.13474714E-01	 5.27286905E-01
5.07813136E+07	-1.10135221E-01	 5.27959187E-01
5.07935216E+07	-1.06801372E-01	 5.28633363E-01
5.08057296E+07	-1.03462679E-01	 5.29254294E-01
5.08179377E+07	-1.00115682E-01	 5.29867763E-01
5.08301457E+07	-9.67645391E-02	 5.30465016E-01
5.08423537E+07	-9.34204084E-02	 5.31039733E-01
5.08545617E+07	-9.00785239E-02	 5.31584314E-01
5.08667698E+07	-8.67285504E-02	 5.32115803E-01
5.08789778E+07	-8.33419817E-02	 5.32619111E-01
5.08911858E+07	-7.99849508E-02	 5.33100523E-01
5.09033938E+07	-7.66221406E-02	 5.33571959E-01
5.09156019E+07	-7.32571258E-02	 5.34011655E-01
5.09278099E+07	-6.98741416E-02	 5.34422423E-01
5.09400179E+07	-6.64981162E-02	 5.34832693E-01
5.09522259E+07	-6.31198779E-02	 5.35214226E-01
5.09644340E+07	-5.97450363E-02	 5.35579343E-01
5.09766420E+07	-5.63651109E-02	 5.35913178E-01
5.09888500E+07	-5.29743296E-02	 5.36227276E-01
5.10010580E+07	-4.95841546E-02	 5.36525825E-01
5.10132661E+07	-4.61955521E-02	 5.36800385E-01
5.10254741E+07	-4.27987725E-02	 5.37054981E-01
5.10376821E+07	-3.94101634E-02	 5.37293906E-01
5.10498901E+07	-3.60194900E-02	 5.37491579E-01
5.10620982E+07	-3.26205383E-02	 5.37696430E-01
5.10743062E+07	-2.92212905E-02	 5.37846949E-01
5.10865142E+07	-2.58277037E-02	 5.38013662E-01
5.10987222E+07	-2.24380543E-02	 5.38121606E-01
5.11109303E+07	-1.90310723E-02	 5.38238850E-01
5.11231383E+07	-1.56233811E-02	 5.38312697E-01
5.11353463E+07	-1.22167348E-02	 5.38377618E-01
5.11475543E+07	-8.81366903E-03	 5.38421272E-01
5.11597624E+07	-5.41756026E-03	 5.38434885E-01
5.11719704E+07	-2.00514469E-03	 5.38440697E-01
5.11841784E+07	 1.38926859E-03	 5.38400598E-01
5.11963864E+07	 4.80565386E-03	 5.38361848E-01
5.12085944E+07	 8.19544096E-03	 5.38299303E-01
5.12208025E+07	 1.15932462E-02	 5.38204549E-01
5.12330105E+07	 1.50014497E-02	 5.38098352E-01
5.12452185E+07	 1.84009353E-02	 5.37968244E-01
5.12574265E+07	 2.17971167E-02	 5.37823730E-01
5.12696346E+07	 2.51968108E-02	 5.37637394E-01
5.12818426E+07	 2.85987116E-02	 5.37436342E-01
5.12940506E+07	 3.19992855E-02	 5.37227059E-01
5.13062586E+07	 3.53895285E-02	 5.36981981E-01
5.13184667E+07	 3.87860473E-02	 5.36732558E-01
5.13306747E+07	 4.21859331E-02	 5.36444521E-01
5.13428827E+07	 4.55821113E-02	 5.36150080E-01
5.13550907E+07	 4.89592977E-02	 5.35818819E-01
5.13672988E+07	 5.23470548E-02	 5.35476376E-01
5.13795068E+07	 5.57491316E-02	 5.35117643E-01
5.13917148E+07	 5.91255398E-02	 5.34718616E-01
5.14039228E+07	 6.25028264E-02	 5.34308978E-01
5.14161309E+07	 6.58813576E-02	 5.33883956E-01
5.14283389E+07	 6.92673775E-02	 5.33446121E-01
5.14405469E+07	 7.26343369E-02	 5.32949886E-01
5.14527549E+07	 7.60068594E-02	 5.32468475E-01
5.14649630E+07	 7.93780078E-02	 5.31957231E-01
5.14771710E+07	 8.27514531E-02	 5.31399957E-01
5.14893790E+07	 8.61019679E-02	 5.30844228E-01
5.15015870E+07	 8.94572043E-02	 5.30273598E-01
5.15137951E+07	 9.28046170E-02	 5.29667871E-01
5.15260031E+07	 9.61647212E-02	 5.29061830E-01
5.15382111E+07	 9.95101668E-02	 5.28405423E-01
5.15504191E+07	 1.02852680E-01	 5.27749252E-01
5.15626272E+07	 1.06197962E-01	 5.27060210E-01
5.15748352E+07	 1.09524279E-01	 5.26364274E-01
5.15870432E+07	 1.12863427E-01	 5.25633718E-01
5.15992512E+07	 1.16191490E-01	 5.24880462E-01
5.16114593E+07	 1.19512536E-01	 5.24126549E-01
5.16236673E+07	 1.22822879E-01	 5.23325454E-01
5.16358753E+07	 1.26144096E-01	 5.22519287E-01
5.16480833E+07	 1.29455401E-01	 5.21688718E-01
5.16602914E+07	 1.32748499E-01	 5.20830633E-01
5.16724994E+07	 1.36039750E-01	 5.19959515E-01
5.16847074E+07	 1.39331803E-01	 5.19065420E-01
5.16969154E+07	 1.42618683E-01	 5.18156551E-01
5.17091235E+07	 1.45901631E-01	 5.17219491E-01
5.17213315E+07	 1.49181469E-01	 5.16262744E-01
5.17335395E+07	 1.52452328E-01	 5.15282800E-01
5.17457475E+07	 1.55698785E-01	 5.14275701E-01
5.17579556E+07	 1.58966048E-01	 5.13269259E-01
5.17701636E+07	 1.62209002E-01	 5.12223009E-01
5.17823716E+07	 1.65463086E-01	 5.11158960E-01
5.17945796E+07	 1.68704899E-01	 5.10090070E-01
5.18067877E+07	 1.71939947E-01	 5.08983765E-01
5.18189957E+07	 1.75159053E-01	 5.07867570E-01
5.18312037E+07	 1.78381819E-01	 5.06718804E-01
5.18434117E+07	 1.81588942E-01	 5.05556244E-01
5.18556198E+07	 1.84789254E-01	 5.04379181E-01
5.18678278E+07	 1.87986526E-01	 5.03170377E-01
5.18800358E+07	 1.91173201E-01	 5.01953818E-01
5.18922438E+07	 1.94355085E-01	 5.00715357E-01
5.19044519E+07	 1.97517874E-01	 4.99452539E-01
5.19166599E+07	 2.00677601E-01	 4.98177707E-01
5.19288679E+07	 2.03844066E-01	 4.96853481E-01
5.19410759E+07	 2.06989111E-01	 4.95549127E-01
5.19532840E+07	 2.10138119E-01	 4.94197162E-01
5.19654920E+07	 2.13264191E-01	 4.92821768E-01
5.19777000E+07	 2.16404709E-01	 4.91448791E-01
5.19899080E+07	 2.19516812E-01	 4.90047189E-01
5.20021161E+07	 2.22626008E-01	 4.88626120E-01
5.20143241E+07	 2.25717158E-01	 4.87191027E-01
5.20265321E+07	 2.28801924E-01	 4.85722831E-01
5.20387401E+07	 2.31892539E-01	 4.84236309E-01
5.20509482E+07	 2.34960497E-01	 4.82737189E-01
5.20631562E+07	 2.38022107E-01	 4.81207937E-01
5.20753642E+07	 2.41057943E-01	 4.79680276E-01
5.20875722E+07	 2.44116819E-01	 4.78125599E-01
5.20997803E+07	 2.47141086E-01	 4.76542365E-01
5.21119883E+07	 2.50164341E-01	 4.74947412E-01
5.21241963E+07	 2.53183565E-01	 4.73333216E-01
5.21364043E+07	 2.56188983E-01	 4.71683838E-01
5.21486124E+07	 2.59186852E-01	 4.70036518E-01
5.21608204E+07	 2.62159625E-01	 4.68365021E-01
5.21730284E+07	 2.65136016E-01	 4.66671450E-01
5.21852364E+07	 2.68086407E-01	 4.64958561E-01
5.21974445E+07	 2.71044524E-01	 4.63229799E-01
5.22096525E+07	 2.73982777E-01	 4.61486236E-01
5.22218605E+07	 2.76914073E-01	 4.59719840E-01
5.22340685E+07	 2.79827983E-01	 4.57910626E-01
5.22462766E+07	 2.82734833E-01	 4.56115846E-01
5.22584846E+07	 2.85628398E-01	 4.54293770E-01
5.22706926E+07	 2.88510468E-01	 4.52445922E-01
5.22829006E+07	 2.91379974E-01	 4.50573780E-01
5.22951087E+07	 2.94246626E-01	 4.48719307E-01
5.23073167E+07	 2.97104119E-01	 4.46802068E-01
5.23195247E+07	 2.99932580E-01	 4.44896592E-01
5.23317327E+07	 3.02754052E-01	 4.42966899E-01
5.23439408E+07	 3.05582899E-01	 4.41010845E-01
5.23561488E+07	 3.08370747E-01	 4.39040215E-01
5.23683568E+07	 3.11166899E-01	 4.37053576E-01
5.23805648E+07	 3.13929598E-01	 4.35047761E-01
5.23927728E+07	 3.16699209E-01	 4.33034082E-01
5.24049809E+07	 3.19449480E-01	 4.30988484E-01
5.24171889E+07	 3.22195519E-01	 4.28932275E-01
5.24293969E+07	 3.24917013E-01	 4.26854460E-01
5.24416049E+07	 3.27637828E-01	 4.24750515E-01
5.24538130E+07	 3.30327365E-01	 4.22652465E-01
5.24660210E+07	 3.33021873E-01	 4.20534713E-01
5.24782290E+07	 3.35684810E-01	 4.18376870E-01
5.24904370E+07	 3.38363004E-01	 4.16214825E-01
5.25026451E+07	 3.40992413E-01	 4.14043558E-01
5.25148531E+07	 3.43633933E-01	 4.11836365E-01
5.25270611E+07	 3.46246329E-01	 4.09623762E-01
5.25392691E+07	 3.48856418E-01	 4.07404618E-01
5.25514772E+07	 3.51439599E-01	 4.05159294E-01
5.25636852E+07	 3.54028268E-01	 4.02877045E-01
5.25758932E+07	 3.56590704E-01	 4.00611509E-01
5.25881012E+07	 3.59118444E-01	 3.98310045E-01
5.26003093E+07	 3.61659742E-01	 3.96009281E-01
5.26125173E+07	 3.64184818E-01	 3.93670154E-01
5.26247253E+07	 3.66687861E-01	 3.91337539E-01
5.26369333E+07	 3.69172888E-01	 3.88963802E-01
5.26491414E+07	 3.71656617E-01	 3.86586391E-01
5.26613494E+07	 3.74103546E-01	 3.84199925E-01
5.26735574E+07	 3.76554938E-01	 3.81788507E-01
5.26857654E+07	 3.78985466E-01	 3.79366365E-01
5.26979735E+07	 3.81404382E-01	 3.76923499E-01
5.27101815E+07	 3.83811982E-01	 3.74473306E-01
5.27223895E+07	 3.86189743E-01	 3.72002649E-01
5.27345975E+07	 3.88539832E-01	 3.69518610E-01
5.27468056E+07	 3.90903517E-01	 3.67014411E-01
5.27590136E+07	 3.93228892E-01	 3.64503574E-01
5.27712216E+07	 3.95560714E-01	 3.61964585E-01
5.27834296E+07	 3.97864140E-01	 3.59424058E-01
5.27956377E+07	 4.00147938E-01	 3.56865449E-01
5.28078457E+07	 4.02425045E-01	 3.54288914E-01
5.28200537E+07	 4.04683174E-01	 3.51693468E-01
5.28322617E+07	 4.06929389E-01	 3.49097155E-01
5.28444698E+07	 4.09140430E-01	 3.46478820E-01
5.28566778E+07	 4.11356185E-01	 3.43841242E-01
5.28688858E+07	 4.13541219E-01	 3.41197629E-01
5.28810938E+07	 4.15716379E-01	 3.38535145E-01
5.28933019E+07	 4.17878855E-01	 3.35857543E-01
5.29055099E+07	 4.20017994E-01	 3.33167018E-01
5.29177179E+07	 4.22133906E-01	 3.30462869E-01
5.29299259E+07	 4.24241545E-01	 3.27755010E-01
5.29421340E+07	 4.26333107E-01	 3.25017485E-01
5.29543420E+07	 4.28402398E-01	 3.22276856E-01
5.29665500E+07	 4.30462882E-01	 3.19515384E-01
5.29787580E+07	 4.32493305E-01	 3.16745731E-01
5.29909661E+07	 4.34515868E-01	 3.13950989E-01
5.30031741E+07	 4.36510424E-01	 3.11162975E-01
5.30153821E+07	 4.38499207E-01	 3.08357184E-01
5.30275901E+07	 4.40455279E-01	 3.05528806E-01
5.30397982E+07	 4.42413384E-01	 3.02702416E-01
5.30520062E+07	 4.44341684E-01	 2.99848794E-01
5.30642142E+07	 4.46259147E-01	 2.96980578E-01
5.30764222E+07	 4.48150321E-01	 2.94122572E-01
5.30886303E+07	 4.50020376E-01	 2.91223620E-01
5.31008383E+07	 4.51892300E-01	 2.88335890E-01
5.31130463E+07	 4.53715972E-01	 2.85429786E-01
5.31252543E+07	 4.55544377E-01	 2.82510334E-01
5.31374624E+07	 4.57337237E-01	 2.79575259E-01
5.31496704E+07	 4.59115230E-01	 2.76629187E-01
5.31618784E+07	 4.60879956E-01	 2.73670955E-01
5.31740864E+07	 4.62631135E-01	 2.70708965E-01
5.31862945E+07	 4.64357850E-01	 2.67730214E-01
5.31985025E+07	 4.66076273E-01	 2.64732179E-01
5.32107105E+07	 4.67761031E-01	 2.61732006E-01
5.32229185E+07	 4.69424644E-01	 2.58722971E-01
5.32351266E+07	 4.71070957E-01	 2.55696668E-01
5.32473346E+07	 4.72707369E-01	 2.52666947E-01
5.32595426E+07	 4.74325748E-01	 2.49624003E-01
5.32717506E+07	 4.75915710E-01	 2.46574595E-01
5.32839587E+07	 4.77491974E-01	 2.43499920E-01
5.32961667E+07	 4.79039152E-01	 2.40422025E-01
5.33083747E+07	 4.80582801E-01	 2.37346602E-01
5.33205827E+07	 4.82092721E-01	 2.34249737E-01
5.33327908E+07	 4.83585669E-01	 2.31143414E-01
5.33449988E+07	 4.85066488E-01	 2.28030837E-01
5.33572068E+07	 4.86529241E-01	 2.24907987E-01
5.33694148E+07	 4.87953466E-01	 2.21773473E-01
5.33816229E+07	 4.89373707E-01	 2.18626175E-01
5.33938309E+07	 4.90767738E-01	 2.15480242E-01
5.34060389E+07	 4.92142152E-01	 2.12318202E-01
5.34182469E+07	 4.93504902E-01	 2.09148935E-01
5.34304550E+07	 4.94836598E-01	 2.05971100E-01
5.34426630E+07	 4.96161308E-01	 2.02783886E-01
5.34548710E+07	 4.97442583E-01	 1.99586991E-01
5.34670790E+07	 4.98724952E-01	 1.96373294E-01
5.34792871E+07	 4.99981429E-01	 1.93162448E-01
5.34914951E+07	 5.01210984E-01	 1.89945992E-01
5.35037031E+07	 5.02426411E-01	 1.86712185E-01
5.35159111E+07	 5.03611867E-01	 1.83479715E-01
5.35281192E+07	 5.04790847E-01	 1.80235282E-01
5.35403272E+07	 5.05941174E-01	 1.76978784E-01
5.35525352E+07	 5.07075312E-01	 1.73723090E-01
5.35647432E+07	 5.08176226E-01	 1.70445804E-01
5.35769512E+07	 5.09270541E-01	 1.67175087E-01
5.35891593E+07	 5.10334480E-01	 1.63895547E-01
5.36013673E+07	 5.11375366E-01	 1.60601817E-01
5.36135753E+07	 5.12397906E-01	 1.57304638E-01
5.36257833E+07	 5.13411128E-01	 1.54005581E-01
5.36379914E+07	 5.14392908E-01	 1.50689378E-01
5.36501994E+07	 5.15359792E-01	 1.47379328E-01
5.36624074E+07	 5.16304717E-01	 1.44052940E-01
5.36746154E+07	 5.17223696E-01	 1.40731410E-01
5.36868235E+07	 5.18121299E-01	 1.37394588E-01
5.36990315E+07	 5.18998055E-01	 1.34057167E-01
5.37112395E+07	 5.19852441E-01	 1.30713091E-01
5.37234475E+07	 5.20688250E-01	 1.27356710E-01
5.37356556E+07	 5.21500291E-01	 1.23998820E-01
5.37478636E+07	 5.22284933E-01	 1.20639289E-01
5.37600716E+07	 5.23060089E-01	 1.17272207E-01
5.37722796E+07	 5.23816479E-01	 1.13903452E-01
5.37844877E+07	 5.24538224E-01	 1.10515720E-01
5.37966957E+07	 5.25243852E-01	 1.07133263E-01
5.38089037E+07	 5.25919850E-01	 1.03751681E-01
5.38211117E+07	 5.26590037E-01	 1.00355213E-01
5.38333198E+07	 5.27234133E-01	 9.69601933E-02
5.38455278E+07	 5.27849395E-01	 9.35535518E-02
5.38577358E+07	 5.28449133E-01	 9.01571439E-02
5.38699438E+07	 5.29017299E-01	 8.67490600E-02
5.38821519E+07	 5.29578678E-01	 8.33389307E-02
5.38943599E+07	 5.30099639E-01	 7.99178568E-02
5.39065679E+07	 5.30622580E-01	 7.64961707E-02
5.39187759E+07	 5.31103875E-01	 7.30724628E-02
5.39309840E+07	 5.31566370E-01	 6.96551226E-02
5.39431920E+07	 5.32020072E-01	 6.62212236E-02
5.39554000E+07	 5.32430139E-01	 6.27843104E-02
5.39676080E+07	 5.32840552E-01	 5.93563895E-02
5.39798161E+07	 5.33208106E-01	 5.59124590E-02
5.39920241E+07	 5.33559197E-01	 5.24782995E-02
5.40042321E+07	 5.33900482E-01	 4.90361305E-02
5.40164401E+07	 5.34221104E-01	 4.55858088E-02
5.40286482E+07	 5.34504350E-01	 4.21397766E-02
5.40408562E+07	 5.34760296E-01	 3.86880462E-02
5.40530642E+07	 5.35001056E-01	 3.52390727E-02
5.40652722E+07	 5.35245471E-01	 3.17859080E-02
5.40774803E+07	 5.35444222E-01	 2.83328729E-02
5.40896883E+07	 5.35626406E-01	 2.48703985E-02
5.41018963E+07	 5.35781963E-01	 2.14198737E-02
5.41141043E+07	 5.35911161E-01	 1.79582634E-02
5.41263124E+07	 5.36019202E-01	 1.44990212E-02
5.41385204E+07	 5.36111574E-01	 1.10379642E-02
5.41507284E+07	 5.36177671E-01	 7.57567998E-03
5.41629364E+07	 5.36223751E-01	 4.11523674E-03
5.41751445E+07	 5.36246092E-01	 6.50223971E-04
5.41873525E+07	 5.36252006E-01	-2.80630895E-03
5.41995605E+07	 5.36223380E-01	-6.26900070E-03
5.42117685E+07	 5.36183434E-01	-9.72668121E-03
5.42239766E+07	 5.36115221E-01	-1.31981368E-02
5.42361846E+07	 5.36032556E-01	-1.66611178E-02
5.42483926E+07	 5.35915997E-01	-2.01211176E-02
5.42606006E+07	 5.35781050E-01	-2.35768578E-02
5.42728087E+07	 5.35634822E-01	-2.70448033E-02
5.42850167E+07	 5.35454411E-01	-3.04955673E-02
5.42972247E+07	 5.35247915E-01	-3.39576572E-02
5.43094327E+07	 5.35025606E-01	-3.74194720E-02
5.43216408E+07	 5.34788430E-01	-4.08661342E-02
5.43338488E+07	 5.34517460E-01	-4.43253021E-02
5.43460568E+07	 5.34239616E-01	-4.77851650E-02
5.43582648E+07	 5.33922498E-01	-5.12317103E-02
5.43704729E+07	 5.33588812E-01	-5.46807469E-02
5.43826809E+07	 5.33237616E-01	-5.81262533E-02
5.43948889E+07	 5.32855468E-01	-6.15712074E-02
5.44070969E+07	 5.32463846E-01	-6.50092274E-02
5.44193050E+07	 5.32045315E-01	-6.84514057E-02
5.44315130E+07	 5.31595891E-01	-7.18909605E-02
5.44437210E+07	 5.31126721E-01	-7.53226217E-02
5.44559290E+07	 5.30638182E-01	-7.87545402E-02
5.44681371E+07	 5.30137748E-01	-8.21853941E-02
5.44803451E+07	 5.29605088E-01	-8.56054871E-02
5.44925531E+07	 5.29039210E-01	-8.90312495E-02
5.45047611E+07	 5.28464936E-01	-9.24473754E-02
5.45169692E+07	 5.27874723E-01	-9.58706691E-02
5.45291772E+07	 5.27249210E-01	-9.92743409E-02
5.45413852E+07	 5.26608179E-01	-1.02685991E-01
5.45535932E+07	 5.25936950E-01	-1.06078635E-01
5.45658013E+07	 5.25262039E-01	-1.09488636E-01
5.45780093E+07	 5.24549256E-01	-1.12878772E-01
5.45902173E+07	 5.23818330E-01	-1.16268640E-01
5.46024253E+07	 5.23062430E-01	-1.19654563E-01
5.46146334E+07	 5.22295231E-01	-1.23036466E-01
5.46268414E+07	 5.21505149E-01	-1.26409644E-01
5.46390494E+07	 5.20685774E-01	-1.29785620E-01
5.46512574E+07	 5.19844427E-01	-1.33147028E-01
5.46634655E+07	 5.18983902E-01	-1.36504294E-01
5.46756735E+07	 5.18095083E-01	-1.39858884E-01
5.46878815E+07	 5.17198490E-01	-1.43210181E-01
5.47000895E+07	 5.16276368E-01	-1.46554454E-01
5.47122976E+07	 5.15321537E-01	-1.49889901E-01
5.47245056E+07	 5.14353239E-01	-1.53222204E-01
5.47367136E+07	 5.13375099E-01	-1.56549408E-01
5.47489216E+07	 5.12355811E-01	-1.59866053E-01
5.47611296E+07	 5.11330407E-01	-1.63182285E-01
5.47733377E+07	 5.10269792E-01	-1.66483892E-01
5.47855457E+07	 5.09188766E-01	-1.69780946E-01
5.47977537E+07	 5.08097955E-01	-1.73070949E-01
5.48099617E+07	 5.06984468E-01	-1.76358557E-01
5.48221698E+07	 5.05831975E-01	-1.79629421E-01
5.48343778E+07	 5.04679311E-01	-1.82908878E-01
5.48465858E+07	 5.03499618E-01	-1.86170615E-01
5.48587938E+07	 5.02293513E-01	-1.89421492E-01
5.48710019E+07	 5.01071094E-01	-1.92672394E-01
5.48832099E+07	 4.99827422E-01	-1.95912666E-01
5.48954179E+07	 4.98553923E-01	-1.99140444E-01
5.49076259E+07	 4.97269726E-01	-2.02364401E-01
5.49198340E+07	 4.95963986E-01	-2.05580455E-01
5.49320420E+07	 4.94640293E-01	-2.08787668E-01
5.49442500E+07	 4.93278479E-01	-2.11968497E-01
5.49564580E+07	 4.91914214E-01	-2.15169277E-01
5.49686661E+07	 4.90533516E-01	-2.18349027E-01
5.49808741E+07	 4.89117781E-01	-2.21525241E-01
5.49930821E+07	 4.87694912E-01	-2.24689596E-01
5.50052901E+07	 4.86238535E-01	-2.27839953E-01
5.50174982E+07	 4.84764478E-01	-2.30984690E-01
5.50297062E+07	 4.83270871E-01	-2.34115210E-01
5.50419142E+07	 4.81766191E-01	-2.37242812E-01
5.50541222E+07	 4.80225903E-01	-2.40353022E-01
5.50663303E+07	 4.78682029E-01	-2.43457806E-01
5.50785383E+07	 4.77119650E-01	-2.46556911E-01
5.50907463E+07	 4.75516825E-01	-2.49639398E-01
5.51029543E+07	 4.73875231E-01	-2.52701139E-01
5.51151624E+07	 4.72269976E-01	-2.55785466E-01
5.51273704E+07	 4.70623513E-01	-2.58838655E-01
