! COPPER MOUNTAIN TECHNOLOGIES, PLANAR TR1300/1, 00071119, 20.2.2/1.0
! Date: 12/11/2023 3:06:43 PM
! Data: Format [Calibration Info]
! Freq          	S11: Re/Im F1                  
# HZ S RI R 50
5.00000000E+07	 3.21845447E-01	-4.58970435E-01
5.00122080E+07	 3.18899756E-01	-4.61058332E-01
5.00244160E+07	 3.15943020E-01	-4.63107097E-01
5.00366241E+07	 3.12960183E-01	-4.65129682E-01
5.00488321E+07	 3.09965175E-01	-4.67143687E-01
5.00610401E+07	 3.06957433E-01	-4.69111265E-01
5.00732481E+07	 3.03943575E-01	-4.71087589E-01
5.00854562E+07	 3.00923854E-01	-4.73043623E-01
5.00976642E+07	 2.97880389E-01	-4.74973189E-01
5.01098722E+07	 2.94829130E-01	-4.76894939E-01
5.01220802E+07	 2.91738294E-01	-4.78751651E-01
5.01342883E+07	 2.88682702E-01	-4.80655232E-01
5.01464963E+07	 2.85592344E-01	-4.82503962E-01
5.01587043E+07	 2.82497258E-01	-4.84337446E-01
5.01709123E+07	 2.79374691E-01	-4.86150124E-01
5.01831204E+07	 2.76257494E-01	-4.87936189E-01
5.01953284E+07	 2.73123959E-01	-4.89710843E-01
5.02075364E+07	 2.69954314E-01	-4.91426602E-01
5.02197444E+07	 2.66817054E-01	-4.93191467E-01
5.02319525E+07	 2.63639295E-01	-4.94904198E-01
5.02441605E+07	 2.60473089E-01	-4.96584400E-01
5.02563685E+07	 2.57284172E-01	-4.98251888E-01
5.02685765E+07	 2.54068398E-01	-4.99869800E-01
5.02807846E+07	 2.50871157E-01	-5.01539143E-01
5.02929926E+07	 2.47642726E-01	-5.03137978E-01
5.03052006E+07	 2.44415567E-01	-5.04718201E-01
5.03174086E+07	 2.41176663E-01	-5.06286966E-01
5.03296167E+07	 2.37925920E-01	-5.07833232E-01
5.03418247E+07	 2.34661894E-01	-5.09360860E-01
5.03540327E+07	 2.31392600E-01	-5.10855961E-01
5.03662407E+07	 2.28113735E-01	-5.12347503E-01
5.03784488E+07	 2.24830226E-01	-5.13797495E-01
5.03906568E+07	 2.21515255E-01	-5.15203927E-01
5.04028648E+07	 2.18216807E-01	-5.16649871E-01
5.04150728E+07	 2.14907179E-01	-5.18042651E-01
5.04272809E+07	 2.11575997E-01	-5.19410143E-01
5.04394889E+07	 2.08227487E-01	-5.20732535E-01
5.04516969E+07	 2.04894940E-01	-5.22098185E-01
5.04639049E+07	 2.01554944E-01	-5.23410200E-01
5.04761130E+07	 1.98187030E-01	-5.24689540E-01
5.04883210E+07	 1.94835134E-01	-5.25963572E-01
5.05005290E+07	 1.91451512E-01	-5.27217874E-01
5.05127370E+07	 1.88071626E-01	-5.28425387E-01
5.05249451E+07	 1.84693173E-01	-5.29630708E-01
5.05371531E+07	 1.81288392E-01	-5.30812022E-01
5.05493611E+07	 1.77893913E-01	-5.31964244E-01
5.05615691E+07	 1.74472997E-01	-5.33103729E-01
5.05737772E+07	 1.71054066E-01	-5.34214841E-01
5.05859852E+07	 1.67629234E-01	-5.35304069E-01
5.05981932E+07	 1.64202851E-01	-5.36365203E-01
5.06104012E+07	 1.60755611E-01	-5.37421840E-01
5.06226093E+07	 1.57312691E-01	-5.38440655E-01
5.06348173E+07	 1.53860917E-01	-5.39435355E-01
5.06470253E+07	 1.50422739E-01	-5.40415476E-01
5.06592333E+07	 1.46946383E-01	-5.41372556E-01
5.06714414E+07	 1.43475611E-01	-5.42312914E-01
5.06836494E+07	 1.40000733E-01	-5.43219851E-01
5.06958574E+07	 1.36527775E-01	-5.44118091E-01
5.07080654E+07	 1.33047225E-01	-5.44979681E-01
5.07202735E+07	 1.29546589E-01	-5.45820016E-01
5.07324815E+07	 1.26056008E-01	-5.46636531E-01
5.07446895E+07	 1.22553222E-01	-5.47447569E-01
5.07568975E+07	 1.19047204E-01	-5.48216306E-01
5.07691056E+07	 1.15536322E-01	-5.48979242E-01
5.07813136E+07	 1.12018478E-01	-5.49697354E-01
5.07935216E+07	 1.08507249E-01	-5.50412451E-01
5.08057296E+07	 1.04986614E-01	-5.51087045E-01
5.08179377E+07	 1.01463252E-01	-5.51753295E-01
5.08301457E+07	 9.79189723E-02	-5.52411512E-01
5.08423537E+07	 9.43827586E-02	-5.53036979E-01
5.08545617E+07	 9.08631272E-02	-5.53623475E-01
5.08667698E+07	 8.73200892E-02	-5.54195542E-01
5.08789778E+07	 8.37567296E-02	-5.54737356E-01
5.08911858E+07	 8.02188416E-02	-5.55262025E-01
5.09033938E+07	 7.66736967E-02	-5.55781025E-01
5.09156019E+07	 7.31088969E-02	-5.56257542E-01
5.09278099E+07	 6.95530970E-02	-5.56705387E-01
5.09400179E+07	 6.59978857E-02	-5.57137063E-01
5.09522259E+07	 6.24276586E-02	-5.57548159E-01
5.09644340E+07	 5.88592742E-02	-5.57947533E-01
5.09766420E+07	 5.53083024E-02	-5.58304922E-01
5.09888500E+07	 5.17342831E-02	-5.58653528E-01
5.10010580E+07	 4.81701863E-02	-5.58960945E-01
5.10132661E+07	 4.45937274E-02	-5.59270810E-01
5.10254741E+07	 4.10175120E-02	-5.59547286E-01
5.10376821E+07	 3.74544724E-02	-5.59804859E-01
5.10498901E+07	 3.38787216E-02	-5.60022759E-01
5.10620982E+07	 3.02993985E-02	-5.60238901E-01
5.10743062E+07	 2.67174087E-02	-5.60416500E-01
5.10865142E+07	 2.31589272E-02	-5.60576508E-01
5.10987222E+07	 1.95772112E-02	-5.60703331E-01
5.11109303E+07	 1.59912025E-02	-5.60824232E-01
5.11231383E+07	 1.24124221E-02	-5.60921073E-01
5.11353463E+07	 8.83564520E-03	-5.60980311E-01
5.11475543E+07	 5.25131697E-03	-5.61050962E-01
5.11597624E+07	 1.67421706E-03	-5.61044428E-01
5.11719704E+07	-1.90786552E-03	-5.61053400E-01
5.11841784E+07	-5.48044378E-03	-5.61025246E-01
5.11963864E+07	-9.07004591E-03	-5.60975837E-01
5.12085944E+07	-1.26407163E-02	-5.60918897E-01
5.12208025E+07	-1.62134518E-02	-5.60816844E-01
5.12330105E+07	-1.97848288E-02	-5.60701014E-01
5.12452185E+07	-2.33567053E-02	-5.60562154E-01
5.12574265E+07	-2.69289802E-02	-5.60418793E-01
5.12696346E+07	-3.05027534E-02	-5.60216214E-01
5.12818426E+07	-3.40778189E-02	-5.59999772E-01
5.12940506E+07	-3.76377493E-02	-5.59771301E-01
5.13062586E+07	-4.12044693E-02	-5.59521258E-01
5.13184667E+07	-4.47744755E-02	-5.59259469E-01
5.13306747E+07	-4.83355604E-02	-5.58952253E-01
5.13428827E+07	-5.19009559E-02	-5.58640047E-01
5.13550907E+07	-5.54437867E-02	-5.58282987E-01
5.13672988E+07	-5.89952548E-02	-5.57922606E-01
5.13795068E+07	-6.25483348E-02	-5.57535917E-01
5.13917148E+07	-6.60989184E-02	-5.57113772E-01
5.14039228E+07	-6.96348083E-02	-5.56678883E-01
5.14161309E+07	-7.31768703E-02	-5.56223450E-01
5.14283389E+07	-7.67171958E-02	-5.55762150E-01
5.14405469E+07	-8.02476727E-02	-5.55228709E-01
5.14527549E+07	-8.37841928E-02	-5.54715323E-01
5.14649630E+07	-8.73195300E-02	-5.54176675E-01
5.14771710E+07	-9.08509129E-02	-5.53588619E-01
5.14893790E+07	-9.43517230E-02	-5.52997247E-01
5.15015870E+07	-9.78661557E-02	-5.52394100E-01
5.15137951E+07	-1.01372921E-01	-5.51744766E-01
5.15260031E+07	-1.04893466E-01	-5.51098729E-01
5.15382111E+07	-1.08381387E-01	-5.50408379E-01
5.15504191E+07	-1.11877139E-01	-5.49705253E-01
5.15626272E+07	-1.15376312E-01	-5.48978445E-01
5.15748352E+07	-1.18859144E-01	-5.48227407E-01
5.15870432E+07	-1.22345823E-01	-5.47454684E-01
5.15992512E+07	-1.25822697E-01	-5.46663237E-01
5.16114593E+07	-1.29285833E-01	-5.45855721E-01
5.16236673E+07	-1.32750872E-01	-5.45005276E-01
5.16358753E+07	-1.36212776E-01	-5.44150042E-01
5.16480833E+07	-1.39672135E-01	-5.43262804E-01
5.16602914E+07	-1.43106796E-01	-5.42373825E-01
5.16724994E+07	-1.46550236E-01	-5.41435520E-01
5.16847074E+07	-1.49991210E-01	-5.40497980E-01
5.16969154E+07	-1.53408024E-01	-5.39529341E-01
5.17091235E+07	-1.56830316E-01	-5.38536629E-01
5.17213315E+07	-1.60245698E-01	-5.37523792E-01
5.17335395E+07	-1.63662920E-01	-5.36489691E-01
5.17457475E+07	-1.67048364E-01	-5.35423541E-01
5.17579556E+07	-1.70440221E-01	-5.34355597E-01
5.17701636E+07	-1.73826834E-01	-5.33250276E-01
5.17823716E+07	-1.77210647E-01	-5.32127142E-01
5.17945796E+07	-1.80578765E-01	-5.30990023E-01
5.18067877E+07	-1.83941574E-01	-5.29829937E-01
5.18189957E+07	-1.87296224E-01	-5.28644558E-01
5.18312037E+07	-1.90647189E-01	-5.27431554E-01
5.18434117E+07	-1.93983448E-01	-5.26204118E-01
5.18556198E+07	-1.97303490E-01	-5.24959896E-01
5.18678278E+07	-2.00632506E-01	-5.23689801E-01
5.18800358E+07	-2.03948174E-01	-5.22391865E-01
5.18922438E+07	-2.07246888E-01	-5.21090545E-01
5.19044519E+07	-2.10547028E-01	-5.19756268E-01
5.19166599E+07	-2.13833639E-01	-5.18407620E-01
5.19288679E+07	-2.17103684E-01	-5.17021275E-01
5.19410759E+07	-2.20379204E-01	-5.15637506E-01
5.19532840E+07	-2.23640001E-01	-5.14220044E-01
5.19654920E+07	-2.26875395E-01	-5.12778368E-01
5.19777000E+07	-2.30124546E-01	-5.11324029E-01
5.19899080E+07	-2.33356994E-01	-5.09847993E-01
5.20021161E+07	-2.36577945E-01	-5.08341713E-01
5.20143241E+07	-2.39788158E-01	-5.06837880E-01
5.20265321E+07	-2.42981554E-01	-5.05287811E-01
5.20387401E+07	-2.46187321E-01	-5.03739960E-01
5.20509482E+07	-2.49355233E-01	-5.02145505E-01
5.20631562E+07	-2.52520344E-01	-5.00559598E-01
5.20753642E+07	-2.55674815E-01	-4.98941577E-01
5.20875722E+07	-2.58837147E-01	-4.97299656E-01
5.20997803E+07	-2.61967583E-01	-4.95637655E-01
5.21119883E+07	-2.65096404E-01	-4.93961806E-01
5.21241963E+07	-2.68215009E-01	-4.92263360E-01
5.21364043E+07	-2.71313401E-01	-4.90541015E-01
5.21486124E+07	-2.74414520E-01	-4.88805794E-01
5.21608204E+07	-2.77487999E-01	-4.87055706E-01
5.21730284E+07	-2.80565627E-01	-4.85285528E-01
5.21852364E+07	-2.83612630E-01	-4.83478765E-01
5.21974445E+07	-2.86668613E-01	-4.81664565E-01
5.22096525E+07	-2.89691050E-01	-4.79847119E-01
5.22218605E+07	-2.92713670E-01	-4.77987801E-01
5.22340685E+07	-2.95713748E-01	-4.76098980E-01
5.22462766E+07	-2.98718008E-01	-4.74217102E-01
5.22584846E+07	-3.01698047E-01	-4.72315105E-01
5.22706926E+07	-3.04663750E-01	-4.70384123E-01
5.22829006E+07	-3.07630849E-01	-4.68421698E-01
5.22951087E+07	-3.10575521E-01	-4.66480699E-01
5.23073167E+07	-3.13514157E-01	-4.64489379E-01
5.23195247E+07	-3.16417465E-01	-4.62487798E-01
5.23317327E+07	-3.19331198E-01	-4.60462816E-01
5.23439408E+07	-3.22233827E-01	-4.58421829E-01
5.23561488E+07	-3.25104854E-01	-4.56375587E-01
5.23683568E+07	-3.27967539E-01	-4.54309263E-01
5.23805648E+07	-3.30829111E-01	-4.52195371E-01
5.23927728E+07	-3.33665834E-01	-4.50108441E-01
5.24049809E+07	-3.36495688E-01	-4.47976925E-01
5.24171889E+07	-3.39307222E-01	-4.45830925E-01
5.24293969E+07	-3.42101362E-01	-4.43662926E-01
5.24416049E+07	-3.44880705E-01	-4.41473727E-01
5.24538130E+07	-3.47654270E-01	-4.39289606E-01
5.24660210E+07	-3.50414185E-01	-4.37082593E-01
5.24782290E+07	-3.53139337E-01	-4.34824668E-01
5.24904370E+07	-3.55879514E-01	-4.32591528E-01
5.25026451E+07	-3.58591404E-01	-4.30333697E-01
5.25148531E+07	-3.61288941E-01	-4.28041204E-01
5.25270611E+07	-3.63963322E-01	-4.25738851E-01
5.25392691E+07	-3.66627782E-01	-4.23430926E-01
5.25514772E+07	-3.69281228E-01	-4.21095939E-01
5.25636852E+07	-3.71917021E-01	-4.18740591E-01
5.25758932E+07	-3.74543269E-01	-4.16377114E-01
5.25881012E+07	-3.77130222E-01	-4.13988002E-01
5.26003093E+07	-3.79733668E-01	-4.11609537E-01
5.26125173E+07	-3.82307969E-01	-4.09179963E-01
5.26247253E+07	-3.84859351E-01	-4.06762317E-01
5.26369333E+07	-3.87399030E-01	-4.04306060E-01
5.26491414E+07	-3.89931777E-01	-4.01843698E-01
5.26613494E+07	-3.92444966E-01	-3.99365186E-01
5.26735574E+07	-3.94935747E-01	-3.96872607E-01
5.26857654E+07	-3.97412648E-01	-3.94365977E-01
5.26979735E+07	-3.99883228E-01	-3.91841966E-01
5.27101815E+07	-4.02329123E-01	-3.89305183E-01
5.27223895E+07	-4.04763305E-01	-3.86756304E-01
5.27345975E+07	-4.07160005E-01	-3.84180170E-01
5.27468056E+07	-4.09561340E-01	-3.81591206E-01
5.27590136E+07	-4.11932864E-01	-3.79003132E-01
5.27712216E+07	-4.14298750E-01	-3.76377182E-01
5.27834296E+07	-4.16653858E-01	-3.73759731E-01
5.27956377E+07	-4.18969440E-01	-3.71110817E-01
5.28078457E+07	-4.21290567E-01	-3.68461199E-01
5.28200537E+07	-4.23585783E-01	-3.65783895E-01
5.28322617E+07	-4.25872951E-01	-3.63099013E-01
5.28444698E+07	-4.28117868E-01	-3.60406435E-01
5.28566778E+07	-4.30359746E-01	-3.57695383E-01
5.28688858E+07	-4.32586708E-01	-3.54959899E-01
5.28810938E+07	-4.34796933E-01	-3.52236447E-01
5.28933019E+07	-4.36993896E-01	-3.49463681E-01
5.29055099E+07	-4.39156502E-01	-3.46696548E-01
5.29177179E+07	-4.41311443E-01	-3.43920645E-01
5.29299259E+07	-4.43440831E-01	-3.41129426E-01
5.29421340E+07	-4.45573416E-01	-3.38313749E-01
5.29543420E+07	-4.47666622E-01	-3.35498964E-01
5.29665500E+07	-4.49748131E-01	-3.32668923E-01
5.29787580E+07	-4.51804716E-01	-3.29821685E-01
5.29909661E+07	-4.53849239E-01	-3.26967763E-01
5.30031741E+07	-4.55878474E-01	-3.24097552E-01
5.30153821E+07	-4.57883561E-01	-3.21211308E-01
5.30275901E+07	-4.59874208E-01	-3.18312872E-01
5.30397982E+07	-4.61850957E-01	-3.15413793E-01
5.30520062E+07	-4.63801541E-01	-3.12492025E-01
5.30642142E+07	-4.65735973E-01	-3.09553642E-01
5.30764222E+07	-4.67656664E-01	-3.06617769E-01
5.30886303E+07	-4.69552604E-01	-3.03657010E-01
5.31008383E+07	-4.71432527E-01	-3.00702412E-01
5.31130463E+07	-4.73282919E-01	-2.97724715E-01
5.31252543E+07	-4.75126612E-01	-2.94738552E-01
5.31374624E+07	-4.76937305E-01	-2.91737310E-01
5.31496704E+07	-4.78737292E-01	-2.88727821E-01
5.31618784E+07	-4.80522798E-01	-2.85693792E-01
5.31740864E+07	-4.82281078E-01	-2.82665120E-01
5.31862945E+07	-4.84026198E-01	-2.79626716E-01
5.31985025E+07	-4.85758710E-01	-2.76569909E-01
5.32107105E+07	-4.87461332E-01	-2.73509257E-01
5.32229185E+07	-4.89142214E-01	-2.70436099E-01
5.32351266E+07	-4.90810161E-01	-2.67344574E-01
5.32473346E+07	-4.92457151E-01	-2.64245305E-01
5.32595426E+07	-4.94081555E-01	-2.61157400E-01
5.32717506E+07	-4.95683337E-01	-2.58044491E-01
5.32839587E+07	-4.97270067E-01	-2.54905081E-01
5.32961667E+07	-4.98831592E-01	-2.51770070E-01
5.33083747E+07	-5.00381522E-01	-2.48635936E-01
5.33205827E+07	-5.01908382E-01	-2.45475276E-01
5.33327908E+07	-5.03408281E-01	-2.42311490E-01
5.33449988E+07	-5.04904333E-01	-2.39152321E-01
5.33572068E+07	-5.06365700E-01	-2.35975072E-01
5.33694148E+07	-5.07808100E-01	-2.32782718E-01
5.33816229E+07	-5.09234998E-01	-2.29589014E-01
5.33938309E+07	-5.10635384E-01	-2.26384846E-01
5.34060389E+07	-5.12020177E-01	-2.23164208E-01
5.34182469E+07	-5.13386795E-01	-2.19949152E-01
5.34304550E+07	-5.14734350E-01	-2.16716219E-01
5.34426630E+07	-5.16053359E-01	-2.13476264E-01
5.34548710E+07	-5.17349723E-01	-2.10230494E-01
5.34670790E+07	-5.18639918E-01	-2.06972869E-01
5.34792871E+07	-5.19903314E-01	-2.03713503E-01
5.34914951E+07	-5.21139572E-01	-2.00447547E-01
5.35037031E+07	-5.22356079E-01	-1.97171359E-01
5.35159111E+07	-5.23557902E-01	-1.93891601E-01
5.35281192E+07	-5.24734046E-01	-1.90602511E-01
5.35403272E+07	-5.25890848E-01	-1.87304571E-01
5.35525352E+07	-5.27028699E-01	-1.83998788E-01
5.35647432E+07	-5.28133396E-01	-1.80686195E-01
5.35769512E+07	-5.29243751E-01	-1.77368394E-01
5.35891593E+07	-5.30304603E-01	-1.74046750E-01
5.36013673E+07	-5.31367491E-01	-1.70708077E-01
5.36135753E+07	-5.32386541E-01	-1.67377223E-01
5.36257833E+07	-5.33400458E-01	-1.64031351E-01
5.36379914E+07	-5.34394568E-01	-1.60683807E-01
5.36501994E+07	-5.35363510E-01	-1.57337044E-01
5.36624074E+07	-5.36305054E-01	-1.53970716E-01
5.36746154E+07	-5.37235001E-01	-1.50607292E-01
5.36868235E+07	-5.38129422E-01	-1.47230785E-01
5.36990315E+07	-5.39011701E-01	-1.43863964E-01
5.37112395E+07	-5.39879903E-01	-1.40479470E-01
5.37234475E+07	-5.40714267E-01	-1.37098557E-01
5.37356556E+07	-5.41539880E-01	-1.33697202E-01
5.37478636E+07	-5.42332159E-01	-1.30309140E-01
5.37600716E+07	-5.43111750E-01	-1.26916365E-01
5.37722796E+07	-5.43864055E-01	-1.23512511E-01
5.37844877E+07	-5.44588297E-01	-1.20090944E-01
5.37966957E+07	-5.45310248E-01	-1.16688966E-01
5.38089037E+07	-5.45990527E-01	-1.13265536E-01
5.38211117E+07	-5.46666666E-01	-1.09848500E-01
5.38333198E+07	-5.47309933E-01	-1.06426670E-01
5.38455278E+07	-5.47933921E-01	-1.02992762E-01
5.38577358E+07	-5.48539649E-01	-9.95691788E-02
5.38699438E+07	-5.49111258E-01	-9.61282663E-02
5.38821519E+07	-5.49679108E-01	-9.26963654E-02
5.38943599E+07	-5.50208106E-01	-8.92450901E-02
5.39065679E+07	-5.50732202E-01	-8.58076305E-02
5.39187759E+07	-5.51229985E-01	-8.23569537E-02
5.39309840E+07	-5.51700953E-01	-7.89016474E-02
5.39431920E+07	-5.52156703E-01	-7.54592803E-02
5.39554000E+07	-5.52572204E-01	-7.19981009E-02
5.39676080E+07	-5.52996601E-01	-6.85503877E-02
5.39798161E+07	-5.53374599E-01	-6.50871716E-02
5.39920241E+07	-5.53727599E-01	-6.16307087E-02
5.40042321E+07	-5.54085525E-01	-5.81650419E-02
5.40164401E+07	-5.54409421E-01	-5.47035326E-02
5.40286482E+07	-5.54705273E-01	-5.12404647E-02
5.40408562E+07	-5.54977204E-01	-4.77657087E-02
5.40530642E+07	-5.55235408E-01	-4.43003672E-02
5.40652722E+07	-5.55470120E-01	-4.08285568E-02
5.40774803E+07	-5.55681132E-01	-3.73526029E-02
5.40896883E+07	-5.55875952E-01	-3.38829052E-02
5.41018963E+07	-5.56040463E-01	-3.04124098E-02
5.41141043E+07	-5.56184659E-01	-2.69342201E-02
5.41263124E+07	-5.56303090E-01	-2.34627342E-02
5.41385204E+07	-5.56418909E-01	-1.99934698E-02
5.41507284E+07	-5.56488832E-01	-1.65125393E-02
5.41629364E+07	-5.56552928E-01	-1.30386043E-02
5.41751445E+07	-5.56580185E-01	-9.56561663E-03
5.41873525E+07	-5.56603049E-01	-6.09042225E-03
5.41995605E+07	-5.56591770E-01	-2.61268339E-03
5.42117685E+07	-5.56574048E-01	 8.57763617E-04
5.42239766E+07	-5.56517682E-01	 4.33260603E-03
5.42361846E+07	-5.56448283E-01	 7.80063850E-03
5.42483926E+07	-5.56354934E-01	 1.12734327E-02
5.42606006E+07	-5.56234805E-01	 1.47420136E-02
5.42728087E+07	-5.56103396E-01	 1.82122421E-02
5.42850167E+07	-5.55944911E-01	 2.16799846E-02
5.42972247E+07	-5.55754798E-01	 2.51485220E-02
5.43094327E+07	-5.55558041E-01	 2.86176504E-02
5.43216408E+07	-5.55339068E-01	 3.20696229E-02
5.43338488E+07	-5.55087131E-01	 3.55415382E-02
5.43460568E+07	-5.54821974E-01	 3.89987074E-02
5.43582648E+07	-5.54533540E-01	 4.24563864E-02
5.43704729E+07	-5.54228121E-01	 4.59094661E-02
5.43826809E+07	-5.53890786E-01	 4.93683631E-02
5.43948889E+07	-5.53541020E-01	 5.28143554E-02
5.44070969E+07	-5.53168624E-01	 5.62613914E-02
5.44193050E+07	-5.52771892E-01	 5.97076930E-02
5.44315130E+07	-5.52353672E-01	 6.31488898E-02
5.44437210E+07	-5.51910137E-01	 6.65862861E-02
5.44559290E+07	-5.51451408E-01	 7.00253568E-02
5.44681371E+07	-5.50973628E-01	 7.34572435E-02
5.44803451E+07	-5.50475113E-01	 7.68866886E-02
5.44925531E+07	-5.49946118E-01	 8.03125246E-02
5.45047611E+07	-5.49399396E-01	 8.37399029E-02
5.45169692E+07	-5.48831481E-01	 8.71608783E-02
5.45291772E+07	-5.48234228E-01	 9.05670048E-02
5.45413852E+07	-5.47630561E-01	 9.39786992E-02
5.45535932E+07	-5.46997203E-01	 9.73798478E-02
5.45658013E+07	-5.46348842E-01	 1.00787042E-01
5.45780093E+07	-5.45671324E-01	 1.04181863E-01
5.45902173E+07	-5.44976030E-01	 1.07572182E-01
5.46024253E+07	-5.44258378E-01	 1.10966220E-01
5.46146334E+07	-5.43522557E-01	 1.14351443E-01
5.46268414E+07	-5.42769163E-01	 1.17728621E-01
5.46390494E+07	-5.41984461E-01	 1.21101437E-01
5.46512574E+07	-5.41177988E-01	 1.24468994E-01
5.46634655E+07	-5.40366307E-01	 1.27831648E-01
5.46756735E+07	-5.39517526E-01	 1.31186273E-01
5.46878815E+07	-5.38663408E-01	 1.34542770E-01
5.47000895E+07	-5.37769729E-01	 1.37890438E-01
5.47122976E+07	-5.36875821E-01	 1.41226475E-01
5.47245056E+07	-5.35940650E-01	 1.44560872E-01
5.47367136E+07	-5.34998670E-01	 1.47889120E-01
5.47489216E+07	-5.34026504E-01	 1.51213177E-01
5.47611296E+07	-5.33048430E-01	 1.54523032E-01
5.47733377E+07	-5.32043321E-01	 1.57830756E-01
5.47855457E+07	-5.31000001E-01	 1.61136088E-01
5.47977537E+07	-5.29956514E-01	 1.64426586E-01
5.48099617E+07	-5.28889167E-01	 1.67724891E-01
5.48221698E+07	-5.27785046E-01	 1.70999917E-01
5.48343778E+07	-5.26688010E-01	 1.74276061E-01
5.48465858E+07	-5.25556230E-01	 1.77544882E-01
5.48587938E+07	-5.24398802E-01	 1.80805919E-01
5.48710019E+07	-5.23233081E-01	 1.84055041E-01
5.48832099E+07	-5.22039497E-01	 1.87305087E-01
5.48954179E+07	-5.20822940E-01	 1.90539244E-01
5.49076259E+07	-5.19590659E-01	 1.93771761E-01
5.49198340E+07	-5.18340433E-01	 1.96988867E-01
5.49320420E+07	-5.17069125E-01	 2.00206689E-01
5.49442500E+07	-5.15765838E-01	 2.03397750E-01
5.49564580E+07	-5.14455929E-01	 2.06608979E-01
5.49686661E+07	-5.13128297E-01	 2.09790633E-01
5.49808741E+07	-5.11775604E-01	 2.12965727E-01
5.49930821E+07	-5.10404824E-01	 2.16142317E-01
5.50052901E+07	-5.09015160E-01	 2.19306446E-01
5.50174982E+07	-5.07604664E-01	 2.22461736E-01
5.50297062E+07	-5.06172703E-01	 2.25601879E-01
5.50419142E+07	-5.04734036E-01	 2.28733445E-01
5.50541222E+07	-5.03251813E-01	 2.31859350E-01
5.50663303E+07	-5.01773064E-01	 2.34980767E-01
5.50785383E+07	-5.00271273E-01	 2.38086146E-01
5.50907463E+07	-4.98741624E-01	 2.41182542E-01
5.51029543E+07	-4.97158670E-01	 2.44255036E-01
5.51151624E+07	-4.95621227E-01	 2.47346875E-01
5.51273704E+07	-4.94039922E-01	 2.50416447E-01
