! COPPER MOUNTAIN TECHNOLOGIES, PLANAR TR1300/1, 00071119, 20.2.2/1.0
! Date: 12/11/2023 3:16:03 PM
! Data: Format [Calibration Info]
! Freq          	S11: Re/Im F1                  
# HZ S RI R 50
5.00000000E+07	-4.71449304E-01	 6.65858147E-01
5.00122080E+07	-4.67251625E-01	 6.68778256E-01
5.00244160E+07	-4.63061401E-01	 6.71670779E-01
5.00366241E+07	-4.58819736E-01	 6.74512218E-01
5.00488321E+07	-4.54567063E-01	 6.77342555E-01
5.00610401E+07	-4.50304625E-01	 6.80129111E-01
5.00732481E+07	-4.46020538E-01	 6.82907498E-01
5.00854562E+07	-4.41736480E-01	 6.85661099E-01
5.00976642E+07	-4.37407138E-01	 6.88383872E-01
5.01098722E+07	-4.33086543E-01	 6.91096705E-01
5.01220802E+07	-4.28712969E-01	 6.93713327E-01
5.01342883E+07	-4.24363082E-01	 6.96398926E-01
5.01464963E+07	-4.19978386E-01	 6.99005197E-01
5.01587043E+07	-4.15608473E-01	 7.01604531E-01
5.01709123E+07	-4.11168682E-01	 7.04159570E-01
5.01831204E+07	-4.06738062E-01	 7.06692813E-01
5.01953284E+07	-4.02282379E-01	 7.09194670E-01
5.02075364E+07	-3.97816867E-01	 7.11640747E-01
5.02197444E+07	-3.93366537E-01	 7.14128321E-01
5.02319525E+07	-3.88858031E-01	 7.16545421E-01
5.02441605E+07	-3.84367537E-01	 7.18937183E-01
5.02563685E+07	-3.79834403E-01	 7.21309842E-01
5.02685765E+07	-3.75276156E-01	 7.23604950E-01
5.02807846E+07	-3.70759200E-01	 7.25964686E-01
5.02929926E+07	-3.66189125E-01	 7.28232751E-01
5.03052006E+07	-3.61602044E-01	 7.30486445E-01
5.03174086E+07	-3.57008933E-01	 7.32713217E-01
5.03296167E+07	-3.52408124E-01	 7.34905309E-01
5.03418247E+07	-3.47772442E-01	 7.37083345E-01
5.03540327E+07	-3.43134689E-01	 7.39223640E-01
5.03662407E+07	-3.38486145E-01	 7.41348606E-01
5.03784488E+07	-3.33840062E-01	 7.43426760E-01
5.03906568E+07	-3.29151565E-01	 7.45431220E-01
5.04028648E+07	-3.24480116E-01	 7.47495384E-01
5.04150728E+07	-3.19782174E-01	 7.49481586E-01
5.04272809E+07	-3.15060348E-01	 7.51452144E-01
5.04394889E+07	-3.10332623E-01	 7.53346845E-01
5.04516969E+07	-3.05603163E-01	 7.55284299E-01
5.04639049E+07	-3.00864490E-01	 7.57181095E-01
5.04761130E+07	-2.96092855E-01	 7.59013744E-01
5.04883210E+07	-2.91337565E-01	 7.60844032E-01
5.05005290E+07	-2.86533614E-01	 7.62640607E-01
5.05127370E+07	-2.81739637E-01	 7.64382432E-01
5.05249451E+07	-2.76952854E-01	 7.66126886E-01
5.05371531E+07	-2.72134586E-01	 7.67845417E-01
5.05493611E+07	-2.67307332E-01	 7.69501997E-01
5.05615691E+07	-2.62457895E-01	 7.71145116E-01
5.05737772E+07	-2.57606722E-01	 7.72748334E-01
5.05859852E+07	-2.52759180E-01	 7.74328871E-01
5.05981932E+07	-2.47884922E-01	 7.75880906E-01
5.06104012E+07	-2.43012423E-01	 7.77410613E-01
5.06226093E+07	-2.38126504E-01	 7.78892593E-01
5.06348173E+07	-2.33218126E-01	 7.80343409E-01
5.06470253E+07	-2.28339801E-01	 7.81776063E-01
5.06592333E+07	-2.23400959E-01	 7.83173020E-01
5.06714414E+07	-2.18481731E-01	 7.84550262E-01
5.06836494E+07	-2.13556380E-01	 7.85886381E-01
5.06958574E+07	-2.08620340E-01	 7.87195123E-01
5.07080654E+07	-2.03671123E-01	 7.88464836E-01
5.07202735E+07	-1.98704605E-01	 7.89699115E-01
5.07324815E+07	-1.93751503E-01	 7.90909865E-01
5.07446895E+07	-1.88788423E-01	 7.92102228E-01
5.07568975E+07	-1.83787628E-01	 7.93251396E-01
5.07691056E+07	-1.78808067E-01	 7.94370765E-01
5.07813136E+07	-1.73803975E-01	 7.95459531E-01
5.07935216E+07	-1.68799292E-01	 7.96541636E-01
5.08057296E+07	-1.63785711E-01	 7.97556003E-01
5.08179377E+07	-1.58769404E-01	 7.98556358E-01
5.08301457E+07	-1.53742244E-01	 7.99524738E-01
5.08423537E+07	-1.48721433E-01	 8.00473960E-01
5.08545617E+07	-1.43713823E-01	 8.01367575E-01
5.08667698E+07	-1.38672091E-01	 8.02252315E-01
5.08789778E+07	-1.33595763E-01	 8.03080619E-01
5.08911858E+07	-1.28554149E-01	 8.03884178E-01
5.09033938E+07	-1.23504833E-01	 8.04661598E-01
5.09156019E+07	-1.18447419E-01	 8.05417061E-01
5.09278099E+07	-1.13371963E-01	 8.06112958E-01
5.09400179E+07	-1.08299112E-01	 8.06796270E-01
5.09522259E+07	-1.03220498E-01	 8.07467236E-01
5.09644340E+07	-9.81488837E-02	 8.08087191E-01
5.09766420E+07	-9.30733501E-02	 8.08667063E-01
5.09888500E+07	-8.79716609E-02	 8.09216412E-01
5.10010580E+07	-8.28713685E-02	 8.09745869E-01
5.10132661E+07	-7.77859299E-02	 8.10246370E-01
5.10254741E+07	-7.26843829E-02	 8.10710763E-01
5.10376821E+07	-6.75774741E-02	 8.11149601E-01
5.10498901E+07	-6.24772053E-02	 8.11531681E-01
5.10620982E+07	-5.73706682E-02	 8.11923287E-01
5.10743062E+07	-5.22513164E-02	 8.12226260E-01
5.10865142E+07	-4.71517538E-02	 8.12555156E-01
5.10987222E+07	-4.20461984E-02	 8.12797778E-01
5.11109303E+07	-3.69209755E-02	 8.13054790E-01
5.11231383E+07	-3.17849192E-02	 8.13247380E-01
5.11353463E+07	-2.66618428E-02	 8.13429568E-01
5.11475543E+07	-2.15330664E-02	 8.13589372E-01
5.11597624E+07	-1.64255582E-02	 8.13684636E-01
5.11719704E+07	-1.12950478E-02	 8.13773269E-01
5.11841784E+07	-6.17644768E-03	 8.13804313E-01
5.11963864E+07	-1.03138678E-03	 8.13831578E-01
5.12085944E+07	 4.08304824E-03	 8.13819788E-01
5.12208025E+07	 9.20227098E-03	 8.13769765E-01
5.12330105E+07	 1.43339201E-02	 8.13686972E-01
5.12452185E+07	 1.94616404E-02	 8.13570948E-01
5.12574265E+07	 2.45824613E-02	 8.13441259E-01
5.12696346E+07	 2.97049411E-02	 8.13248291E-01
5.12818426E+07	 3.48414386E-02	 8.13030118E-01
5.12940506E+07	 3.99546033E-02	 8.12798437E-01
5.13062586E+07	 4.50805385E-02	 8.12518669E-01
5.13184667E+07	 5.01994855E-02	 8.12227942E-01
5.13306747E+07	 5.53308350E-02	 8.11879016E-01
5.13428827E+07	 6.04564515E-02	 8.11516807E-01
5.13550907E+07	 6.55566247E-02	 8.11105695E-01
5.13672988E+07	 7.06725152E-02	 8.10683745E-01
5.13795068E+07	 7.58005917E-02	 8.10223673E-01
5.13917148E+07	 8.09041287E-02	 8.09714166E-01
5.14039228E+07	 8.59988588E-02	 8.09175039E-01
5.14161309E+07	 9.10991661E-02	 8.08623120E-01
5.14283389E+07	 9.62074347E-02	 8.08053072E-01
5.14405469E+07	 1.01303172E-01	 8.07393611E-01
5.14527549E+07	 1.06396527E-01	 8.06746147E-01
5.14649630E+07	 1.11498617E-01	 8.06067962E-01
5.14771710E+07	 1.16591014E-01	 8.05322035E-01
5.14893790E+07	 1.21658843E-01	 8.04564839E-01
5.15015870E+07	 1.26737849E-01	 8.03799689E-01
5.15137951E+07	 1.31797335E-01	 8.02971576E-01
5.15260031E+07	 1.36872195E-01	 8.02138920E-01
5.15382111E+07	 1.41941581E-01	 8.01243832E-01
5.15504191E+07	 1.46993221E-01	 8.00352907E-01
5.15626272E+07	 1.52054594E-01	 7.99395763E-01
5.15748352E+07	 1.57089839E-01	 7.98434853E-01
5.15870432E+07	 1.62145213E-01	 7.97406478E-01
5.15992512E+07	 1.67192912E-01	 7.96363029E-01
5.16114593E+07	 1.72218193E-01	 7.95318620E-01
5.16236673E+07	 1.77225538E-01	 7.94200438E-01
5.16358753E+07	 1.82255524E-01	 7.93069923E-01
5.16480833E+07	 1.87265460E-01	 7.91911735E-01
5.16602914E+07	 1.92257890E-01	 7.90708074E-01
5.16724994E+07	 1.97254939E-01	 7.89479608E-01
5.16847074E+07	 2.02245432E-01	 7.88215550E-01
5.16969154E+07	 2.07223908E-01	 7.86928576E-01
5.17091235E+07	 2.12202071E-01	 7.85607758E-01
5.17213315E+07	 2.17178066E-01	 7.84259995E-01
5.17335395E+07	 2.22147414E-01	 7.82857051E-01
5.17457475E+07	 2.27063556E-01	 7.81432053E-01
5.17579556E+07	 2.32020464E-01	 7.80000042E-01
5.17701636E+07	 2.36949331E-01	 7.78520690E-01
5.17823716E+07	 2.41882112E-01	 7.76995233E-01
5.17945796E+07	 2.46800192E-01	 7.75461870E-01
5.18067877E+07	 2.51712779E-01	 7.73896797E-01
5.18189957E+07	 2.56599915E-01	 7.72293215E-01
5.18312037E+07	 2.61501039E-01	 7.70646539E-01
5.18434117E+07	 2.66372856E-01	 7.68980041E-01
5.18556198E+07	 2.71229289E-01	 7.67287357E-01
5.18678278E+07	 2.76095429E-01	 7.65559031E-01
5.18800358E+07	 2.80940268E-01	 7.63806803E-01
5.18922438E+07	 2.85771173E-01	 7.62018326E-01
5.19044519E+07	 2.90593777E-01	 7.60201325E-01
5.19166599E+07	 2.95403697E-01	 7.58365365E-01
5.19288679E+07	 3.00210904E-01	 7.56449587E-01
5.19410759E+07	 3.04989082E-01	 7.54573026E-01
5.19532840E+07	 3.09787328E-01	 7.52627286E-01
5.19654920E+07	 3.14543018E-01	 7.50634155E-01
5.19777000E+07	 3.19329205E-01	 7.48641712E-01
5.19899080E+07	 3.24063517E-01	 7.46615803E-01
5.20021161E+07	 3.28793845E-01	 7.44549904E-01
5.20143241E+07	 3.33515776E-01	 7.42468260E-01
5.20265321E+07	 3.38208646E-01	 7.40337169E-01
5.20387401E+07	 3.42919380E-01	 7.38183907E-01
5.20509482E+07	 3.47598770E-01	 7.36008451E-01
5.20631562E+07	 3.52262259E-01	 7.33789842E-01
5.20753642E+07	 3.56892675E-01	 7.31557144E-01
5.20875722E+07	 3.61556535E-01	 7.29291496E-01
5.20997803E+07	 3.66180144E-01	 7.26980773E-01
5.21119883E+07	 3.70787614E-01	 7.24667500E-01
5.21241963E+07	 3.75394878E-01	 7.22308023E-01
5.21364043E+07	 3.79978260E-01	 7.19905244E-01
5.21486124E+07	 3.84557901E-01	 7.17498464E-01
5.21608204E+07	 3.89103532E-01	 7.15055819E-01
5.21730284E+07	 3.93652355E-01	 7.12581784E-01
5.21852364E+07	 3.98157748E-01	 7.10074345E-01
5.21974445E+07	 4.02675444E-01	 7.07545788E-01
5.22096525E+07	 4.07161117E-01	 7.04990167E-01
5.22218605E+07	 4.11651757E-01	 7.02413290E-01
5.22340685E+07	 4.16103335E-01	 6.99764265E-01
5.22462766E+07	 4.20560482E-01	 6.97128497E-01
5.22584846E+07	 4.24982403E-01	 6.94456762E-01
5.22706926E+07	 4.29390201E-01	 6.91751967E-01
5.22829006E+07	 4.33785073E-01	 6.89004118E-01
5.22951087E+07	 4.38173545E-01	 6.86277879E-01
5.23073167E+07	 4.42535924E-01	 6.83460642E-01
5.23195247E+07	 4.46866518E-01	 6.80662790E-01
5.23317327E+07	 4.51201237E-01	 6.77815814E-01
5.23439408E+07	 4.55535511E-01	 6.74948530E-01
5.23561488E+07	 4.59811935E-01	 6.72042850E-01
5.23683568E+07	 4.64094293E-01	 6.69119050E-01
5.23805648E+07	 4.68335032E-01	 6.66156886E-01
5.23927728E+07	 4.72585672E-01	 6.63200831E-01
5.24049809E+07	 4.76794951E-01	 6.60182066E-01
5.24171889E+07	 4.81007291E-01	 6.57157219E-01
5.24293969E+07	 4.85191572E-01	 6.54084561E-01
5.24416049E+07	 4.89364222E-01	 6.50983466E-01
5.24538130E+07	 4.93506544E-01	 6.47876644E-01
5.24660210E+07	 4.97638494E-01	 6.44756867E-01
5.24782290E+07	 5.01731866E-01	 6.41562675E-01
5.24904370E+07	 5.05842750E-01	 6.38376984E-01
5.25026451E+07	 5.09884970E-01	 6.35166290E-01
5.25148531E+07	 5.13949048E-01	 6.31903719E-01
5.25270611E+07	 5.17971543E-01	 6.28635589E-01
5.25392691E+07	 5.21990385E-01	 6.25346224E-01
5.25514772E+07	 5.25966651E-01	 6.22015857E-01
5.25636852E+07	 5.29938228E-01	 6.18645572E-01
5.25758932E+07	 5.33891964E-01	 6.15289086E-01
5.25881012E+07	 5.37784438E-01	 6.11877033E-01
5.26003093E+07	 5.41704053E-01	 6.08467728E-01
5.26125173E+07	 5.45595985E-01	 6.05001641E-01
5.26247253E+07	 5.49438508E-01	 6.01544412E-01
5.26369333E+07	 5.53284366E-01	 5.98015842E-01
5.26491414E+07	 5.57113547E-01	 5.94488828E-01
5.26613494E+07	 5.60891969E-01	 5.90953288E-01
5.26735574E+07	 5.64663161E-01	 5.87360631E-01
5.26857654E+07	 5.68424986E-01	 5.83765289E-01
5.26979735E+07	 5.72152963E-01	 5.80132045E-01
5.27101815E+07	 5.75867839E-01	 5.76490904E-01
5.27223895E+07	 5.79554147E-01	 5.72817127E-01
5.27345975E+07	 5.83183244E-01	 5.69126780E-01
5.27468056E+07	 5.86831482E-01	 5.65400264E-01
5.27590136E+07	 5.90445574E-01	 5.61671471E-01
5.27712216E+07	 5.94043933E-01	 5.57892858E-01
5.27834296E+07	 5.97602988E-01	 5.54110755E-01
5.27956377E+07	 6.01143691E-01	 5.50300842E-01
5.28078457E+07	 6.04675759E-01	 5.46462344E-01
5.28200537E+07	 6.08165919E-01	 5.42597835E-01
5.28322617E+07	 6.11655180E-01	 5.38725348E-01
5.28444698E+07	 6.15076452E-01	 5.34823753E-01
5.28566778E+07	 6.18514470E-01	 5.30882041E-01
5.28688858E+07	 6.21914653E-01	 5.26939936E-01
5.28810938E+07	 6.25281678E-01	 5.22963400E-01
5.28933019E+07	 6.28636404E-01	 5.18974490E-01
5.29055099E+07	 6.31958332E-01	 5.14952221E-01
5.29177179E+07	 6.35246459E-01	 5.10919135E-01
5.29299259E+07	 6.38518965E-01	 5.06870978E-01
5.29421340E+07	 6.41778072E-01	 5.02782337E-01
5.29543420E+07	 6.44990879E-01	 4.98684914E-01
5.29665500E+07	 6.48189581E-01	 4.94565685E-01
5.29787580E+07	 6.51346196E-01	 4.90418721E-01
5.29909661E+07	 6.54507140E-01	 4.86252480E-01
5.30031741E+07	 6.57621160E-01	 4.82074910E-01
5.30153821E+07	 6.60702975E-01	 4.77866403E-01
5.30275901E+07	 6.63762472E-01	 4.73636923E-01
5.30397982E+07	 6.66810217E-01	 4.69405974E-01
5.30520062E+07	 6.69823214E-01	 4.65136952E-01
5.30642142E+07	 6.72808239E-01	 4.60844663E-01
5.30764222E+07	 6.75766014E-01	 4.56556833E-01
5.30886303E+07	 6.78694626E-01	 4.52216342E-01
5.31008383E+07	 6.81606335E-01	 4.47890847E-01
5.31130463E+07	 6.84466688E-01	 4.43525163E-01
5.31252543E+07	 6.87328353E-01	 4.39140218E-01
5.31374624E+07	 6.90131948E-01	 4.34746813E-01
5.31496704E+07	 6.92924289E-01	 4.30332404E-01
5.31618784E+07	 6.95676979E-01	 4.25888207E-01
5.31740864E+07	 6.98420881E-01	 4.21443310E-01
5.31862945E+07	 7.01136708E-01	 4.16970491E-01
5.31985025E+07	 7.03826020E-01	 4.12476551E-01
5.32107105E+07	 7.06460281E-01	 4.07967798E-01
5.32229185E+07	 7.09089857E-01	 4.03449662E-01
5.32351266E+07	 7.11677281E-01	 3.98907622E-01
5.32473346E+07	 7.14249066E-01	 3.94348735E-01
5.32595426E+07	 7.16791237E-01	 3.89778000E-01
5.32717506E+07	 7.19294318E-01	 3.85185167E-01
5.32839587E+07	 7.21763844E-01	 3.80561345E-01
5.32961667E+07	 7.24213701E-01	 3.75941593E-01
5.33083747E+07	 7.26636734E-01	 3.71309868E-01
5.33205827E+07	 7.29023397E-01	 3.66647251E-01
5.33327908E+07	 7.31381722E-01	 3.61970167E-01
5.33449988E+07	 7.33723091E-01	 3.57289873E-01
5.33572068E+07	 7.36032748E-01	 3.52570314E-01
5.33694148E+07	 7.38295261E-01	 3.47866578E-01
5.33816229E+07	 7.40550264E-01	 3.43129680E-01
5.33938309E+07	 7.42739104E-01	 3.38381535E-01
5.34060389E+07	 7.44918932E-01	 3.33612598E-01
5.34182469E+07	 7.47080988E-01	 3.28834504E-01
5.34304550E+07	 7.49201544E-01	 3.24046708E-01
5.34426630E+07	 7.51298213E-01	 3.19244008E-01
5.34548710E+07	 7.53337814E-01	 3.14422517E-01
5.34670790E+07	 7.55374533E-01	 3.09573017E-01
5.34792871E+07	 7.57384255E-01	 3.04720706E-01
5.34914951E+07	 7.59345369E-01	 2.99876590E-01
5.35037031E+07	 7.61274989E-01	 2.94997791E-01
5.35159111E+07	 7.63183355E-01	 2.90113006E-01
5.35281192E+07	 7.65055936E-01	 2.85218519E-01
5.35403272E+07	 7.66901370E-01	 2.80297977E-01
5.35525352E+07	 7.68722312E-01	 2.75376886E-01
5.35647432E+07	 7.70476804E-01	 2.70431180E-01
5.35769512E+07	 7.72246081E-01	 2.65498060E-01
5.35891593E+07	 7.73952077E-01	 2.60533986E-01
5.36013673E+07	 7.75631172E-01	 2.55551090E-01
5.36135753E+07	 7.77272261E-01	 2.50570917E-01
5.36257833E+07	 7.78912009E-01	 2.45575599E-01
5.36379914E+07	 7.80497829E-01	 2.40566710E-01
5.36501994E+07	 7.82054337E-01	 2.35563135E-01
5.36624074E+07	 7.83578097E-01	 2.30532282E-01
5.36746154E+07	 7.85077335E-01	 2.25504235E-01
5.36868235E+07	 7.86543841E-01	 2.20443525E-01
5.36990315E+07	 7.87965391E-01	 2.15395922E-01
5.37112395E+07	 7.89351490E-01	 2.10333184E-01
5.37234475E+07	 7.90718077E-01	 2.05252096E-01
5.37356556E+07	 7.92055771E-01	 2.00170437E-01
5.37478636E+07	 7.93345062E-01	 1.95076866E-01
5.37600716E+07	 7.94618269E-01	 1.89961486E-01
5.37722796E+07	 7.95847763E-01	 1.84858131E-01
5.37844877E+07	 7.97044365E-01	 1.79739168E-01
5.37966957E+07	 7.98208368E-01	 1.74605420E-01
5.38089037E+07	 7.99329752E-01	 1.69473482E-01
5.38211117E+07	 8.00444742E-01	 1.64325455E-01
5.38333198E+07	 8.01523846E-01	 1.59172533E-01
5.38455278E+07	 8.02541855E-01	 1.54017861E-01
5.38577358E+07	 8.03555953E-01	 1.48852323E-01
5.38699438E+07	 8.04524233E-01	 1.43681316E-01
5.38821519E+07	 8.05460006E-01	 1.38508621E-01
5.38943599E+07	 8.06345666E-01	 1.33311113E-01
5.39065679E+07	 8.07237517E-01	 1.28117334E-01
5.39187759E+07	 8.08068384E-01	 1.22924708E-01
5.39309840E+07	 8.08857793E-01	 1.17725150E-01
5.39431920E+07	 8.09647883E-01	 1.12518849E-01
5.39554000E+07	 8.10366097E-01	 1.07299831E-01
5.39676080E+07	 8.11072178E-01	 1.02086339E-01
5.39798161E+07	 8.11733472E-01	 9.68600500E-02
5.39920241E+07	 8.12353737E-01	 9.16329533E-02
5.40042321E+07	 8.12979062E-01	 8.63932288E-02
5.40164401E+07	 8.13552102E-01	 8.11617658E-02
5.40286482E+07	 8.14083278E-01	 7.59090152E-02
5.40408562E+07	 8.14568537E-01	 7.06666318E-02
5.40530642E+07	 8.15039392E-01	 6.54105310E-02
5.40652722E+07	 8.15483532E-01	 6.01682041E-02
5.40774803E+07	 8.15886594E-01	 5.49027634E-02
5.40896883E+07	 8.16246180E-01	 4.96381022E-02
5.41018963E+07	 8.16568273E-01	 4.43933010E-02
5.41141043E+07	 8.16872470E-01	 3.91231099E-02
5.41263124E+07	 8.17134732E-01	 3.38494040E-02
5.41385204E+07	 8.17365543E-01	 2.85825900E-02
5.41507284E+07	 8.17546620E-01	 2.33036343E-02
5.41629364E+07	 8.17709086E-01	 1.80431552E-02
5.41751445E+07	 8.17841995E-01	 1.27672220E-02
5.41873525E+07	 8.17940314E-01	 7.49004548E-03
5.41995605E+07	 8.17992281E-01	 2.21546435E-03
5.42117685E+07	 8.18015128E-01	-3.06849532E-03
5.42239766E+07	 8.18002974E-01	-8.34420337E-03
5.42361846E+07	 8.17970474E-01	-1.36241339E-02
5.42483926E+07	 8.17891236E-01	-1.89095519E-02
5.42606006E+07	 8.17767361E-01	-2.41748888E-02
5.42728087E+07	 8.17628173E-01	-2.94666642E-02
5.42850167E+07	 8.17442310E-01	-3.47281779E-02
5.42972247E+07	 8.17218422E-01	-4.00175095E-02
5.43094327E+07	 8.16984684E-01	-4.52897493E-02
5.43216408E+07	 8.16704721E-01	-5.05601952E-02
5.43338488E+07	 8.16379295E-01	-5.58355019E-02
5.43460568E+07	 8.16043341E-01	-6.11089522E-02
5.43582648E+07	 8.15640788E-01	-6.63695724E-02
5.43704729E+07	 8.15226385E-01	-7.16311170E-02
5.43826809E+07	 8.14777435E-01	-7.69071218E-02
5.43948889E+07	 8.14284172E-01	-8.21646618E-02
5.44070969E+07	 8.13766351E-01	-8.74297486E-02
5.44193050E+07	 8.13216440E-01	-9.26829084E-02
5.44315130E+07	 8.12618407E-01	-9.79370663E-02
5.44437210E+07	 8.11998359E-01	-1.03185953E-01
5.44559290E+07	 8.11331867E-01	-1.08428126E-01
5.44681371E+07	 8.10644206E-01	-1.13671391E-01
5.44803451E+07	 8.09924664E-01	-1.18906326E-01
5.44925531E+07	 8.09153214E-01	-1.24148892E-01
5.45047611E+07	 8.08358731E-01	-1.29374721E-01
5.45169692E+07	 8.07541405E-01	-1.34602636E-01
5.45291772E+07	 8.06672696E-01	-1.39806948E-01
5.45413852E+07	 8.05785020E-01	-1.45029840E-01
5.45535932E+07	 8.04847689E-01	-1.50232644E-01
5.45658013E+07	 8.03886487E-01	-1.55436357E-01
5.45780093E+07	 8.02889349E-01	-1.60630077E-01
5.45902173E+07	 8.01846794E-01	-1.65822146E-01
5.46024253E+07	 8.00786820E-01	-1.71011444E-01
5.46146334E+07	 7.99693291E-01	-1.76182417E-01
5.46268414E+07	 7.98569409E-01	-1.81341854E-01
5.46390494E+07	 7.97403473E-01	-1.86510710E-01
5.46512574E+07	 7.96193093E-01	-1.91670512E-01
5.46634655E+07	 7.94972986E-01	-1.96819607E-01
5.46756735E+07	 7.93685935E-01	-2.01952948E-01
5.46878815E+07	 7.92404403E-01	-2.07092751E-01
5.47000895E+07	 7.91076723E-01	-2.12213712E-01
5.47122976E+07	 7.89702554E-01	-2.17332475E-01
5.47245056E+07	 7.88305312E-01	-2.22434021E-01
5.47367136E+07	 7.86883292E-01	-2.27522885E-01
5.47489216E+07	 7.85404991E-01	-2.32629042E-01
5.47611296E+07	 7.83912938E-01	-2.37701854E-01
5.47733377E+07	 7.82382309E-01	-2.42764254E-01
5.47855457E+07	 7.80811764E-01	-2.47825356E-01
5.47977537E+07	 7.79209734E-01	-2.52874932E-01
5.48099617E+07	 7.77587741E-01	-2.57917897E-01
5.48221698E+07	 7.75910713E-01	-2.62942293E-01
5.48343778E+07	 7.74221500E-01	-2.67955410E-01
5.48465858E+07	 7.72481427E-01	-2.72982062E-01
5.48587938E+07	 7.70737545E-01	-2.77973752E-01
5.48710019E+07	 7.68945661E-01	-2.82957973E-01
5.48832099E+07	 7.67117521E-01	-2.87922557E-01
5.48954179E+07	 7.65246652E-01	-2.92883848E-01
5.49076259E+07	 7.63362022E-01	-2.97837729E-01
5.49198340E+07	 7.61432432E-01	-3.02782374E-01
5.49320420E+07	 7.59486437E-01	-3.07706052E-01
5.49442500E+07	 7.57488064E-01	-3.12600380E-01
5.49564580E+07	 7.55465673E-01	-3.17510373E-01
5.49686661E+07	 7.53426416E-01	-3.22393607E-01
5.49808741E+07	 7.51333844E-01	-3.27280306E-01
5.49930821E+07	 7.49228396E-01	-3.32132334E-01
5.50052901E+07	 7.47078482E-01	-3.36980985E-01
5.50174982E+07	 7.44903303E-01	-3.41820616E-01
5.50297062E+07	 7.42680068E-01	-3.46641724E-01
5.50419142E+07	 7.40448515E-01	-3.51436486E-01
5.50541222E+07	 7.38170375E-01	-3.56217169E-01
5.50663303E+07	 7.35874342E-01	-3.60999462E-01
5.50785383E+07	 7.33559453E-01	-3.65755711E-01
5.50907463E+07	 7.31176442E-01	-3.70497498E-01
5.51029543E+07	 7.28730003E-01	-3.75211874E-01
5.51151624E+07	 7.26351079E-01	-3.79951164E-01
5.51273704E+07	 7.23895437E-01	-3.84650506E-01
