! COPPER MOUNTAIN TECHNOLOGIES, PLANAR TR1300/1, 00071119, 20.2.2/1.0
! Date: 12/11/2023 3:25:20 PM
! Data: Format [Calibration Info]
! Freq          	S11: Re/Im F1                  
# HZ S RI R 50
5.00000000E+07	 2.50438149E-03	-4.13054399E-03
5.00122080E+07	 2.50751079E-03	-4.13164771E-03
5.00244160E+07	 2.50345419E-03	-4.12979422E-03
5.00366241E+07	 2.50202950E-03	-4.13361474E-03
5.00488321E+07	 2.50038652E-03	-4.13728873E-03
5.00610401E+07	 2.50035456E-03	-4.13193996E-03
5.00732481E+07	 2.49656330E-03	-4.13376212E-03
5.00854562E+07	 2.49793398E-03	-4.14232639E-03
5.00976642E+07	 2.50104282E-03	-4.13883683E-03
5.01098722E+07	 2.49951028E-03	-4.14337446E-03
5.01220802E+07	 2.49353860E-03	-4.14460312E-03
5.01342883E+07	 2.49306195E-03	-4.14532417E-03
5.01464963E+07	 2.49117252E-03	-4.15372799E-03
5.01587043E+07	 2.49293591E-03	-4.14681026E-03
5.01709123E+07	 2.49082159E-03	-4.14815386E-03
5.01831204E+07	 2.48988733E-03	-4.15236980E-03
5.01953284E+07	 2.49195307E-03	-4.15587986E-03
5.02075364E+07	 2.49138765E-03	-4.15473493E-03
5.02197444E+07	 2.48531874E-03	-4.15444768E-03
5.02319525E+07	 2.48720183E-03	-4.15760326E-03
5.02441605E+07	 2.48773345E-03	-4.15952675E-03
5.02563685E+07	 2.48494512E-03	-4.16076091E-03
5.02685765E+07	 2.48431389E-03	-4.16489154E-03
5.02807846E+07	 2.48277944E-03	-4.16293859E-03
5.02929926E+07	 2.48228384E-03	-4.16739962E-03
5.03052006E+07	 2.47951082E-03	-4.16855451E-03
5.03174086E+07	 2.48222462E-03	-4.17189309E-03
5.03296167E+07	 2.48086947E-03	-4.17278868E-03
5.03418247E+07	 2.48203798E-03	-4.17663440E-03
5.03540327E+07	 2.47922174E-03	-4.17668964E-03
5.03662407E+07	 2.47836952E-03	-4.17498565E-03
5.03784488E+07	 2.47679155E-03	-4.17675112E-03
5.03906568E+07	 2.47542222E-03	-4.17457728E-03
5.04028648E+07	 2.47435699E-03	-4.18117620E-03
5.04150728E+07	 2.47361764E-03	-4.17780723E-03
5.04272809E+07	 2.46827252E-03	-4.18170126E-03
5.04394889E+07	 2.46763115E-03	-4.18207978E-03
5.04516969E+07	 2.46506245E-03	-4.18918089E-03
5.04639049E+07	 2.46803658E-03	-4.18780825E-03
5.04761130E+07	 2.46267939E-03	-4.18760582E-03
5.04883210E+07	 2.46677724E-03	-4.19182553E-03
5.05005290E+07	 2.46728359E-03	-4.19259479E-03
5.05127370E+07	 2.46305820E-03	-4.19199278E-03
5.05249451E+07	 2.46091078E-03	-4.19457526E-03
5.05371531E+07	 2.46252813E-03	-4.19322317E-03
5.05493611E+07	 2.46015372E-03	-4.20096589E-03
5.05615691E+07	 2.46203433E-03	-4.19922645E-03
5.05737772E+07	 2.45894626E-03	-4.20286808E-03
5.05859852E+07	 2.45526579E-03	-4.20163144E-03
5.05981932E+07	 2.45932430E-03	-4.20552646E-03
5.06104012E+07	 2.45061958E-03	-4.20661479E-03
5.06226093E+07	 2.45567304E-03	-4.20594320E-03
5.06348173E+07	 2.45199604E-03	-4.20525635E-03
5.06470253E+07	 2.45340878E-03	-4.21068213E-03
5.06592333E+07	 2.45568064E-03	-4.21215923E-03
5.06714414E+07	 2.45167252E-03	-4.21602971E-03
5.06836494E+07	 2.44966674E-03	-4.21560035E-03
5.06958574E+07	 2.44782478E-03	-4.21989519E-03
5.07080654E+07	 2.44578603E-03	-4.22028768E-03
5.07202735E+07	 2.45107810E-03	-4.21982264E-03
5.07324815E+07	 2.44347600E-03	-4.22104170E-03
5.07446895E+07	 2.44124435E-03	-4.22616117E-03
5.07568975E+07	 2.44272613E-03	-4.22473185E-03
5.07691056E+07	 2.44238480E-03	-4.22660918E-03
5.07813136E+07	 2.44055647E-03	-4.23079354E-03
5.07935216E+07	 2.43754756E-03	-4.22612486E-03
5.08057296E+07	 2.44100649E-03	-4.23167709E-03
5.08179377E+07	 2.44025707E-03	-4.22851943E-03
5.08301457E+07	 2.43788826E-03	-4.23812796E-03
5.08423537E+07	 2.43363533E-03	-4.23857258E-03
5.08545617E+07	 2.43438730E-03	-4.23998544E-03
5.08667698E+07	 2.43349324E-03	-4.24093683E-03
5.08789778E+07	 2.43360883E-03	-4.23731083E-03
5.08911858E+07	 2.43157460E-03	-4.23747888E-03
5.09033938E+07	 2.43105514E-03	-4.24586410E-03
5.09156019E+07	 2.42843913E-03	-4.24797206E-03
5.09278099E+07	 2.42969227E-03	-4.25153947E-03
5.09400179E+07	 2.42805971E-03	-4.24708872E-03
5.09522259E+07	 2.42848426E-03	-4.24726277E-03
5.09644340E+07	 2.42016665E-03	-4.24871418E-03
5.09766420E+07	 2.42553408E-03	-4.25289374E-03
5.09888500E+07	 2.42590586E-03	-4.25767089E-03
5.10010580E+07	 2.42683444E-03	-4.25072250E-03
5.10132661E+07	 2.42423840E-03	-4.25778136E-03
5.10254741E+07	 2.42071775E-03	-4.25922112E-03
5.10376821E+07	 2.42496775E-03	-4.26108741E-03
5.10498901E+07	 2.42112776E-03	-4.26209387E-03
5.10620982E+07	 2.41990852E-03	-4.26378605E-03
5.10743062E+07	 2.41716156E-03	-4.26912223E-03
5.10865142E+07	 2.42208779E-03	-4.26420419E-03
5.10987222E+07	 2.41746999E-03	-4.26878482E-03
5.11109303E+07	 2.41607430E-03	-4.26885846E-03
5.11231383E+07	 2.41740485E-03	-4.27439302E-03
5.11353463E+07	 2.41943624E-03	-4.27324996E-03
5.11475543E+07	 2.41623489E-03	-4.27659902E-03
5.11597624E+07	 2.41447745E-03	-4.27437085E-03
5.11719704E+07	 2.41933471E-03	-4.27725728E-03
5.11841784E+07	 2.41364966E-03	-4.28210125E-03
5.11963864E+07	 2.41141215E-03	-4.28177478E-03
5.12085944E+07	 2.41214496E-03	-4.28813380E-03
5.12208025E+07	 2.41230935E-03	-4.28425819E-03
5.12330105E+07	 2.41207382E-03	-4.28840070E-03
5.12452185E+07	 2.41358947E-03	-4.28992248E-03
5.12574265E+07	 2.41323467E-03	-4.28945644E-03
5.12696346E+07	 2.41014909E-03	-4.29214904E-03
5.12818426E+07	 2.40689204E-03	-4.29503617E-03
5.12940506E+07	 2.40451538E-03	-4.29200660E-03
5.13062586E+07	 2.40871249E-03	-4.29581052E-03
5.13184667E+07	 2.40497606E-03	-4.29691836E-03
5.13306747E+07	 2.40720156E-03	-4.29837090E-03
5.13428827E+07	 2.40760009E-03	-4.30407764E-03
5.13550907E+07	 2.41033006E-03	-4.29896087E-03
5.13672988E+07	 2.40528267E-03	-4.30249222E-03
5.13795068E+07	 2.41049792E-03	-4.30833666E-03
5.13917148E+07	 2.40422514E-03	-4.30635824E-03
5.14039228E+07	 2.40503082E-03	-4.31018930E-03
5.14161309E+07	 2.40541988E-03	-4.30780237E-03
5.14283389E+07	 2.40644261E-03	-4.30915747E-03
5.14405469E+07	 2.40349619E-03	-4.31488000E-03
5.14527549E+07	 2.40026238E-03	-4.31790154E-03
5.14649630E+07	 2.39906499E-03	-4.31845857E-03
5.14771710E+07	 2.40368242E-03	-4.31796601E-03
5.14893790E+07	 2.40043046E-03	-4.32082390E-03
5.15015870E+07	 2.40074815E-03	-4.32428719E-03
5.15137951E+07	 2.39546167E-03	-4.32279287E-03
5.15260031E+07	 2.39500242E-03	-4.32250397E-03
5.15382111E+07	 2.39360688E-03	-4.32525316E-03
5.15504191E+07	 2.39797494E-03	-4.32658235E-03
5.15626272E+07	 2.39670925E-03	-4.32719640E-03
5.15748352E+07	 2.39596461E-03	-4.32446743E-03
5.15870432E+07	 2.39409105E-03	-4.33387450E-03
5.15992512E+07	 2.39991491E-03	-4.33634574E-03
5.16114593E+07	 2.39675265E-03	-4.33641803E-03
5.16236673E+07	 2.39453787E-03	-4.33857174E-03
5.16358753E+07	 2.39720306E-03	-4.33624788E-03
5.16480833E+07	 2.39063844E-03	-4.33827798E-03
5.16602914E+07	 2.39015160E-03	-4.34388242E-03
5.16724994E+07	 2.38976809E-03	-4.34029879E-03
5.16847074E+07	 2.38795810E-03	-4.34949474E-03
5.16969154E+07	 2.39092094E-03	-4.34972292E-03
5.17091235E+07	 2.38753923E-03	-4.34871058E-03
5.17213315E+07	 2.38942073E-03	-4.34890047E-03
5.17335395E+07	 2.38051520E-03	-4.35077444E-03
5.17457475E+07	 2.38572647E-03	-4.35625489E-03
5.17579556E+07	 2.38648779E-03	-4.35629745E-03
5.17701636E+07	 2.38568640E-03	-4.35928833E-03
5.17823716E+07	 2.38787619E-03	-4.35982754E-03
5.17945796E+07	 2.38436252E-03	-4.35731448E-03
5.18067877E+07	 2.39001347E-03	-4.36300836E-03
5.18189957E+07	 2.38409118E-03	-4.36157763E-03
5.18312037E+07	 2.38110026E-03	-4.36682412E-03
5.18434117E+07	 2.38233120E-03	-4.36705655E-03
5.18556198E+07	 2.38150034E-03	-4.37210782E-03
5.18678278E+07	 2.38044445E-03	-4.37330830E-03
5.18800358E+07	 2.38203457E-03	-4.36989601E-03
5.18922438E+07	 2.37896319E-03	-4.37331468E-03
5.19044519E+07	 2.37679014E-03	-4.37125111E-03
5.19166599E+07	 2.37539088E-03	-4.37602790E-03
5.19288679E+07	 2.37688117E-03	-4.37744646E-03
5.19410759E+07	 2.37241682E-03	-4.37785521E-03
5.19532840E+07	 2.37521081E-03	-4.38090893E-03
5.19654920E+07	 2.37863617E-03	-4.38407057E-03
5.19777000E+07	 2.37862051E-03	-4.38188217E-03
5.19899080E+07	 2.37491802E-03	-4.38917610E-03
5.20021161E+07	 2.37412301E-03	-4.38012258E-03
5.20143241E+07	 2.37371558E-03	-4.38720246E-03
5.20265321E+07	 2.36996512E-03	-4.38860586E-03
5.20387401E+07	 2.37360441E-03	-4.39198352E-03
5.20509482E+07	 2.37157864E-03	-4.38891875E-03
5.20631562E+07	 2.37382770E-03	-4.40086331E-03
5.20753642E+07	 2.36893305E-03	-4.40107221E-03
5.20875722E+07	 2.36977753E-03	-4.39551318E-03
5.20997803E+07	 2.37079272E-03	-4.40076689E-03
5.21119883E+07	 2.36402800E-03	-4.39770855E-03
5.21241963E+07	 2.36455171E-03	-4.39850112E-03
5.21364043E+07	 2.36600931E-03	-4.40199833E-03
5.21486124E+07	 2.36119305E-03	-4.40024646E-03
5.21608204E+07	 2.35772281E-03	-4.40712352E-03
5.21730284E+07	 2.36368953E-03	-4.41494877E-03
5.21852364E+07	 2.35860371E-03	-4.40648502E-03
5.21974445E+07	 2.35652989E-03	-4.41020845E-03
5.22096525E+07	 2.35705259E-03	-4.41235299E-03
5.22218605E+07	 2.35338257E-03	-4.41004984E-03
5.22340685E+07	 2.36042116E-03	-4.41365101E-03
5.22462766E+07	 2.35389926E-03	-4.41464767E-03
5.22584846E+07	 2.35373711E-03	-4.41618434E-03
5.22706926E+07	 2.35304030E-03	-4.41940669E-03
5.22829006E+07	 2.35297762E-03	-4.41998684E-03
5.22951087E+07	 2.34989429E-03	-4.41908004E-03
5.23073167E+07	 2.35033671E-03	-4.42412316E-03
5.23195247E+07	 2.34801850E-03	-4.42455842E-03
5.23317327E+07	 2.34550184E-03	-4.42380818E-03
5.23439408E+07	 2.34592527E-03	-4.42604158E-03
5.23561488E+07	 2.34674563E-03	-4.43185086E-03
5.23683568E+07	 2.34466402E-03	-4.43194331E-03
5.23805648E+07	 2.33945814E-03	-4.42996602E-03
5.23927728E+07	 2.34046257E-03	-4.43089385E-03
5.24049809E+07	 2.33784513E-03	-4.43645246E-03
5.24171889E+07	 2.33968552E-03	-4.43674085E-03
5.24293969E+07	 2.34001186E-03	-4.43674457E-03
5.24416049E+07	 2.34217055E-03	-4.43868119E-03
5.24538130E+07	 2.33696291E-03	-4.44048524E-03
5.24660210E+07	 2.33700964E-03	-4.44314572E-03
5.24782290E+07	 2.33687427E-03	-4.43673422E-03
5.24904370E+07	 2.33454471E-03	-4.44653077E-03
5.25026451E+07	 2.32676075E-03	-4.45036386E-03
5.25148531E+07	 2.33429913E-03	-4.44661556E-03
5.25270611E+07	 2.33198917E-03	-4.44914336E-03
5.25392691E+07	 2.33150110E-03	-4.44868286E-03
5.25514772E+07	 2.32929211E-03	-4.45206692E-03
5.25636852E+07	 2.33408534E-03	-4.45637834E-03
5.25758932E+07	 2.32982806E-03	-4.45411720E-03
5.25881012E+07	 2.32316388E-03	-4.45762147E-03
5.26003093E+07	 2.32178040E-03	-4.46260545E-03
5.26125173E+07	 2.32268398E-03	-4.45960581E-03
5.26247253E+07	 2.32490041E-03	-4.45995671E-03
5.26369333E+07	 2.32573517E-03	-4.45999429E-03
5.26491414E+07	 2.32742336E-03	-4.46036371E-03
5.26613494E+07	 2.31890123E-03	-4.46655966E-03
5.26735574E+07	 2.32018606E-03	-4.46352025E-03
5.26857654E+07	 2.32128168E-03	-4.47030059E-03
5.26979735E+07	 2.31704431E-03	-4.47013703E-03
5.27101815E+07	 2.31846936E-03	-4.47061269E-03
5.27223895E+07	 2.31634814E-03	-4.47923904E-03
5.27345975E+07	 2.31657853E-03	-4.47129704E-03
5.27468056E+07	 2.31298013E-03	-4.47508396E-03
5.27590136E+07	 2.31436508E-03	-4.47627572E-03
5.27712216E+07	 2.31229334E-03	-4.47558338E-03
5.27834296E+07	 2.30725069E-03	-4.47945589E-03
5.27956377E+07	 2.30962575E-03	-4.48044026E-03
5.28078457E+07	 2.31159602E-03	-4.48081206E-03
5.28200537E+07	 2.30546386E-03	-4.48318384E-03
5.28322617E+07	 2.30427441E-03	-4.48098076E-03
5.28444698E+07	 2.30622864E-03	-4.48627487E-03
5.28566778E+07	 2.30805544E-03	-4.48987391E-03
5.28688858E+07	 2.30147722E-03	-4.48977570E-03
5.28810938E+07	 2.29963151E-03	-4.49240756E-03
5.28933019E+07	 2.30231948E-03	-4.49178938E-03
5.29055099E+07	 2.30752895E-03	-4.49309723E-03
5.29177179E+07	 2.29923438E-03	-4.49576032E-03
5.29299259E+07	 2.30099752E-03	-4.49494621E-03
5.29421340E+07	 2.29136319E-03	-4.49724501E-03
5.29543420E+07	 2.29482277E-03	-4.50135290E-03
5.29665500E+07	 2.29485078E-03	-4.50441237E-03
5.29787580E+07	 2.29365161E-03	-4.49941098E-03
5.29909661E+07	 2.29716504E-03	-4.50575296E-03
5.30031741E+07	 2.29383793E-03	-4.50816865E-03
5.30153821E+07	 2.29412987E-03	-4.50708678E-03
5.30275901E+07	 2.29043859E-03	-4.50961384E-03
5.30397982E+07	 2.29019060E-03	-4.51097674E-03
5.30520062E+07	 2.29165375E-03	-4.51266266E-03
5.30642142E+07	 2.29122061E-03	-4.51263639E-03
5.30764222E+07	 2.28624717E-03	-4.51176305E-03
5.30886303E+07	 2.28611042E-03	-4.51675451E-03
5.31008383E+07	 2.28824228E-03	-4.51912628E-03
5.31130463E+07	 2.28787753E-03	-4.51917429E-03
5.31252543E+07	 2.28417802E-03	-4.52125282E-03
5.31374624E+07	 2.28506624E-03	-4.51697439E-03
5.31496704E+07	 2.28274583E-03	-4.52970229E-03
5.31618784E+07	 2.27943900E-03	-4.52509535E-03
5.31740864E+07	 2.27826936E-03	-4.52578168E-03
5.31862945E+07	 2.28409309E-03	-4.52736583E-03
5.31985025E+07	 2.27762043E-03	-4.52810770E-03
5.32107105E+07	 2.28038861E-03	-4.53025209E-03
5.32229185E+07	 2.27578719E-03	-4.53246615E-03
5.32351266E+07	 2.27548020E-03	-4.53572387E-03
5.32473346E+07	 2.27226975E-03	-4.53148312E-03
5.32595426E+07	 2.27155503E-03	-4.53811183E-03
5.32717506E+07	 2.27656146E-03	-4.53721653E-03
5.32839587E+07	 2.27086553E-03	-4.54274285E-03
5.32961667E+07	 2.27277859E-03	-4.53625522E-03
5.33083747E+07	 2.27090049E-03	-4.54128154E-03
5.33205827E+07	 2.26770579E-03	-4.53576551E-03
5.33327908E+07	 2.26770801E-03	-4.54006253E-03
5.33449988E+07	 2.27204369E-03	-4.54270757E-03
5.33572068E+07	 2.27040204E-03	-4.54636652E-03
5.33694148E+07	 2.26495349E-03	-4.54512539E-03
5.33816229E+07	 2.26633471E-03	-4.54838998E-03
5.33938309E+07	 2.26385238E-03	-4.55382707E-03
5.34060389E+07	 2.26112487E-03	-4.55355090E-03
5.34182469E+07	 2.26570262E-03	-4.55124570E-03
5.34304550E+07	 2.26047179E-03	-4.55322976E-03
5.34426630E+07	 2.26665892E-03	-4.55536938E-03
5.34548710E+07	 2.26076151E-03	-4.55708226E-03
5.34670790E+07	 2.26406783E-03	-4.56051849E-03
5.34792871E+07	 2.25764364E-03	-4.55975144E-03
5.34914951E+07	 2.25944937E-03	-4.55982616E-03
5.35037031E+07	 2.26468085E-03	-4.56185978E-03
5.35159111E+07	 2.25161914E-03	-4.57063458E-03
5.35281192E+07	 2.25776311E-03	-4.56529964E-03
5.35403272E+07	 2.25299822E-03	-4.56714599E-03
5.35525352E+07	 2.25300808E-03	-4.56747462E-03
5.35647432E+07	 2.25294433E-03	-4.57095548E-03
5.35769512E+07	 2.25033162E-03	-4.57159218E-03
5.35891593E+07	 2.25426641E-03	-4.57248434E-03
5.36013673E+07	 2.24490252E-03	-4.57581864E-03
5.36135753E+07	 2.25006868E-03	-4.57211198E-03
5.36257833E+07	 2.25347492E-03	-4.57576249E-03
5.36379914E+07	 2.24925492E-03	-4.57897116E-03
5.36501994E+07	 2.24275149E-03	-4.57943549E-03
5.36624074E+07	 2.24747306E-03	-4.58143090E-03
5.36746154E+07	 2.24450654E-03	-4.58009822E-03
5.36868235E+07	 2.24399706E-03	-4.58682537E-03
5.36990315E+07	 2.24877010E-03	-4.58174331E-03
5.37112395E+07	 2.24158163E-03	-4.58693815E-03
5.37234475E+07	 2.24332651E-03	-4.58774706E-03
5.37356556E+07	 2.23834720E-03	-4.58978233E-03
5.37478636E+07	 2.23654297E-03	-4.59017084E-03
5.37600716E+07	 2.23871599E-03	-4.59075323E-03
5.37722796E+07	 2.23994024E-03	-4.59596871E-03
5.37844877E+07	 2.23870504E-03	-4.59381208E-03
5.37966957E+07	 2.23429976E-03	-4.60063728E-03
5.38089037E+07	 2.23194723E-03	-4.59694203E-03
5.38211117E+07	 2.23003368E-03	-4.60267511E-03
5.38333198E+07	 2.23263521E-03	-4.60076941E-03
5.38455278E+07	 2.23212678E-03	-4.60329853E-03
5.38577358E+07	 2.22948140E-03	-4.60775102E-03
5.38699438E+07	 2.22868176E-03	-4.60422734E-03
5.38821519E+07	 2.23075230E-03	-4.60730376E-03
5.38943599E+07	 2.23262938E-03	-4.60414300E-03
5.39065679E+07	 2.23136443E-03	-4.60727104E-03
5.39187759E+07	 2.22866504E-03	-4.60872582E-03
5.39309840E+07	 2.22627742E-03	-4.61365898E-03
5.39431920E+07	 2.23035773E-03	-4.61495518E-03
5.39554000E+07	 2.22566814E-03	-4.61653538E-03
5.39676080E+07	 2.22696868E-03	-4.61488862E-03
5.39798161E+07	 2.22096931E-03	-4.61661461E-03
5.39920241E+07	 2.22357762E-03	-4.61874334E-03
5.40042321E+07	 2.21764536E-03	-4.61967053E-03
5.40164401E+07	 2.21861142E-03	-4.62905741E-03
5.40286482E+07	 2.21710099E-03	-4.61717240E-03
5.40408562E+07	 2.21666719E-03	-4.62214840E-03
5.40530642E+07	 2.21573499E-03	-4.62963546E-03
5.40652722E+07	 2.21636791E-03	-4.62955672E-03
5.40774803E+07	 2.21559613E-03	-4.63158745E-03
5.40896883E+07	 2.21298511E-03	-4.63501766E-03
5.41018963E+07	 2.21519503E-03	-4.63269998E-03
5.41141043E+07	 2.21475766E-03	-4.63396345E-03
5.41263124E+07	 2.21500315E-03	-4.63763265E-03
5.41385204E+07	 2.20705715E-03	-4.63620150E-03
5.41507284E+07	 2.20942299E-03	-4.63541040E-03
5.41629364E+07	 2.19961985E-03	-4.64081012E-03
5.41751445E+07	 2.20454801E-03	-4.64096201E-03
5.41873525E+07	 2.20370353E-03	-4.64508881E-03
5.41995605E+07	 2.20309520E-03	-4.64816956E-03
5.42117685E+07	 2.20194600E-03	-4.64193492E-03
5.42239766E+07	 2.20325054E-03	-4.64890537E-03
5.42361846E+07	 2.20441070E-03	-4.64927098E-03
5.42483926E+07	 2.19991265E-03	-4.64757296E-03
5.42606006E+07	 2.20069745E-03	-4.65196475E-03
5.42728087E+07	 2.19616164E-03	-4.65677183E-03
5.42850167E+07	 2.19532946E-03	-4.65072321E-03
5.42972247E+07	 2.19420324E-03	-4.65111880E-03
5.43094327E+07	 2.19350313E-03	-4.65492870E-03
5.43216408E+07	 2.19028005E-03	-4.66257255E-03
5.43338488E+07	 2.19161013E-03	-4.65837864E-03
5.43460568E+07	 2.19014698E-03	-4.66199558E-03
5.43582648E+07	 2.19015454E-03	-4.66422094E-03
5.43704729E+07	 2.18842579E-03	-4.66116663E-03
5.43826809E+07	 2.18991152E-03	-4.66252999E-03
5.43948889E+07	 2.18018780E-03	-4.66685066E-03
5.44070969E+07	 2.18761626E-03	-4.66877689E-03
5.44193050E+07	 2.18488656E-03	-4.67100800E-03
5.44315130E+07	 2.18148542E-03	-4.67382280E-03
5.44437210E+07	 2.18214644E-03	-4.67323487E-03
5.44559290E+07	 2.18326987E-03	-4.67377800E-03
5.44681371E+07	 2.17924457E-03	-4.67820123E-03
5.44803451E+07	 2.17374872E-03	-4.67742589E-03
5.44925531E+07	 2.17766179E-03	-4.67403382E-03
5.45047611E+07	 2.17654060E-03	-4.67791066E-03
5.45169692E+07	 2.17391237E-03	-4.68210439E-03
5.45291772E+07	 2.17540499E-03	-4.68201676E-03
5.45413852E+07	 2.17272064E-03	-4.68547849E-03
5.45535932E+07	 2.17340005E-03	-4.68336296E-03
5.45658013E+07	 2.17088231E-03	-4.68428080E-03
5.45780093E+07	 2.17048236E-03	-4.68929674E-03
5.45902173E+07	 2.17117086E-03	-4.69126002E-03
5.46024253E+07	 2.16573073E-03	-4.68747314E-03
5.46146334E+07	 2.16415516E-03	-4.69106369E-03
5.46268414E+07	 2.16694773E-03	-4.69247891E-03
5.46390494E+07	 2.16265949E-03	-4.69547629E-03
5.46512574E+07	 2.15959798E-03	-4.69528154E-03
5.46634655E+07	 2.16301477E-03	-4.69754845E-03
5.46756735E+07	 2.15952062E-03	-4.69843653E-03
5.46878815E+07	 2.15539163E-03	-4.69909470E-03
5.47000895E+07	 2.15721470E-03	-4.70089123E-03
5.47122976E+07	 2.15549497E-03	-4.70088451E-03
5.47245056E+07	 2.15609314E-03	-4.70651566E-03
5.47367136E+07	 2.15595054E-03	-4.70603558E-03
5.47489216E+07	 2.15639362E-03	-4.70577521E-03
5.47611296E+07	 2.15241278E-03	-4.70683883E-03
5.47733377E+07	 2.15091795E-03	-4.71168001E-03
5.47855457E+07	 2.14703557E-03	-4.71194548E-03
5.47977537E+07	 2.14850769E-03	-4.72005571E-03
5.48099617E+07	 2.14716990E-03	-4.71353600E-03
5.48221698E+07	 2.14870405E-03	-4.72004261E-03
5.48343778E+07	 2.14928955E-03	-4.72266501E-03
5.48465858E+07	 2.14177788E-03	-4.71990659E-03
5.48587938E+07	 2.14713964E-03	-4.72261530E-03
5.48710019E+07	 2.14121464E-03	-4.72177203E-03
5.48832099E+07	 2.13981291E-03	-4.72275262E-03
5.48954179E+07	 2.14086876E-03	-4.72606615E-03
5.49076259E+07	 2.14037724E-03	-4.73001349E-03
5.49198340E+07	 2.13778981E-03	-4.72587427E-03
5.49320420E+07	 2.13679588E-03	-4.73077204E-03
5.49442500E+07	 2.13361693E-03	-4.72698017E-03
5.49564580E+07	 2.13384624E-03	-4.73035340E-03
5.49686661E+07	 2.13431907E-03	-4.73220703E-03
5.49808741E+07	 2.13349820E-03	-4.74124466E-03
5.49930821E+07	 2.13437663E-03	-4.73721362E-03
5.50052901E+07	 2.13079796E-03	-4.73758130E-03
5.50174982E+07	 2.12944217E-03	-4.73293103E-03
5.50297062E+07	 2.13260851E-03	-4.74107108E-03
5.50419142E+07	 2.12638998E-03	-4.74569477E-03
5.50541222E+07	 2.12939808E-03	-4.74307209E-03
5.50663303E+07	 2.12818425E-03	-4.74510949E-03
5.50785383E+07	 2.12803881E-03	-4.74702095E-03
5.50907463E+07	 2.12315465E-03	-4.74663399E-03
5.51029543E+07	 2.12542113E-03	-4.75495153E-03
5.51151624E+07	 2.12046140E-03	-4.75346526E-03
5.51273704E+07	 2.11687016E-03	-4.75216327E-03
