! COPPER MOUNTAIN TECHNOLOGIES, PLANAR TR1300/1, 00071119, 20.2.2/1.0
! Date: 12/11/2023 2:59:44 PM
! Data: Format [Calibration Info]
! Freq          	S11: Re/Im F1                  
# HZ S RI R 50
5.00000000E+07	 6.46615293E-03	-9.66458433E-03
5.00122080E+07	 6.46753366E-03	-9.66705221E-03
5.00244160E+07	 6.46464397E-03	-9.66913437E-03
5.00366241E+07	 6.46009021E-03	-9.67508056E-03
5.00488321E+07	 6.45683765E-03	-9.67802293E-03
5.00610401E+07	 6.45735519E-03	-9.67590282E-03
5.00732481E+07	 6.45230247E-03	-9.68154918E-03
5.00854562E+07	 6.44960101E-03	-9.68524334E-03
5.00976642E+07	 6.45125871E-03	-9.68449311E-03
5.01098722E+07	 6.45138073E-03	-9.68992159E-03
5.01220802E+07	 6.44440536E-03	-9.69065853E-03
5.01342883E+07	 6.44307431E-03	-9.69124029E-03
5.01464963E+07	 6.44429084E-03	-9.70242193E-03
5.01587043E+07	 6.43567529E-03	-9.70300964E-03
5.01709123E+07	 6.43430295E-03	-9.70522005E-03
5.01831204E+07	 6.43303848E-03	-9.70396669E-03
5.01953284E+07	 6.43113835E-03	-9.70802234E-03
5.02075364E+07	 6.42787827E-03	-9.70854321E-03
5.02197444E+07	 6.42610621E-03	-9.71585605E-03
5.02319525E+07	 6.42480658E-03	-9.71491404E-03
5.02441605E+07	 6.42398797E-03	-9.71903794E-03
5.02563685E+07	 6.41768180E-03	-9.71971898E-03
5.02685765E+07	 6.41723256E-03	-9.72875725E-03
5.02807846E+07	 6.41536387E-03	-9.72875401E-03
5.02929926E+07	 6.40898195E-03	-9.72743561E-03
5.03052006E+07	 6.41019090E-03	-9.73100239E-03
5.03174086E+07	 6.40939032E-03	-9.73993702E-03
5.03296167E+07	 6.40438531E-03	-9.73815212E-03
5.03418247E+07	 6.40445489E-03	-9.74015813E-03
5.03540327E+07	 6.40057123E-03	-9.74524314E-03
5.03662407E+07	 6.39964592E-03	-9.74796644E-03
5.03784488E+07	 6.39817167E-03	-9.75026551E-03
5.03906568E+07	 6.39297475E-03	-9.74609275E-03
5.04028648E+07	 6.39048673E-03	-9.75592871E-03
5.04150728E+07	 6.38933967E-03	-9.75922611E-03
5.04272809E+07	 6.38348717E-03	-9.75587351E-03
5.04394889E+07	 6.37993769E-03	-9.76164066E-03
5.04516969E+07	 6.38038992E-03	-9.76652331E-03
5.04639049E+07	 6.37991875E-03	-9.76892592E-03
5.04761130E+07	 6.37496948E-03	-9.77007369E-03
5.04883210E+07	 6.37191209E-03	-9.77327114E-03
5.05005290E+07	 6.36950088E-03	-9.77884154E-03
5.05127370E+07	 6.37457654E-03	-9.77727466E-03
5.05249451E+07	 6.36477708E-03	-9.78088752E-03
5.05371531E+07	 6.36491491E-03	-9.78295279E-03
5.05493611E+07	 6.36320551E-03	-9.78692756E-03
5.05615691E+07	 6.35662773E-03	-9.79017720E-03
5.05737772E+07	 6.35843619E-03	-9.79018620E-03
5.05859852E+07	 6.35454244E-03	-9.79359627E-03
5.05981932E+07	 6.35223531E-03	-9.79775602E-03
5.06104012E+07	 6.34609007E-03	-9.79900585E-03
5.06226093E+07	 6.34966133E-03	-9.80274384E-03
5.06348173E+07	 6.34188304E-03	-9.80478127E-03
5.06470253E+07	 6.33998216E-03	-9.81009939E-03
5.06592333E+07	 6.34491972E-03	-9.80930172E-03
5.06714414E+07	 6.33870896E-03	-9.81433890E-03
5.06836494E+07	 6.33359603E-03	-9.81618104E-03
5.06958574E+07	 6.33211290E-03	-9.82194133E-03
5.07080654E+07	 6.33054265E-03	-9.82393645E-03
5.07202735E+07	 6.32923072E-03	-9.82638222E-03
5.07324815E+07	 6.32475581E-03	-9.82540496E-03
5.07446895E+07	 6.32123547E-03	-9.83233540E-03
5.07568975E+07	 6.32240323E-03	-9.83343913E-03
5.07691056E+07	 6.31797867E-03	-9.83477495E-03
5.07813136E+07	 6.31606270E-03	-9.83996952E-03
5.07935216E+07	 6.30830639E-03	-9.83847814E-03
5.08057296E+07	 6.31550505E-03	-9.84409745E-03
5.08179377E+07	 6.31620234E-03	-9.84353082E-03
5.08301457E+07	 6.31024884E-03	-9.85169502E-03
5.08423537E+07	 6.30307461E-03	-9.85570019E-03
5.08545617E+07	 6.30295508E-03	-9.85385907E-03
5.08667698E+07	 6.29962076E-03	-9.85726722E-03
5.08789778E+07	 6.29818192E-03	-9.85792178E-03
5.08911858E+07	 6.29659150E-03	-9.86463537E-03
5.09033938E+07	 6.29048376E-03	-9.86930189E-03
5.09156019E+07	 6.29030632E-03	-9.87079058E-03
5.09278099E+07	 6.28797971E-03	-9.87363592E-03
5.09400179E+07	 6.28809765E-03	-9.87026975E-03
5.09522259E+07	 6.28288348E-03	-9.87312666E-03
5.09644340E+07	 6.27882474E-03	-9.87749153E-03
5.09766420E+07	 6.27838659E-03	-9.88108461E-03
5.09888500E+07	 6.27592489E-03	-9.88847660E-03
5.10010580E+07	 6.27887866E-03	-9.88264251E-03
5.10132661E+07	 6.27126037E-03	-9.88905681E-03
5.10254741E+07	 6.26620238E-03	-9.89337159E-03
5.10376821E+07	 6.27080603E-03	-9.89371550E-03
5.10498901E+07	 6.26026967E-03	-9.89820379E-03
5.10620982E+07	 6.26234796E-03	-9.89675937E-03
5.10743062E+07	 6.25611875E-03	-9.90283799E-03
5.10865142E+07	 6.25973860E-03	-9.90290661E-03
5.10987222E+07	 6.25976500E-03	-9.90703386E-03
5.11109303E+07	 6.25088522E-03	-9.91081545E-03
5.11231383E+07	 6.25845093E-03	-9.91392663E-03
5.11353463E+07	 6.25043956E-03	-9.91376925E-03
5.11475543E+07	 6.25088999E-03	-9.92290268E-03
5.11597624E+07	 6.24665538E-03	-9.92230876E-03
5.11719704E+07	 6.25010335E-03	-9.92358614E-03
5.11841784E+07	 6.24807148E-03	-9.92845601E-03
5.11963864E+07	 6.24009501E-03	-9.92862312E-03
5.12085944E+07	 6.23831051E-03	-9.93571873E-03
5.12208025E+07	 6.23744888E-03	-9.93714600E-03
5.12330105E+07	 6.23743533E-03	-9.93887816E-03
5.12452185E+07	 6.23890881E-03	-9.94265597E-03
5.12574265E+07	 6.23046231E-03	-9.94578587E-03
5.12696346E+07	 6.23021517E-03	-9.94648530E-03
5.12818426E+07	 6.22817125E-03	-9.95137949E-03
5.12940506E+07	 6.22565301E-03	-9.95010412E-03
5.13062586E+07	 6.22215706E-03	-9.95446873E-03
5.13184667E+07	 6.21861798E-03	-9.95649000E-03
5.13306747E+07	 6.21773792E-03	-9.96147920E-03
5.13428827E+07	 6.21750387E-03	-9.96211893E-03
5.13550907E+07	 6.21782240E-03	-9.96287239E-03
5.13672988E+07	 6.21471801E-03	-9.97130289E-03
5.13795068E+07	 6.21839637E-03	-9.97108859E-03
5.13917148E+07	 6.20911043E-03	-9.97021189E-03
5.14039228E+07	 6.20894396E-03	-9.97729168E-03
5.14161309E+07	 6.20640227E-03	-9.97894557E-03
5.14283389E+07	 6.20718371E-03	-9.98512586E-03
5.14405469E+07	 6.20359929E-03	-9.98359311E-03
5.14527549E+07	 6.20222142E-03	-9.98783544E-03
5.14649630E+07	 6.19849201E-03	-9.99107481E-03
5.14771710E+07	 6.19472079E-03	-9.99450976E-03
5.14893790E+07	 6.20010110E-03	-9.99678601E-03
5.15015870E+07	 6.19425733E-03	-1.00022325E-02
5.15137951E+07	 6.19294749E-03	-9.99966038E-03
5.15260031E+07	 6.18524388E-03	-1.00047498E-02
5.15382111E+07	 6.19006809E-03	-1.00071821E-02
5.15504191E+07	 6.18389327E-03	-1.00049335E-02
5.15626272E+07	 6.18001630E-03	-1.00102980E-02
5.15748352E+07	 6.17717451E-03	-1.00106382E-02
5.15870432E+07	 6.17737462E-03	-1.00169575E-02
5.15992512E+07	 6.17786463E-03	-1.00230403E-02
5.16114593E+07	 6.17526011E-03	-1.00171002E-02
5.16236673E+07	 6.17259460E-03	-1.00236782E-02
5.16358753E+07	 6.17305170E-03	-1.00302234E-02
5.16480833E+07	 6.16457460E-03	-1.00291960E-02
5.16602914E+07	 6.16997433E-03	-1.00374499E-02
5.16724994E+07	 6.16335423E-03	-1.00345147E-02
5.16847074E+07	 6.16109795E-03	-1.00379932E-02
5.16969154E+07	 6.16121186E-03	-1.00422784E-02
5.17091235E+07	 6.15641037E-03	-1.00458682E-02
5.17213315E+07	 6.15567870E-03	-1.00441031E-02
5.17335395E+07	 6.15201351E-03	-1.00511188E-02
5.17457475E+07	 6.15115598E-03	-1.00569611E-02
5.17579556E+07	 6.14904205E-03	-1.00559478E-02
5.17701636E+07	 6.14925803E-03	-1.00586110E-02
5.17823716E+07	 6.14841418E-03	-1.00614703E-02
5.17945796E+07	 6.14786035E-03	-1.00630661E-02
5.18067877E+07	 6.14646164E-03	-1.00671896E-02
5.18189957E+07	 6.14471963E-03	-1.00683966E-02
5.18312037E+07	 6.13785089E-03	-1.00731681E-02
5.18434117E+07	 6.13211695E-03	-1.00732296E-02
5.18556198E+07	 6.13842494E-03	-1.00781299E-02
5.18678278E+07	 6.13176030E-03	-1.00850078E-02
5.18800358E+07	 6.13175168E-03	-1.00764375E-02
5.18922438E+07	 6.12904365E-03	-1.00872788E-02
5.19044519E+07	 6.12393266E-03	-1.00851021E-02
5.19166599E+07	 6.11870605E-03	-1.00875965E-02
5.19288679E+07	 6.12590396E-03	-1.00907157E-02
5.19410759E+07	 6.11619449E-03	-1.00962621E-02
5.19532840E+07	 6.11946307E-03	-1.00978055E-02
5.19654920E+07	 6.11916100E-03	-1.01028408E-02
5.19777000E+07	 6.11519787E-03	-1.01014028E-02
5.19899080E+07	 6.11135835E-03	-1.01089104E-02
5.20021161E+07	 6.11099130E-03	-1.01056002E-02
5.20143241E+07	 6.10931820E-03	-1.01134184E-02
5.20265321E+07	 6.10603452E-03	-1.01145306E-02
5.20387401E+07	 6.10400522E-03	-1.01159834E-02
5.20509482E+07	 6.10038756E-03	-1.01185278E-02
5.20631562E+07	 6.10155016E-03	-1.01264305E-02
5.20753642E+07	 6.09595363E-03	-1.01292554E-02
5.20875722E+07	 6.09392552E-03	-1.01247529E-02
5.20997803E+07	 6.09549869E-03	-1.01298283E-02
5.21119883E+07	 6.08772811E-03	-1.01309044E-02
5.21241963E+07	 6.08385208E-03	-1.01357279E-02
5.21364043E+07	 6.08660903E-03	-1.01399753E-02
5.21486124E+07	 6.08171857E-03	-1.01389513E-02
5.21608204E+07	 6.08055822E-03	-1.01418533E-02
5.21730284E+07	 6.07837471E-03	-1.01502839E-02
5.21852364E+07	 6.07585191E-03	-1.01471789E-02
5.21974445E+07	 6.06983728E-03	-1.01493906E-02
5.22096525E+07	 6.07144729E-03	-1.01515485E-02
5.22218605E+07	 6.06856804E-03	-1.01513373E-02
5.22340685E+07	 6.06427997E-03	-1.01554542E-02
5.22462766E+07	 6.06407432E-03	-1.01600282E-02
5.22584846E+07	 6.06036813E-03	-1.01600570E-02
5.22706926E+07	 6.06314286E-03	-1.01656161E-02
5.22829006E+07	 6.05350192E-03	-1.01674568E-02
5.22951087E+07	 6.05459652E-03	-1.01731342E-02
5.23073167E+07	 6.05159741E-03	-1.01732374E-02
5.23195247E+07	 6.04895756E-03	-1.01786634E-02
5.23317327E+07	 6.04677970E-03	-1.01729299E-02
5.23439408E+07	 6.04734905E-03	-1.01774549E-02
5.23561488E+07	 6.04328634E-03	-1.01867105E-02
5.23683568E+07	 6.04179945E-03	-1.01897621E-02
5.23805648E+07	 6.03354312E-03	-1.01879823E-02
5.23927728E+07	 6.03616559E-03	-1.01919262E-02
5.24049809E+07	 6.02842051E-03	-1.01934329E-02
5.24171889E+07	 6.03065426E-03	-1.01946870E-02
5.24293969E+07	 6.02653501E-03	-1.01980943E-02
5.24416049E+07	 6.02938881E-03	-1.01994356E-02
5.24538130E+07	 6.02045858E-03	-1.02038209E-02
5.24660210E+07	 6.01791846E-03	-1.02060269E-02
5.24782290E+07	 6.01646003E-03	-1.01992588E-02
5.24904370E+07	 6.01684925E-03	-1.02091908E-02
5.25026451E+07	 6.00538359E-03	-1.02158492E-02
5.25148531E+07	 6.00837846E-03	-1.02161861E-02
5.25270611E+07	 6.00488647E-03	-1.02148691E-02
5.25392691E+07	 6.00519455E-03	-1.02207012E-02
5.25514772E+07	 5.99956870E-03	-1.02221200E-02
5.25636852E+07	 6.00372331E-03	-1.02261130E-02
5.25758932E+07	 6.00154601E-03	-1.02261299E-02
5.25881012E+07	 5.99397259E-03	-1.02319539E-02
5.26003093E+07	 5.98902674E-03	-1.02398335E-02
5.26125173E+07	 5.98742528E-03	-1.02344131E-02
5.26247253E+07	 5.99064399E-03	-1.02395091E-02
5.26369333E+07	 5.98882556E-03	-1.02358550E-02
5.26491414E+07	 5.98786336E-03	-1.02433564E-02
5.26613494E+07	 5.97978267E-03	-1.02458923E-02
5.26735574E+07	 5.97889480E-03	-1.02512783E-02
5.26857654E+07	 5.97955440E-03	-1.02518657E-02
5.26979735E+07	 5.97316851E-03	-1.02551997E-02
5.27101815E+07	 5.97570522E-03	-1.02587321E-02
5.27223895E+07	 5.97031943E-03	-1.02638279E-02
5.27345975E+07	 5.96540577E-03	-1.02566926E-02
5.27468056E+07	 5.96337825E-03	-1.02642542E-02
5.27590136E+07	 5.96183893E-03	-1.02656597E-02
5.27712216E+07	 5.95950990E-03	-1.02676794E-02
5.27834296E+07	 5.95468736E-03	-1.02700969E-02
5.27956377E+07	 5.95283244E-03	-1.02708962E-02
5.28078457E+07	 5.95183749E-03	-1.02743288E-02
5.28200537E+07	 5.95013413E-03	-1.02770796E-02
5.28322617E+07	 5.94537112E-03	-1.02791869E-02
5.28444698E+07	 5.94415551E-03	-1.02852672E-02
5.28566778E+07	 5.94614843E-03	-1.02874232E-02
5.28688858E+07	 5.93688841E-03	-1.02846388E-02
5.28810938E+07	 5.93729402E-03	-1.02920181E-02
5.28933019E+07	 5.93624182E-03	-1.02913775E-02
5.29055099E+07	 5.93960273E-03	-1.02965144E-02
5.29177179E+07	 5.92798912E-03	-1.02967520E-02
5.29299259E+07	 5.93073627E-03	-1.02990515E-02
5.29421340E+07	 5.91921608E-03	-1.02994040E-02
5.29543420E+07	 5.92285534E-03	-1.03053520E-02
5.29665500E+07	 5.91808537E-03	-1.03069959E-02
5.29787580E+07	 5.91757101E-03	-1.03101191E-02
5.29909661E+07	 5.91726328E-03	-1.03165749E-02
5.30031741E+07	 5.91409254E-03	-1.03215994E-02
5.30153821E+07	 5.91169879E-03	-1.03193490E-02
5.30275901E+07	 5.90889926E-03	-1.03218877E-02
5.30397982E+07	 5.90869982E-03	-1.03245680E-02
5.30520062E+07	 5.90964330E-03	-1.03247993E-02
5.30642142E+07	 5.90484906E-03	-1.03285435E-02
5.30764222E+07	 5.90038093E-03	-1.03266891E-02
5.30886303E+07	 5.89541518E-03	-1.03368520E-02
5.31008383E+07	 5.89714899E-03	-1.03366136E-02
5.31130463E+07	 5.89316830E-03	-1.03397176E-02
5.31252543E+07	 5.88905800E-03	-1.03383862E-02
5.31374624E+07	 5.89234839E-03	-1.03427199E-02
5.31496704E+07	 5.88790912E-03	-1.03495157E-02
5.31618784E+07	 5.88134410E-03	-1.03518660E-02
5.31740864E+07	 5.88132481E-03	-1.03509674E-02
5.31862945E+07	 5.87723826E-03	-1.03519964E-02
5.31985025E+07	 5.87725119E-03	-1.03545766E-02
5.32107105E+07	 5.87595154E-03	-1.03605128E-02
5.32229185E+07	 5.87453818E-03	-1.03613276E-02
5.32351266E+07	 5.86964157E-03	-1.03666536E-02
5.32473346E+07	 5.86664208E-03	-1.03632032E-02
5.32595426E+07	 5.86361542E-03	-1.03706435E-02
5.32717506E+07	 5.86613238E-03	-1.03683663E-02
5.32839587E+07	 5.85953373E-03	-1.03706553E-02
5.32961667E+07	 5.85968054E-03	-1.03745707E-02
5.33083747E+07	 5.85458031E-03	-1.03793799E-02
5.33205827E+07	 5.85274476E-03	-1.03789722E-02
5.33327908E+07	 5.84829218E-03	-1.03847265E-02
5.33449988E+07	 5.84587006E-03	-1.03828716E-02
5.33572068E+07	 5.85077660E-03	-1.03869664E-02
5.33694148E+07	 5.84021063E-03	-1.03891590E-02
5.33816229E+07	 5.84129502E-03	-1.03921056E-02
5.33938309E+07	 5.83654048E-03	-1.03991742E-02
5.34060389E+07	 5.83828500E-03	-1.03969976E-02
5.34182469E+07	 5.83981472E-03	-1.04009890E-02
5.34304550E+07	 5.83281383E-03	-1.04013770E-02
5.34426630E+07	 5.83524589E-03	-1.04031979E-02
5.34548710E+07	 5.82963732E-03	-1.04085961E-02
5.34670790E+07	 5.82467939E-03	-1.04081262E-02
5.34792871E+07	 5.82445084E-03	-1.04136196E-02
5.34914951E+07	 5.82286929E-03	-1.04127553E-02
5.35037031E+07	 5.82129301E-03	-1.04154004E-02
5.35159111E+07	 5.81587394E-03	-1.04222452E-02
5.35281192E+07	 5.81806743E-03	-1.04213143E-02
5.35403272E+07	 5.80957795E-03	-1.04260649E-02
5.35525352E+07	 5.81016921E-03	-1.04267936E-02
5.35647432E+07	 5.80625418E-03	-1.04355930E-02
5.35769512E+07	 5.80134554E-03	-1.04351555E-02
5.35891593E+07	 5.80481975E-03	-1.04322008E-02
5.36013673E+07	 5.79902655E-03	-1.04397143E-02
5.36135753E+07	 5.79530607E-03	-1.04376591E-02
5.36257833E+07	 5.79538033E-03	-1.04421351E-02
5.36379914E+07	 5.79188651E-03	-1.04442537E-02
5.36501994E+07	 5.78717645E-03	-1.04471112E-02
5.36624074E+07	 5.78913210E-03	-1.04501186E-02
5.36746154E+07	 5.78498073E-03	-1.04504901E-02
5.36868235E+07	 5.78070857E-03	-1.04568416E-02
5.36990315E+07	 5.78368760E-03	-1.04535802E-02
5.37112395E+07	 5.77871605E-03	-1.04639442E-02
5.37234475E+07	 5.77948378E-03	-1.04632787E-02
5.37356556E+07	 5.77383125E-03	-1.04668304E-02
5.37478636E+07	 5.77323168E-03	-1.04680471E-02
5.37600716E+07	 5.76552271E-03	-1.04662938E-02
5.37722796E+07	 5.76624622E-03	-1.04732000E-02
5.37844877E+07	 5.76832596E-03	-1.04722011E-02
5.37966957E+07	 5.76335101E-03	-1.04783186E-02
5.38089037E+07	 5.75768260E-03	-1.04779687E-02
5.38211117E+07	 5.75944271E-03	-1.04852932E-02
5.38333198E+07	 5.75260450E-03	-1.04823133E-02
5.38455278E+07	 5.75293263E-03	-1.04853221E-02
5.38577358E+07	 5.75211551E-03	-1.04910280E-02
5.38699438E+07	 5.74768938E-03	-1.04891602E-02
5.38821519E+07	 5.74621514E-03	-1.04910081E-02
5.38943599E+07	 5.74464937E-03	-1.04962488E-02
5.39065679E+07	 5.74353005E-03	-1.04974582E-02
5.39187759E+07	 5.74102647E-03	-1.05009333E-02
5.39309840E+07	 5.73153487E-03	-1.05027265E-02
5.39431920E+07	 5.73578280E-03	-1.05058163E-02
5.39554000E+07	 5.73197074E-03	-1.05090231E-02
5.39676080E+07	 5.72989217E-03	-1.05089215E-02
5.39798161E+07	 5.72852201E-03	-1.05156081E-02
5.39920241E+07	 5.72379752E-03	-1.05136978E-02
5.40042321E+07	 5.72038270E-03	-1.05159077E-02
5.40164401E+07	 5.72112644E-03	-1.05223728E-02
5.40286482E+07	 5.71482601E-03	-1.05223649E-02
5.40408562E+07	 5.71561339E-03	-1.05214214E-02
5.40530642E+07	 5.71276050E-03	-1.05292077E-02
5.40652722E+07	 5.70784494E-03	-1.05345367E-02
5.40774803E+07	 5.70840700E-03	-1.05287264E-02
5.40896883E+07	 5.70677090E-03	-1.05391858E-02
5.41018963E+07	 5.70279883E-03	-1.05379075E-02
5.41141043E+07	 5.70138877E-03	-1.05361959E-02
5.41263124E+07	 5.70293659E-03	-1.05453559E-02
5.41385204E+07	 5.69130468E-03	-1.05454035E-02
5.41507284E+07	 5.69503154E-03	-1.05462744E-02
5.41629364E+07	 5.68823869E-03	-1.05500798E-02
5.41751445E+07	 5.68460333E-03	-1.05534154E-02
5.41873525E+07	 5.68512230E-03	-1.05540053E-02
5.41995605E+07	 5.68274681E-03	-1.05591757E-02
5.42117685E+07	 5.68088296E-03	-1.05564432E-02
5.42239766E+07	 5.67796465E-03	-1.05613617E-02
5.42361846E+07	 5.67426911E-03	-1.05637469E-02
5.42483926E+07	 5.67509052E-03	-1.05679135E-02
5.42606006E+07	 5.66860434E-03	-1.05697137E-02
5.42728087E+07	 5.66844473E-03	-1.05761930E-02
5.42850167E+07	 5.66170256E-03	-1.05735725E-02
5.42972247E+07	 5.66336157E-03	-1.05767834E-02
5.43094327E+07	 5.65789954E-03	-1.05768903E-02
5.43216408E+07	 5.65102297E-03	-1.05860400E-02
5.43338488E+07	 5.65412256E-03	-1.05849657E-02
5.43460568E+07	 5.65284468E-03	-1.05884053E-02
5.43582648E+07	 5.65141112E-03	-1.05882164E-02
5.43704729E+07	 5.64943759E-03	-1.05886617E-02
5.43826809E+07	 5.64513084E-03	-1.05887325E-02
5.43948889E+07	 5.64019345E-03	-1.05959959E-02
5.44070969E+07	 5.63810683E-03	-1.06011679E-02
5.44193050E+07	 5.63555564E-03	-1.06014820E-02
5.44315130E+07	 5.63158707E-03	-1.06046533E-02
5.44437210E+07	 5.62760270E-03	-1.06089690E-02
5.44559290E+07	 5.63134526E-03	-1.06091046E-02
5.44681371E+07	 5.62249362E-03	-1.06138082E-02
5.44803451E+07	 5.61801354E-03	-1.06101329E-02
5.44925531E+07	 5.61905984E-03	-1.06145225E-02
5.45047611E+07	 5.62336251E-03	-1.06176720E-02
5.45169692E+07	 5.61494708E-03	-1.06233575E-02
5.45291772E+07	 5.61675237E-03	-1.06218328E-02
5.45413852E+07	 5.60939488E-03	-1.06253018E-02
5.45535932E+07	 5.60480827E-03	-1.06276400E-02
5.45658013E+07	 5.60370805E-03	-1.06304695E-02
5.45780093E+07	 5.59846405E-03	-1.06340418E-02
5.45902173E+07	 5.59848971E-03	-1.06347576E-02
5.46024253E+07	 5.59513024E-03	-1.06346152E-02
5.46146334E+07	 5.58962455E-03	-1.06396621E-02
5.46268414E+07	 5.59014589E-03	-1.06396813E-02
5.46390494E+07	 5.58900796E-03	-1.06458415E-02
5.46512574E+07	 5.58391109E-03	-1.06478359E-02
5.46634655E+07	 5.58259762E-03	-1.06492960E-02
5.46756735E+07	 5.57868286E-03	-1.06499094E-02
5.46878815E+07	 5.57685631E-03	-1.06532604E-02
5.47000895E+07	 5.57570984E-03	-1.06577295E-02
5.47122976E+07	 5.57209233E-03	-1.06554695E-02
5.47245056E+07	 5.57214221E-03	-1.06617779E-02
5.47367136E+07	 5.56993369E-03	-1.06648527E-02
5.47489216E+07	 5.56658174E-03	-1.06679773E-02
5.47611296E+07	 5.56053633E-03	-1.06661150E-02
5.47733377E+07	 5.56007350E-03	-1.06686776E-02
5.47855457E+07	 5.55800354E-03	-1.06771179E-02
5.47977537E+07	 5.55477332E-03	-1.06787879E-02
5.48099617E+07	 5.55057739E-03	-1.06797305E-02
5.48221698E+07	 5.55212259E-03	-1.06812241E-02
5.48343778E+07	 5.55011159E-03	-1.06841381E-02
5.48465858E+07	 5.54470317E-03	-1.06863839E-02
5.48587938E+07	 5.54404194E-03	-1.06893104E-02
5.48710019E+07	 5.53697910E-03	-1.06915575E-02
5.48832099E+07	 5.53388697E-03	-1.06893906E-02
5.48954179E+07	 5.53481723E-03	-1.06994309E-02
5.49076259E+07	 5.53140742E-03	-1.06980620E-02
5.49198340E+07	 5.52882143E-03	-1.07035822E-02
5.49320420E+07	 5.52738484E-03	-1.07005202E-02
5.49442500E+07	 5.52175832E-03	-1.07030882E-02
5.49564580E+07	 5.52154512E-03	-1.07059375E-02
5.49686661E+07	 5.51880822E-03	-1.07098822E-02
5.49808741E+07	 5.51395204E-03	-1.07171910E-02
5.49930821E+07	 5.51573912E-03	-1.07148629E-02
5.50052901E+07	 5.51353442E-03	-1.07163371E-02
5.50174982E+07	 5.50809048E-03	-1.07160653E-02
5.50297062E+07	 5.50619280E-03	-1.07227194E-02
5.50419142E+07	 5.50501243E-03	-1.07294060E-02
5.50541222E+07	 5.50556229E-03	-1.07295182E-02
5.50663303E+07	 5.49948290E-03	-1.07297925E-02
5.50785383E+07	 5.49975551E-03	-1.07353397E-02
5.50907463E+07	 5.49125030E-03	-1.07346993E-02
5.51029543E+07	 5.48972607E-03	-1.07426967E-02
5.51151624E+07	 5.48925149E-03	-1.07433830E-02
5.51273704E+07	 5.48686034E-03	-1.07444015E-02
