! COPPER MOUNTAIN TECHNOLOGIES, PLANAR TR1300/1, 00071119, 20.2.2/1.0
! Date: 12/11/2023 3:40:11 PM
! Data: Format [Calibration Info]
! Freq          	S11: Re/Im F1                  
# HZ S RI R 50
5.00000000E+07	-2.21927132E-02	 9.51723241E-03
5.00122080E+07	-2.22839720E-02	 9.37499874E-03
5.00244160E+07	-2.22947819E-02	 9.76859006E-03
5.00366241E+07	-2.23005958E-02	 9.49020080E-03
5.00488321E+07	-2.23869547E-02	 9.31560565E-03
5.00610401E+07	-2.23964651E-02	 9.57899859E-03
5.00732481E+07	-2.22715902E-02	 9.41847314E-03
5.00854562E+07	-2.23478057E-02	 9.58278125E-03
5.00976642E+07	-2.24290589E-02	 9.66841043E-03
5.01098722E+07	-2.22250972E-02	 9.32839786E-03
5.01220802E+07	-2.22229695E-02	 9.65490122E-03
5.01342883E+07	-2.20904983E-02	 9.56980899E-03
5.01464963E+07	-2.26026137E-02	 9.39780589E-03
5.01587043E+07	-2.24514224E-02	 9.57372976E-03
5.01709123E+07	-2.21371191E-02	 9.65540020E-03
5.01831204E+07	-2.22644944E-02	 9.49237365E-03
5.01953284E+07	-2.24523017E-02	 9.54471218E-03
5.02075364E+07	-2.23026339E-02	 9.52531449E-03
5.02197444E+07	-2.22428820E-02	 9.42141365E-03
5.02319525E+07	-2.22704955E-02	 9.52697420E-03
5.02441605E+07	-2.23438020E-02	 9.73589482E-03
5.02563685E+07	-2.21993121E-02	 9.57852548E-03
5.02685765E+07	-2.25605738E-02	 9.65935324E-03
5.02807846E+07	-2.22382014E-02	 9.61987031E-03
5.02929926E+07	-2.21911433E-02	 9.36812782E-03
5.03052006E+07	-2.25003286E-02	 9.82477579E-03
5.03174086E+07	-2.19186120E-02	 9.51361461E-03
5.03296167E+07	-2.22980889E-02	 9.57303966E-03
5.03418247E+07	-2.20272053E-02	 9.79026193E-03
5.03540327E+07	-2.23769939E-02	 9.48831891E-03
5.03662407E+07	-2.23916981E-02	 9.65089279E-03
5.03784488E+07	-2.21186416E-02	 9.58618885E-03
5.03906568E+07	-2.20284143E-02	 9.59096432E-03
5.04028648E+07	-2.19664692E-02	 9.62930658E-03
5.04150728E+07	-2.21174231E-02	 9.91597238E-03
5.04272809E+07	-2.24003015E-02	 9.63058147E-03
5.04394889E+07	-2.21997272E-02	 9.71240204E-03
5.04516969E+07	-2.22942208E-02	 9.53724763E-03
5.04639049E+07	-2.19991087E-02	 9.61601387E-03
5.04761130E+07	-2.20974958E-02	 9.72117826E-03
5.04883210E+07	-2.22845923E-02	 9.69941179E-03
5.05005290E+07	-2.21680542E-02	 9.78046091E-03
5.05127370E+07	-2.21230380E-02	 9.61926398E-03
5.05249451E+07	-2.21484206E-02	 9.62129696E-03
5.05371531E+07	-2.21125937E-02	 9.76588504E-03
5.05493611E+07	-2.19104858E-02	 9.69026080E-03
5.05615691E+07	-2.24900870E-02	 9.67847348E-03
5.05737772E+07	-2.23357446E-02	 9.46418979E-03
5.05859852E+07	-2.21560744E-02	 9.75653848E-03
5.05981932E+07	-2.19680123E-02	 9.49800000E-03
5.06104012E+07	-2.19395382E-02	 9.42043334E-03
5.06226093E+07	-2.18400567E-02	 9.84172979E-03
5.06348173E+07	-2.20242021E-02	 9.65592708E-03
5.06470253E+07	-2.22917217E-02	 9.55856948E-03
5.06592333E+07	-2.22166668E-02	 9.62775331E-03
5.06714414E+07	-2.20535315E-02	 9.78899068E-03
5.06836494E+07	-2.22803764E-02	 9.62229429E-03
5.06958574E+07	-2.20671995E-02	 9.79068313E-03
5.07080654E+07	-2.22543596E-02	 9.71832229E-03
5.07202735E+07	-2.23613261E-02	 9.64661355E-03
5.07324815E+07	-2.19706148E-02	 9.66508236E-03
5.07446895E+07	-2.19919346E-02	 9.72698608E-03
5.07568975E+07	-2.20085052E-02	 9.95241163E-03
5.07691056E+07	-2.19609298E-02	 9.82633928E-03
5.07813136E+07	-2.22733579E-02	 9.74946037E-03
5.07935216E+07	-2.20416515E-02	 9.76157202E-03
5.08057296E+07	-2.19628878E-02	 9.66464342E-03
5.08179377E+07	-2.21190396E-02	 9.81155360E-03
5.08301457E+07	-2.20402476E-02	 9.75209095E-03
5.08423537E+07	-2.18556265E-02	 9.75377850E-03
5.08545617E+07	-2.19888678E-02	 9.82867991E-03
5.08667698E+07	-2.19696188E-02	 9.79411459E-03
5.08789778E+07	-2.20873959E-02	 9.94557483E-03
5.08911858E+07	-2.18315643E-02	 9.96701992E-03
5.09033938E+07	-2.21145934E-02	 9.84177361E-03
5.09156019E+07	-2.18982365E-02	 9.58762237E-03
5.09278099E+07	-2.22050020E-02	 9.84546989E-03
5.09400179E+07	-2.19197211E-02	 9.73274836E-03
5.09522259E+07	-2.19271100E-02	 9.42906412E-03
5.09644340E+07	-2.19335163E-02	 9.99241738E-03
5.09766420E+07	-2.19059221E-02	 9.98165772E-03
5.09888500E+07	-2.20991209E-02	 9.85310907E-03
5.10010580E+07	-2.18149648E-02	 9.73044415E-03
5.10132661E+07	-2.20857969E-02	 9.86535397E-03
5.10254741E+07	-2.20780236E-02	 9.81383880E-03
5.10376821E+07	-2.19765218E-02	 9.68828186E-03
5.10498901E+07	-2.20024190E-02	 9.85618000E-03
5.10620982E+07	-2.18421332E-02	 9.85066400E-03
5.10743062E+07	-2.20969986E-02	 9.93221810E-03
5.10865142E+07	-2.21352375E-02	 9.83945385E-03
5.10987222E+07	-2.18190709E-02	 1.00415548E-02
5.11109303E+07	-2.18710315E-02	 9.95518343E-03
5.11231383E+07	-2.19347412E-02	 9.95140643E-03
5.11353463E+07	-2.18071353E-02	 9.83970377E-03
5.11475543E+07	-2.21906525E-02	 9.87508416E-03
5.11597624E+07	-2.20557687E-02	 9.91223109E-03
5.11719704E+07	-2.18692951E-02	 9.94865992E-03
5.11841784E+07	-2.20963059E-02	 9.97748832E-03
5.11963864E+07	-2.18935001E-02	 1.00025821E-02
5.12085944E+07	-2.16259788E-02	 9.76346538E-03
5.12208025E+07	-2.19230064E-02	 9.92108604E-03
5.12330105E+07	-2.19481160E-02	 9.94348237E-03
5.12452185E+07	-2.18930523E-02	 9.96122065E-03
5.12574265E+07	-2.18216383E-02	 9.83799983E-03
5.12696346E+07	-2.17918259E-02	 9.86334831E-03
5.12818426E+07	-2.16110168E-02	 9.85770321E-03
5.12940506E+07	-2.18392328E-02	 1.00689305E-02
5.13062586E+07	-2.18335153E-02	 1.00241730E-02
5.13184667E+07	-2.17180001E-02	 1.00701053E-02
5.13306747E+07	-2.18638993E-02	 1.00135963E-02
5.13428827E+07	-2.18145861E-02	 9.85890410E-03
5.13550907E+07	-2.16325826E-02	 9.99849662E-03
5.13672988E+07	-2.17835970E-02	 1.00441644E-02
5.13795068E+07	-2.19027989E-02	 9.84051052E-03
5.13917148E+07	-2.16366556E-02	 9.75161203E-03
5.14039228E+07	-2.19796431E-02	 9.91389211E-03
5.14161309E+07	-2.18933512E-02	 9.92601908E-03
5.14283389E+07	-2.18274836E-02	 9.92269894E-03
5.14405469E+07	-2.19592527E-02	 9.96633202E-03
5.14527549E+07	-2.16967031E-02	 1.00080209E-02
5.14649630E+07	-2.17198606E-02	 1.00906328E-02
5.14771710E+07	-2.16848256E-02	 1.00156295E-02
5.14893790E+07	-2.16093724E-02	 1.00162434E-02
5.15015870E+07	-2.16898618E-02	 1.01411843E-02
5.15137951E+07	-2.15924322E-02	 1.00785447E-02
5.15260031E+07	-2.18727533E-02	 9.99595292E-03
5.15382111E+07	-2.16888002E-02	 1.00382311E-02
5.15504191E+07	-2.18158359E-02	 1.00563347E-02
5.15626272E+07	-2.16724923E-02	 1.01265252E-02
5.15748352E+07	-2.15905214E-02	 1.01009029E-02
5.15870432E+07	-2.16325984E-02	 9.90612460E-03
5.15992512E+07	-2.16307821E-02	 1.01015752E-02
5.16114593E+07	-2.17878330E-02	 1.00256668E-02
5.16236673E+07	-2.15961004E-02	 9.85469005E-03
5.16358753E+07	-2.15289955E-02	 1.02583429E-02
5.16480833E+07	-2.16746125E-02	 1.00706117E-02
5.16602914E+07	-2.16027006E-02	 1.01548152E-02
5.16724994E+07	-2.18114465E-02	 1.00731711E-02
5.16847074E+07	-2.16620095E-02	 1.01040544E-02
5.16969154E+07	-2.18430258E-02	 1.00370661E-02
5.17091235E+07	-2.18333242E-02	 1.02182226E-02
5.17213315E+07	-2.15797809E-02	 1.02044985E-02
5.17335395E+07	-2.15470029E-02	 9.92600491E-03
5.17457475E+07	-2.16646633E-02	 1.01497202E-02
5.17579556E+07	-2.15984401E-02	 1.02211383E-02
5.17701636E+07	-2.17547810E-02	 1.01309861E-02
5.17823716E+07	-2.17759165E-02	 9.95703192E-03
5.17945796E+07	-2.19072135E-02	 1.01170104E-02
5.18067877E+07	-2.18482395E-02	 1.00895340E-02
5.18189957E+07	-2.18212795E-02	 1.02757852E-02
5.18312037E+07	-2.15518401E-02	 1.01165247E-02
5.18434117E+07	-2.18571694E-02	 1.02325128E-02
5.18556198E+07	-2.17493550E-02	 9.98658819E-03
5.18678278E+07	-2.17606341E-02	 1.02439070E-02
5.18800358E+07	-2.18147437E-02	 9.91035360E-03
5.18922438E+07	-2.18111441E-02	 1.02033053E-02
5.19044519E+07	-2.16148086E-02	 1.00524933E-02
5.19166599E+07	-2.14608462E-02	 1.01506129E-02
5.19288679E+07	-2.15271957E-02	 1.03040401E-02
5.19410759E+07	-2.15864896E-02	 9.88996691E-03
5.19532840E+07	-2.17996029E-02	 1.00872781E-02
5.19654920E+07	-2.16600559E-02	 1.04031825E-02
5.19777000E+07	-2.16670465E-02	 1.00495504E-02
5.19899080E+07	-2.16358470E-02	 1.00714379E-02
5.20021161E+07	-2.13890704E-02	 1.00407993E-02
5.20143241E+07	-2.14338683E-02	 1.03395879E-02
5.20265321E+07	-2.14972032E-02	 1.03505263E-02
5.20387401E+07	-2.15189297E-02	 1.01760508E-02
5.20509482E+07	-2.14653594E-02	 1.01549475E-02
5.20631562E+07	-2.16427462E-02	 1.04725424E-02
5.20753642E+07	-2.15214440E-02	 1.01341861E-02
5.20875722E+07	-2.16896550E-02	 1.03540359E-02
5.20997803E+07	-2.13600670E-02	 1.02543620E-02
5.21119883E+07	-2.14601389E-02	 1.01428746E-02
5.21241963E+07	-2.15258483E-02	 1.01624126E-02
5.21364043E+07	-2.15446140E-02	 1.02436737E-02
5.21486124E+07	-2.15090451E-02	 1.01030553E-02
5.21608204E+07	-2.13151219E-02	 1.02696612E-02
5.21730284E+07	-2.15185815E-02	 1.03224591E-02
5.21852364E+07	-2.15262774E-02	 1.04838559E-02
5.21974445E+07	-2.14725590E-02	 1.03147269E-02
5.22096525E+07	-2.14565837E-02	 1.02689279E-02
5.22218605E+07	-2.15381412E-02	 1.03373094E-02
5.22340685E+07	-2.13263552E-02	 1.03107978E-02
5.22462766E+07	-2.16224237E-02	 1.02338251E-02
5.22584846E+07	-2.14010695E-02	 1.01625410E-02
5.22706926E+07	-2.13565345E-02	 1.02454079E-02
5.22829006E+07	-2.13103346E-02	 1.01838829E-02
5.22951087E+07	-2.16619330E-02	 1.02405269E-02
5.23073167E+07	-2.15429226E-02	 9.94960008E-03
5.23195247E+07	-2.13696207E-02	 1.00903477E-02
5.23317327E+07	-2.14627003E-02	 1.04193207E-02
5.23439408E+07	-2.13948310E-02	 1.02867658E-02
5.23561488E+07	-2.15193738E-02	 1.02815734E-02
5.23683568E+07	-2.12918311E-02	 1.03528194E-02
5.23805648E+07	-2.15367883E-02	 1.03067343E-02
5.23927728E+07	-2.12673411E-02	 1.04832634E-02
5.24049809E+07	-2.15014555E-02	 1.02875699E-02
5.24171889E+07	-2.14801883E-02	 1.03083685E-02
5.24293969E+07	-2.14219885E-02	 1.04357265E-02
5.24416049E+07	-2.13616980E-02	 1.02855369E-02
5.24538130E+07	-2.11196566E-02	 1.05178662E-02
5.24660210E+07	-2.16893737E-02	 1.03610642E-02
5.24782290E+07	-2.15454548E-02	 1.02960155E-02
5.24904370E+07	-2.13181890E-02	 1.06681762E-02
5.25026451E+07	-2.12216082E-02	 1.05244642E-02
5.25148531E+07	-2.14134503E-02	 1.03409154E-02
5.25270611E+07	-2.14922958E-02	 1.02507344E-02
5.25392691E+07	-2.13442551E-02	 1.04012999E-02
5.25514772E+07	-2.11806150E-02	 1.01156021E-02
5.25636852E+07	-2.16118512E-02	 1.04937420E-02
5.25758932E+07	-2.14710046E-02	 1.03822262E-02
5.25881012E+07	-2.12519605E-02	 1.03497513E-02
5.26003093E+07	-2.13420608E-02	 1.02736525E-02
5.26125173E+07	-2.11379461E-02	 1.05266044E-02
5.26247253E+07	-2.15186790E-02	 1.05623348E-02
5.26369333E+07	-2.15012264E-02	 1.03850238E-02
5.26491414E+07	-2.12772658E-02	 1.03687925E-02
5.26613494E+07	-2.11716695E-02	 1.03471202E-02
5.26735574E+07	-2.13091714E-02	 1.03350902E-02
5.26857654E+07	-2.11870882E-02	 1.04128123E-02
5.26979735E+07	-2.12667010E-02	 1.02645477E-02
5.27101815E+07	-2.13597431E-02	 1.05154110E-02
5.27223895E+07	-2.11674038E-02	 1.04958306E-02
5.27345975E+07	-2.13528853E-02	 1.05951520E-02
5.27468056E+07	-2.12604303E-02	 1.04414268E-02
5.27590136E+07	-2.13896289E-02	 1.05033416E-02
5.27712216E+07	-2.13345748E-02	 1.06701921E-02
5.27834296E+07	-2.12228587E-02	 1.03610754E-02
5.27956377E+07	-2.13590029E-02	 1.05561915E-02
5.28078457E+07	-2.11200470E-02	 1.03758323E-02
5.28200537E+07	-2.12409264E-02	 1.04764314E-02
5.28322617E+07	-2.12022169E-02	 1.06801491E-02
5.28444698E+07	-2.14392372E-02	 1.07268966E-02
5.28566778E+07	-2.10664386E-02	 1.05266512E-02
5.28688858E+07	-2.13178487E-02	 1.06343436E-02
5.28810938E+07	-2.10696267E-02	 1.04998390E-02
5.28933019E+07	-2.10179782E-02	 1.04860009E-02
5.29055099E+07	-2.09968472E-02	 1.04536328E-02
5.29177179E+07	-2.11194779E-02	 1.06810698E-02
5.29299259E+07	-2.11692639E-02	 1.03063587E-02
5.29421340E+07	-2.12174065E-02	 1.04138645E-02
5.29543420E+07	-2.13115391E-02	 1.05112987E-02
5.29665500E+07	-2.13422627E-02	 1.05430147E-02
5.29787580E+07	-2.14248563E-02	 1.04209401E-02
5.29909661E+07	-2.11813249E-02	 1.06104529E-02
5.30031741E+07	-2.11877220E-02	 1.04571900E-02
5.30153821E+07	-2.12802073E-02	 1.04879072E-02
5.30275901E+07	-2.12379465E-02	 1.06031169E-02
5.30397982E+07	-2.11574729E-02	 1.02854506E-02
5.30520062E+07	-2.11847213E-02	 1.05805321E-02
5.30642142E+07	-2.14410614E-02	 1.02998003E-02
5.30764222E+07	-2.11583443E-02	 1.05621728E-02
5.30886303E+07	-2.13121692E-02	 1.05199846E-02
5.31008383E+07	-2.12204712E-02	 1.06174233E-02
5.31130463E+07	-2.10268804E-02	 1.07165996E-02
5.31252543E+07	-2.10369344E-02	 1.07033693E-02
5.31374624E+07	-2.11283635E-02	 1.07220287E-02
5.31496704E+07	-2.11535566E-02	 1.06213005E-02
5.31618784E+07	-2.10034259E-02	 1.05290118E-02
5.31740864E+07	-2.11890990E-02	 1.05666312E-02
5.31862945E+07	-2.09862994E-02	 1.05993095E-02
5.31985025E+07	-2.11093250E-02	 1.05166035E-02
5.32107105E+07	-2.13090251E-02	 1.04926081E-02
5.32229185E+07	-2.10939380E-02	 1.07312358E-02
5.32351266E+07	-2.12131881E-02	 1.09051001E-02
5.32473346E+07	-2.13939220E-02	 1.03976663E-02
5.32595426E+07	-2.13675751E-02	 1.06340506E-02
5.32717506E+07	-2.09703209E-02	 1.07320710E-02
5.32839587E+07	-2.11092680E-02	 1.09216142E-02
5.32961667E+07	-2.09667881E-02	 1.07116354E-02
5.33083747E+07	-2.12072369E-02	 1.06204013E-02
5.33205827E+07	-2.13029847E-02	 1.04023814E-02
5.33327908E+07	-2.11696272E-02	 1.06305719E-02
5.33449988E+07	-2.12188220E-02	 1.05542930E-02
5.33572068E+07	-2.10487350E-02	 1.07365934E-02
5.33694148E+07	-2.12093641E-02	 1.06108007E-02
5.33816229E+07	-2.08030313E-02	 1.05843154E-02
5.33938309E+07	-2.11792555E-02	 1.06068436E-02
5.34060389E+07	-2.09830140E-02	 1.08021385E-02
5.34182469E+07	-2.08588418E-02	 1.07894149E-02
5.34304550E+07	-2.12443817E-02	 1.08380261E-02
5.34426630E+07	-2.08461322E-02	 1.06629501E-02
5.34548710E+07	-2.13226425E-02	 1.05366342E-02
5.34670790E+07	-2.11069708E-02	 1.07531181E-02
5.34792871E+07	-2.07260373E-02	 1.07194335E-02
5.34914951E+07	-2.10097042E-02	 1.07648821E-02
5.35037031E+07	-2.11177337E-02	 1.07944800E-02
5.35159111E+07	-2.11213321E-02	 1.08516400E-02
5.35281192E+07	-2.11256203E-02	 1.07938995E-02
5.35403272E+07	-2.11307344E-02	 1.03856981E-02
5.35525352E+07	-2.10565467E-02	 1.08726894E-02
5.35647432E+07	-2.09861603E-02	 1.07898928E-02
5.35769512E+07	-2.11829805E-02	 1.07110157E-02
5.35891593E+07	-2.08597943E-02	 1.09254014E-02
5.36013673E+07	-2.09180660E-02	 1.05394762E-02
5.36135753E+07	-2.11218557E-02	 1.06121146E-02
5.36257833E+07	-2.08102431E-02	 1.07195469E-02
5.36379914E+07	-2.07639284E-02	 1.11368515E-02
5.36501994E+07	-2.09149163E-02	 1.06238497E-02
5.36624074E+07	-2.08899780E-02	 1.08733569E-02
5.36746154E+07	-2.10479893E-02	 1.05801832E-02
5.36868235E+07	-2.09961109E-02	 1.06499334E-02
5.36990315E+07	-2.11574768E-02	 1.08452845E-02
5.37112395E+07	-2.09928446E-02	 1.06789293E-02
5.37234475E+07	-2.08566355E-02	 1.07495296E-02
5.37356556E+07	-2.10644467E-02	 1.07581907E-02
5.37478636E+07	-2.08907557E-02	 1.06007921E-02
5.37600716E+07	-2.08547633E-02	 1.08473249E-02
5.37722796E+07	-2.10495880E-02	 1.08923054E-02
5.37844877E+07	-2.05321374E-02	 1.07404063E-02
5.37966957E+07	-2.07403997E-02	 1.07474047E-02
5.38089037E+07	-2.08777697E-02	 1.09563042E-02
5.38211117E+07	-2.10741506E-02	 1.07207950E-02
5.38333198E+07	-2.08839787E-02	 1.07808314E-02
5.38455278E+07	-2.09766605E-02	 1.08417449E-02
5.38577358E+07	-2.11306083E-02	 1.10101970E-02
5.38699438E+07	-2.10902243E-02	 1.07731059E-02
5.38821519E+07	-2.07794445E-02	 1.08545664E-02
5.38943599E+07	-2.09266867E-02	 1.10084401E-02
5.39065679E+07	-2.08895701E-02	 1.07687952E-02
5.39187759E+07	-2.10090695E-02	 1.09117426E-02
5.39309840E+07	-2.06774049E-02	 1.08267355E-02
5.39431920E+07	-2.08489213E-02	 1.08147497E-02
5.39554000E+07	-2.07864601E-02	 1.09318821E-02
5.39676080E+07	-2.11444671E-02	 1.08736051E-02
5.39798161E+07	-2.09066925E-02	 1.10685687E-02
5.39920241E+07	-2.08459402E-02	 1.08254813E-02
5.40042321E+07	-2.09000753E-02	 1.07946300E-02
5.40164401E+07	-2.09313686E-02	 1.08061964E-02
5.40286482E+07	-2.10885551E-02	 1.09507016E-02
5.40408562E+07	-2.08648232E-02	 1.09590790E-02
5.40530642E+07	-2.07647329E-02	 1.07538570E-02
5.40652722E+07	-2.12037366E-02	 1.08966879E-02
5.40774803E+07	-2.08979312E-02	 1.08663639E-02
5.40896883E+07	-2.07436235E-02	 1.08305712E-02
5.41018963E+07	-2.08449322E-02	 1.08958164E-02
5.41141043E+07	-2.07670961E-02	 1.10707165E-02
5.41263124E+07	-2.09156063E-02	 1.07741184E-02
5.41385204E+07	-2.08115476E-02	 1.09851534E-02
5.41507284E+07	-2.09588350E-02	 1.11709105E-02
5.41629364E+07	-2.08038191E-02	 1.09845130E-02
5.41751445E+07	-2.08574834E-02	 1.08153724E-02
5.41873525E+07	-2.10108791E-02	 1.09722572E-02
5.41995605E+07	-2.06812610E-02	 1.08982261E-02
5.42117685E+07	-2.07866092E-02	 1.06554768E-02
5.42239766E+07	-2.07045001E-02	 1.08908335E-02
5.42361846E+07	-2.11829679E-02	 1.11935986E-02
5.42483926E+07	-2.06613767E-02	 1.09042543E-02
5.42606006E+07	-2.07389497E-02	 1.09056795E-02
5.42728087E+07	-2.07036946E-02	 1.09687787E-02
5.42850167E+07	-2.07594094E-02	 1.09613275E-02
5.42972247E+07	-2.07677081E-02	 1.11703560E-02
5.43094327E+07	-2.06861713E-02	 1.10712766E-02
5.43216408E+07	-2.07679158E-02	 1.09120075E-02
5.43338488E+07	-2.07389596E-02	 1.09108040E-02
5.43460568E+07	-2.07048907E-02	 1.11586925E-02
5.43582648E+07	-2.07284636E-02	 1.09645155E-02
5.43704729E+07	-2.09338833E-02	 1.09757543E-02
5.43826809E+07	-2.07105174E-02	 1.12568212E-02
5.43948889E+07	-2.09090603E-02	 1.10602622E-02
5.44070969E+07	-2.05984526E-02	 1.11038890E-02
5.44193050E+07	-2.06271985E-02	 1.11452572E-02
5.44315130E+07	-2.09394690E-02	 1.10568026E-02
5.44437210E+07	-2.08716970E-02	 1.09435237E-02
5.44559290E+07	-2.06858883E-02	 1.07444350E-02
5.44681371E+07	-2.07680858E-02	 1.10458565E-02
5.44803451E+07	-2.08115283E-02	 1.10617853E-02
5.44925531E+07	-2.04930164E-02	 1.10151842E-02
5.45047611E+07	-2.07399372E-02	 1.09483037E-02
5.45169692E+07	-2.06624150E-02	 1.11882946E-02
5.45291772E+07	-2.06401157E-02	 1.11282653E-02
5.45413852E+07	-2.07818754E-02	 1.09242873E-02
5.45535932E+07	-2.07616800E-02	 1.10569999E-02
5.45658013E+07	-2.07625323E-02	 1.09642480E-02
5.45780093E+07	-2.08266629E-02	 1.12899405E-02
5.45902173E+07	-2.06733382E-02	 1.09696036E-02
5.46024253E+07	-2.07885901E-02	 1.12805875E-02
5.46146334E+07	-2.10477517E-02	 1.10260201E-02
5.46268414E+07	-2.07386801E-02	 1.09835222E-02
5.46390494E+07	-2.05522218E-02	 1.11855265E-02
5.46512574E+07	-2.07824101E-02	 1.10414356E-02
5.46634655E+07	-2.08022059E-02	 1.11747810E-02
5.46756735E+07	-2.09070965E-02	 1.09469500E-02
5.46878815E+07	-2.06643955E-02	 1.13488503E-02
5.47000895E+07	-2.07947771E-02	 1.13471165E-02
5.47122976E+07	-2.06138117E-02	 1.10910084E-02
5.47245056E+07	-2.05822349E-02	 1.11326833E-02
5.47367136E+07	-2.04901576E-02	 1.12061303E-02
5.47489216E+07	-2.08042353E-02	 1.09229656E-02
5.47611296E+07	-2.06835888E-02	 1.12373277E-02
5.47733377E+07	-2.06389423E-02	 1.10667018E-02
5.47855457E+07	-2.07734032E-02	 1.09506877E-02
5.47977537E+07	-2.06350868E-02	 1.10635913E-02
5.48099617E+07	-2.05605826E-02	 1.11877029E-02
5.48221698E+07	-2.05961280E-02	 1.12146149E-02
5.48343778E+07	-2.04518662E-02	 1.12299031E-02
5.48465858E+07	-2.06963285E-02	 1.07988666E-02
5.48587938E+07	-2.07591583E-02	 1.12048542E-02
5.48710019E+07	-2.05272427E-02	 1.11486384E-02
5.48832099E+07	-2.05891509E-02	 1.12474372E-02
5.48954179E+07	-2.04513341E-02	 1.09390750E-02
5.49076259E+07	-2.05027876E-02	 1.11657640E-02
5.49198340E+07	-2.06370517E-02	 1.10179418E-02
5.49320420E+07	-2.05399613E-02	 1.08796150E-02
5.49442500E+07	-2.06400276E-02	 1.14284285E-02
5.49564580E+07	-2.09005328E-02	 1.12396575E-02
5.49686661E+07	-2.04790453E-02	 1.13515250E-02
5.49808741E+07	-2.04316946E-02	 1.10839206E-02
5.49930821E+07	-2.05566265E-02	 1.12050648E-02
5.50052901E+07	-2.03086886E-02	 1.13067132E-02
5.50174982E+07	-2.06926666E-02	 1.10975284E-02
5.50297062E+07	-2.07938319E-02	 1.11696656E-02
5.50419142E+07	-2.05271454E-02	 1.13055778E-02
5.50541222E+07	-2.06575932E-02	 1.12193584E-02
5.50663303E+07	-2.04042642E-02	 1.13081784E-02
5.50785383E+07	-2.07678937E-02	 1.13494784E-02
5.50907463E+07	-2.04968452E-02	 1.14218036E-02
5.51029543E+07	-2.08198847E-02	 1.13253629E-02
5.51151624E+07	-2.05010751E-02	 1.15267835E-02
5.51273704E+07	-2.03448685E-02	 1.12411094E-02
