! COPPER MOUNTAIN TECHNOLOGIES, PLANAR TR1300/1, 00071119, 20.2.2/1.0
! Date: 12/11/2023 3:23:00 PM
! Data: Format [Calibration Info]
! Freq          	S11: Re/Im F1                  
# HZ S RI R 50
5.00000000E+07	 1.79582547E-01	-2.82309815E-01
5.00122080E+07	 1.79515145E-01	-2.82372084E-01
5.00244160E+07	 1.79448698E-01	-2.82410634E-01
5.00366241E+07	 1.79385488E-01	-2.82457408E-01
5.00488321E+07	 1.79314345E-01	-2.82507522E-01
5.00610401E+07	 1.79239853E-01	-2.82537610E-01
5.00732481E+07	 1.79165984E-01	-2.82582371E-01
5.00854562E+07	 1.79108370E-01	-2.82629553E-01
5.00976642E+07	 1.79034415E-01	-2.82676786E-01
5.01098722E+07	 1.78970043E-01	-2.82732325E-01
5.01220802E+07	 1.78889689E-01	-2.82765491E-01
5.01342883E+07	 1.78822238E-01	-2.82806958E-01
5.01464963E+07	 1.78755691E-01	-2.82857715E-01
5.01587043E+07	 1.78690970E-01	-2.82904581E-01
5.01709123E+07	 1.78615200E-01	-2.82944815E-01
5.01831204E+07	 1.78548499E-01	-2.82984801E-01
5.01953284E+07	 1.78483956E-01	-2.83036375E-01
5.02075364E+07	 1.78410399E-01	-2.83075668E-01
5.02197444E+07	 1.78339632E-01	-2.83126496E-01
5.02319525E+07	 1.78265210E-01	-2.83168281E-01
5.02441605E+07	 1.78205151E-01	-2.83205878E-01
5.02563685E+07	 1.78135668E-01	-2.83257220E-01
5.02685765E+07	 1.78063055E-01	-2.83302696E-01
5.02807846E+07	 1.78001054E-01	-2.83345594E-01
5.02929926E+07	 1.77922329E-01	-2.83385913E-01
5.03052006E+07	 1.77856754E-01	-2.83428783E-01
5.03174086E+07	 1.77785165E-01	-2.83473915E-01
5.03296167E+07	 1.77717040E-01	-2.83518683E-01
5.03418247E+07	 1.77651143E-01	-2.83568459E-01
5.03540327E+07	 1.77579641E-01	-2.83607587E-01
5.03662407E+07	 1.77505600E-01	-2.83651454E-01
5.03784488E+07	 1.77442011E-01	-2.83699603E-01
5.03906568E+07	 1.77371773E-01	-2.83734769E-01
5.04028648E+07	 1.77299364E-01	-2.83786021E-01
5.04150728E+07	 1.77227985E-01	-2.83822678E-01
5.04272809E+07	 1.77156045E-01	-2.83866208E-01
5.04394889E+07	 1.77084856E-01	-2.83913336E-01
5.04516969E+07	 1.77015343E-01	-2.83957662E-01
5.04639049E+07	 1.76955733E-01	-2.84009667E-01
5.04761130E+07	 1.76871356E-01	-2.84042867E-01
5.04883210E+07	 1.76816156E-01	-2.84090359E-01
5.05005290E+07	 1.76742926E-01	-2.84139988E-01
5.05127370E+07	 1.76667903E-01	-2.84175278E-01
5.05249451E+07	 1.76606221E-01	-2.84225276E-01
5.05371531E+07	 1.76532420E-01	-2.84266198E-01
5.05493611E+07	 1.76468876E-01	-2.84312138E-01
5.05615691E+07	 1.76393573E-01	-2.84356341E-01
5.05737772E+07	 1.76328380E-01	-2.84400473E-01
5.05859852E+07	 1.76253678E-01	-2.84445143E-01
5.05981932E+07	 1.76188509E-01	-2.84486449E-01
5.06104012E+07	 1.76108335E-01	-2.84529743E-01
5.06226093E+07	 1.76041137E-01	-2.84571429E-01
5.06348173E+07	 1.75974701E-01	-2.84613238E-01
5.06470253E+07	 1.75911968E-01	-2.84657383E-01
5.06592333E+07	 1.75839766E-01	-2.84705756E-01
5.06714414E+07	 1.75764940E-01	-2.84751583E-01
5.06836494E+07	 1.75693419E-01	-2.84791024E-01
5.06958574E+07	 1.75631325E-01	-2.84843247E-01
5.07080654E+07	 1.75558609E-01	-2.84879035E-01
5.07202735E+07	 1.75487262E-01	-2.84923599E-01
5.07324815E+07	 1.75417433E-01	-2.84961001E-01
5.07446895E+07	 1.75347969E-01	-2.85011117E-01
5.07568975E+07	 1.75280363E-01	-2.85050147E-01
5.07691056E+07	 1.75208723E-01	-2.85096709E-01
5.07813136E+07	 1.75134373E-01	-2.85142947E-01
5.07935216E+07	 1.75063373E-01	-2.85186050E-01
5.08057296E+07	 1.74999701E-01	-2.85225170E-01
5.08179377E+07	 1.74931524E-01	-2.85269301E-01
5.08301457E+07	 1.74855137E-01	-2.85325445E-01
5.08423537E+07	 1.74784874E-01	-2.85365306E-01
5.08545617E+07	 1.74722367E-01	-2.85402016E-01
5.08667698E+07	 1.74653419E-01	-2.85447693E-01
5.08789778E+07	 1.74574867E-01	-2.85489691E-01
5.08911858E+07	 1.74509499E-01	-2.85526242E-01
5.09033938E+07	 1.74440118E-01	-2.85579640E-01
5.09156019E+07	 1.74367181E-01	-2.85624977E-01
5.09278099E+07	 1.74295716E-01	-2.85658544E-01
5.09400179E+07	 1.74228961E-01	-2.85702931E-01
5.09522259E+07	 1.74155069E-01	-2.85744971E-01
5.09644340E+07	 1.74083203E-01	-2.85791448E-01
5.09766420E+07	 1.74018897E-01	-2.85829074E-01
5.09888500E+07	 1.73942196E-01	-2.85875926E-01
5.10010580E+07	 1.73879743E-01	-2.85915660E-01
5.10132661E+07	 1.73804405E-01	-2.85958512E-01
5.10254741E+07	 1.73737423E-01	-2.86005224E-01
5.10376821E+07	 1.73671339E-01	-2.86050447E-01
5.10498901E+07	 1.73599639E-01	-2.86089853E-01
5.10620982E+07	 1.73530797E-01	-2.86137602E-01
5.10743062E+07	 1.73456694E-01	-2.86177915E-01
5.10865142E+07	 1.73391763E-01	-2.86224219E-01
5.10987222E+07	 1.73324528E-01	-2.86257513E-01
5.11109303E+07	 1.73248850E-01	-2.86307126E-01
5.11231383E+07	 1.73181930E-01	-2.86351409E-01
5.11353463E+07	 1.73115543E-01	-2.86392886E-01
5.11475543E+07	 1.73042647E-01	-2.86445100E-01
5.11597624E+07	 1.72972261E-01	-2.86477090E-01
5.11719704E+07	 1.72909361E-01	-2.86524153E-01
5.11841784E+07	 1.72832266E-01	-2.86566264E-01
5.11963864E+07	 1.72760507E-01	-2.86607365E-01
5.12085944E+07	 1.72690125E-01	-2.86654646E-01
5.12208025E+07	 1.72622858E-01	-2.86692112E-01
5.12330105E+07	 1.72550520E-01	-2.86734959E-01
5.12452185E+07	 1.72485174E-01	-2.86776091E-01
5.12574265E+07	 1.72418437E-01	-2.86824782E-01
5.12696346E+07	 1.72343510E-01	-2.86863436E-01
5.12818426E+07	 1.72270742E-01	-2.86906128E-01
5.12940506E+07	 1.72202093E-01	-2.86943435E-01
5.13062586E+07	 1.72135980E-01	-2.86989663E-01
5.13184667E+07	 1.72063914E-01	-2.87035635E-01
5.13306747E+07	 1.71990244E-01	-2.87076696E-01
5.13428827E+07	 1.71926086E-01	-2.87124469E-01
5.13550907E+07	 1.71862016E-01	-2.87157179E-01
5.13672988E+07	 1.71790940E-01	-2.87200640E-01
5.13795068E+07	 1.71716183E-01	-2.87249377E-01
5.13917148E+07	 1.71649772E-01	-2.87285946E-01
5.14039228E+07	 1.71578560E-01	-2.87328559E-01
5.14161309E+07	 1.71510711E-01	-2.87373639E-01
5.14283389E+07	 1.71444106E-01	-2.87417522E-01
5.14405469E+07	 1.71368349E-01	-2.87447181E-01
5.14527549E+07	 1.71293874E-01	-2.87499357E-01
5.14649630E+07	 1.71221211E-01	-2.87546305E-01
5.14771710E+07	 1.71149818E-01	-2.87584693E-01
5.14893790E+07	 1.71087908E-01	-2.87623675E-01
5.15015870E+07	 1.71024576E-01	-2.87672035E-01
5.15137951E+07	 1.70952974E-01	-2.87713308E-01
5.15260031E+07	 1.70878316E-01	-2.87756398E-01
5.15382111E+07	 1.70810740E-01	-2.87797796E-01
5.15504191E+07	 1.70739361E-01	-2.87837590E-01
5.15626272E+07	 1.70668393E-01	-2.87880399E-01
5.15748352E+07	 1.70603979E-01	-2.87920963E-01
5.15870432E+07	 1.70528541E-01	-2.87962678E-01
5.15992512E+07	 1.70458724E-01	-2.88009327E-01
5.16114593E+07	 1.70392815E-01	-2.88053056E-01
5.16236673E+07	 1.70323548E-01	-2.88089350E-01
5.16358753E+07	 1.70252363E-01	-2.88134170E-01
5.16480833E+07	 1.70175788E-01	-2.88176667E-01
5.16602914E+07	 1.70112265E-01	-2.88225336E-01
5.16724994E+07	 1.70040901E-01	-2.88259711E-01
5.16847074E+07	 1.69964524E-01	-2.88305152E-01
5.16969154E+07	 1.69901410E-01	-2.88350058E-01
5.17091235E+07	 1.69826358E-01	-2.88389474E-01
5.17213315E+07	 1.69760676E-01	-2.88432962E-01
5.17335395E+07	 1.69683077E-01	-2.88470752E-01
5.17457475E+07	 1.69625232E-01	-2.88517021E-01
5.17579556E+07	 1.69552736E-01	-2.88562066E-01
5.17701636E+07	 1.69483610E-01	-2.88597436E-01
5.17823716E+07	 1.69411647E-01	-2.88642540E-01
5.17945796E+07	 1.69343062E-01	-2.88683056E-01
5.18067877E+07	 1.69272142E-01	-2.88727351E-01
5.18189957E+07	 1.69201154E-01	-2.88768931E-01
5.18312037E+07	 1.69124695E-01	-2.88806216E-01
5.18434117E+07	 1.69055519E-01	-2.88850238E-01
5.18556198E+07	 1.68994881E-01	-2.88890587E-01
5.18678278E+07	 1.68914005E-01	-2.88930455E-01
5.18800358E+07	 1.68849844E-01	-2.88968531E-01
5.18922438E+07	 1.68780516E-01	-2.89017760E-01
5.19044519E+07	 1.68706073E-01	-2.89057051E-01
5.19166599E+07	 1.68635351E-01	-2.89099690E-01
5.19288679E+07	 1.68569615E-01	-2.89140493E-01
5.19410759E+07	 1.68497873E-01	-2.89183690E-01
5.19532840E+07	 1.68424500E-01	-2.89222247E-01
5.19654920E+07	 1.68364990E-01	-2.89266831E-01
5.19777000E+07	 1.68285999E-01	-2.89304786E-01
5.19899080E+07	 1.68215504E-01	-2.89352215E-01
5.20021161E+07	 1.68144146E-01	-2.89382586E-01
5.20143241E+07	 1.68076498E-01	-2.89434804E-01
5.20265321E+07	 1.68006337E-01	-2.89474241E-01
5.20387401E+07	 1.67931190E-01	-2.89517757E-01
5.20509482E+07	 1.67860529E-01	-2.89548580E-01
5.20631562E+07	 1.67791639E-01	-2.89603000E-01
5.20753642E+07	 1.67725279E-01	-2.89645761E-01
5.20875722E+07	 1.67648487E-01	-2.89680425E-01
5.20997803E+07	 1.67580729E-01	-2.89721684E-01
5.21119883E+07	 1.67502462E-01	-2.89767484E-01
5.21241963E+07	 1.67435014E-01	-2.89804279E-01
5.21364043E+07	 1.67366129E-01	-2.89842911E-01
5.21486124E+07	 1.67290719E-01	-2.89882662E-01
5.21608204E+07	 1.67222121E-01	-2.89929192E-01
5.21730284E+07	 1.67147858E-01	-2.89972780E-01
5.21852364E+07	 1.67081538E-01	-2.90010684E-01
5.21974445E+07	 1.67004157E-01	-2.90054778E-01
5.22096525E+07	 1.66943340E-01	-2.90096867E-01
5.22218605E+07	 1.66871127E-01	-2.90136876E-01
5.22340685E+07	 1.66798680E-01	-2.90174782E-01
5.22462766E+07	 1.66724218E-01	-2.90215743E-01
5.22584846E+07	 1.66653912E-01	-2.90260012E-01
5.22706926E+07	 1.66586142E-01	-2.90298489E-01
5.22829006E+07	 1.66508759E-01	-2.90335876E-01
5.22951087E+07	 1.66443228E-01	-2.90382607E-01
5.23073167E+07	 1.66374345E-01	-2.90423308E-01
5.23195247E+07	 1.66302771E-01	-2.90461434E-01
5.23317327E+07	 1.66228922E-01	-2.90502099E-01
5.23439408E+07	 1.66159454E-01	-2.90543362E-01
5.23561488E+07	 1.66090335E-01	-2.90590049E-01
5.23683568E+07	 1.66013962E-01	-2.90632789E-01
5.23805648E+07	 1.65940730E-01	-2.90660944E-01
5.23927728E+07	 1.65870981E-01	-2.90715032E-01
5.24049809E+07	 1.65795719E-01	-2.90754228E-01
5.24171889E+07	 1.65728821E-01	-2.90794082E-01
5.24293969E+07	 1.65657959E-01	-2.90831604E-01
5.24416049E+07	 1.65593168E-01	-2.90867160E-01
5.24538130E+07	 1.65516460E-01	-2.90918001E-01
5.24660210E+07	 1.65443182E-01	-2.90960041E-01
5.24782290E+07	 1.65374100E-01	-2.90992359E-01
5.24904370E+07	 1.65304387E-01	-2.91041338E-01
5.25026451E+07	 1.65225860E-01	-2.91084876E-01
5.25148531E+07	 1.65159094E-01	-2.91119640E-01
5.25270611E+07	 1.65086116E-01	-2.91155814E-01
5.25392691E+07	 1.65016555E-01	-2.91199961E-01
5.25514772E+07	 1.64946983E-01	-2.91243335E-01
5.25636852E+07	 1.64874056E-01	-2.91278291E-01
5.25758932E+07	 1.64802621E-01	-2.91321108E-01
5.25881012E+07	 1.64734766E-01	-2.91366764E-01
5.26003093E+07	 1.64659591E-01	-2.91405787E-01
5.26125173E+07	 1.64588987E-01	-2.91443510E-01
5.26247253E+07	 1.64524821E-01	-2.91490978E-01
5.26369333E+07	 1.64447274E-01	-2.91518320E-01
5.26491414E+07	 1.64374314E-01	-2.91563107E-01
5.26613494E+07	 1.64303187E-01	-2.91609447E-01
5.26735574E+07	 1.64232335E-01	-2.91649815E-01
5.26857654E+07	 1.64165315E-01	-2.91683490E-01
5.26979735E+07	 1.64086417E-01	-2.91723366E-01
5.27101815E+07	 1.64011054E-01	-2.91771351E-01
5.27223895E+07	 1.63942486E-01	-2.91811625E-01
5.27345975E+07	 1.63875116E-01	-2.91850997E-01
5.27468056E+07	 1.63804326E-01	-2.91883962E-01
5.27590136E+07	 1.63736694E-01	-2.91934208E-01
5.27712216E+07	 1.63658708E-01	-2.91967314E-01
5.27834296E+07	 1.63589738E-01	-2.92012310E-01
5.27956377E+07	 1.63518786E-01	-2.92052321E-01
5.28078457E+07	 1.63447080E-01	-2.92090731E-01
5.28200537E+07	 1.63373947E-01	-2.92134993E-01
5.28322617E+07	 1.63295666E-01	-2.92173237E-01
5.28444698E+07	 1.63233774E-01	-2.92216451E-01
5.28566778E+07	 1.63162148E-01	-2.92255845E-01
5.28688858E+07	 1.63081799E-01	-2.92289374E-01
5.28810938E+07	 1.63014030E-01	-2.92335046E-01
5.28933019E+07	 1.62944908E-01	-2.92376937E-01
5.29055099E+07	 1.62873800E-01	-2.92412865E-01
5.29177179E+07	 1.62799225E-01	-2.92451374E-01
5.29299259E+07	 1.62733149E-01	-2.92488344E-01
5.29421340E+07	 1.62645860E-01	-2.92532700E-01
5.29543420E+07	 1.62584763E-01	-2.92577110E-01
5.29665500E+07	 1.62513286E-01	-2.92615617E-01
5.29787580E+07	 1.62445440E-01	-2.92654668E-01
5.29909661E+07	 1.62370643E-01	-2.92701537E-01
5.30031741E+07	 1.62296584E-01	-2.92738148E-01
5.30153821E+07	 1.62230152E-01	-2.92775929E-01
5.30275901E+07	 1.62158287E-01	-2.92811525E-01
5.30397982E+07	 1.62089653E-01	-2.92853089E-01
5.30520062E+07	 1.62017261E-01	-2.92894698E-01
5.30642142E+07	 1.61947017E-01	-2.92933616E-01
5.30764222E+07	 1.61872185E-01	-2.92974145E-01
5.30886303E+07	 1.61799979E-01	-2.93016883E-01
5.31008383E+07	 1.61730759E-01	-2.93059690E-01
5.31130463E+07	 1.61662761E-01	-2.93094531E-01
5.31252543E+07	 1.61586912E-01	-2.93133106E-01
5.31374624E+07	 1.61522955E-01	-2.93175661E-01
5.31496704E+07	 1.61450476E-01	-2.93217738E-01
5.31618784E+07	 1.61371432E-01	-2.93257499E-01
5.31740864E+07	 1.61302050E-01	-2.93287903E-01
5.31862945E+07	 1.61233193E-01	-2.93331100E-01
5.31985025E+07	 1.61159091E-01	-2.93372629E-01
5.32107105E+07	 1.61088325E-01	-2.93410545E-01
5.32229185E+07	 1.61017400E-01	-2.93454098E-01
5.32351266E+07	 1.60950288E-01	-2.93494372E-01
5.32473346E+07	 1.60866867E-01	-2.93528274E-01
5.32595426E+07	 1.60801084E-01	-2.93576598E-01
5.32717506E+07	 1.60738595E-01	-2.93609050E-01
5.32839587E+07	 1.60653884E-01	-2.93647806E-01
5.32961667E+07	 1.60583765E-01	-2.93684853E-01
5.33083747E+07	 1.60514196E-01	-2.93730776E-01
5.33205827E+07	 1.60441948E-01	-2.93764375E-01
5.33327908E+07	 1.60369788E-01	-2.93807948E-01
5.33449988E+07	 1.60302454E-01	-2.93849940E-01
5.33572068E+07	 1.60228228E-01	-2.93891230E-01
5.33694148E+07	 1.60153507E-01	-2.93920421E-01
5.33816229E+07	 1.60086080E-01	-2.93962530E-01
5.33938309E+07	 1.60015231E-01	-2.94004318E-01
5.34060389E+07	 1.59939295E-01	-2.94043410E-01
5.34182469E+07	 1.59873239E-01	-2.94084835E-01
5.34304550E+07	 1.59798141E-01	-2.94123993E-01
5.34426630E+07	 1.59733020E-01	-2.94160651E-01
5.34548710E+07	 1.59658115E-01	-2.94204016E-01
5.34670790E+07	 1.59586521E-01	-2.94236944E-01
5.34792871E+07	 1.59514838E-01	-2.94276603E-01
5.34914951E+07	 1.59449282E-01	-2.94322904E-01
5.35037031E+07	 1.59378649E-01	-2.94356587E-01
5.35159111E+07	 1.59298696E-01	-2.94403911E-01
5.35281192E+07	 1.59237808E-01	-2.94444945E-01
5.35403272E+07	 1.59153379E-01	-2.94477920E-01
5.35525352E+07	 1.59076675E-01	-2.94516024E-01
5.35647432E+07	 1.59008376E-01	-2.94556975E-01
5.35769512E+07	 1.58940512E-01	-2.94597078E-01
5.35891593E+07	 1.58876803E-01	-2.94631944E-01
5.36013673E+07	 1.58794705E-01	-2.94674587E-01
5.36135753E+07	 1.58727233E-01	-2.94704721E-01
5.36257833E+07	 1.58660521E-01	-2.94750610E-01
5.36379914E+07	 1.58580311E-01	-2.94788745E-01
5.36501994E+07	 1.58506366E-01	-2.94828489E-01
5.36624074E+07	 1.58434396E-01	-2.94865882E-01
5.36746154E+07	 1.58366873E-01	-2.94907058E-01
5.36868235E+07	 1.58294129E-01	-2.94943323E-01
5.36990315E+07	 1.58224981E-01	-2.94985634E-01
5.37112395E+07	 1.58157123E-01	-2.95024011E-01
5.37234475E+07	 1.58083005E-01	-2.95056845E-01
5.37356556E+07	 1.58008321E-01	-2.95098266E-01
5.37478636E+07	 1.57934797E-01	-2.95145225E-01
5.37600716E+07	 1.57863014E-01	-2.95177737E-01
5.37722796E+07	 1.57796820E-01	-2.95220796E-01
5.37844877E+07	 1.57720762E-01	-2.95255824E-01
5.37966957E+07	 1.57651029E-01	-2.95297171E-01
5.38089037E+07	 1.57573395E-01	-2.95331966E-01
5.38211117E+07	 1.57503795E-01	-2.95378824E-01
5.38333198E+07	 1.57426136E-01	-2.95408184E-01
5.38455278E+07	 1.57359437E-01	-2.95451513E-01
5.38577358E+07	 1.57289762E-01	-2.95497037E-01
5.38699438E+07	 1.57219266E-01	-2.95529368E-01
5.38821519E+07	 1.57148893E-01	-2.95567115E-01
5.38943599E+07	 1.57079244E-01	-2.95595322E-01
5.39065679E+07	 1.57008206E-01	-2.95637812E-01
5.39187759E+07	 1.56930854E-01	-2.95682958E-01
5.39309840E+07	 1.56855425E-01	-2.95723590E-01
5.39431920E+07	 1.56781604E-01	-2.95764187E-01
5.39554000E+07	 1.56709657E-01	-2.95805438E-01
5.39676080E+07	 1.56640746E-01	-2.95834366E-01
5.39798161E+07	 1.56570761E-01	-2.95869883E-01
5.39920241E+07	 1.56496753E-01	-2.95915161E-01
5.40042321E+07	 1.56423649E-01	-2.95954790E-01
5.40164401E+07	 1.56345163E-01	-2.95989309E-01
5.40286482E+07	 1.56274048E-01	-2.96031774E-01
5.40408562E+07	 1.56203253E-01	-2.96060820E-01
5.40530642E+07	 1.56140329E-01	-2.96113525E-01
5.40652722E+07	 1.56060331E-01	-2.96159966E-01
5.40774803E+07	 1.55988963E-01	-2.96187051E-01
5.40896883E+07	 1.55914779E-01	-2.96233075E-01
5.41018963E+07	 1.55849273E-01	-2.96261661E-01
5.41141043E+07	 1.55773711E-01	-2.96306010E-01
5.41263124E+07	 1.55697950E-01	-2.96346114E-01
5.41385204E+07	 1.55618276E-01	-2.96385826E-01
5.41507284E+07	 1.55551645E-01	-2.96417712E-01
5.41629364E+07	 1.55483430E-01	-2.96463997E-01
5.41751445E+07	 1.55407891E-01	-2.96496657E-01
5.41873525E+07	 1.55336075E-01	-2.96531154E-01
5.41995605E+07	 1.55261657E-01	-2.96573864E-01
5.42117685E+07	 1.55189916E-01	-2.96613479E-01
5.42239766E+07	 1.55117113E-01	-2.96647892E-01
5.42361846E+07	 1.55045643E-01	-2.96689084E-01
5.42483926E+07	 1.54969773E-01	-2.96728187E-01
5.42606006E+07	 1.54900406E-01	-2.96770193E-01
5.42728087E+07	 1.54823434E-01	-2.96807687E-01
5.42850167E+07	 1.54756563E-01	-2.96846471E-01
5.42972247E+07	 1.54675312E-01	-2.96884890E-01
5.43094327E+07	 1.54602803E-01	-2.96920911E-01
5.43216408E+07	 1.54532988E-01	-2.96960499E-01
5.43338488E+07	 1.54461946E-01	-2.96995383E-01
5.43460568E+07	 1.54386745E-01	-2.97040481E-01
5.43582648E+07	 1.54317719E-01	-2.97072091E-01
5.43704729E+07	 1.54244427E-01	-2.97114037E-01
5.43826809E+07	 1.54170113E-01	-2.97145862E-01
5.43948889E+07	 1.54092542E-01	-2.97183743E-01
5.44070969E+07	 1.54030772E-01	-2.97221915E-01
5.44193050E+07	 1.53957029E-01	-2.97257924E-01
5.44315130E+07	 1.53878530E-01	-2.97303451E-01
5.44437210E+07	 1.53800848E-01	-2.97336406E-01
5.44559290E+07	 1.53735663E-01	-2.97376620E-01
5.44681371E+07	 1.53653190E-01	-2.97414243E-01
5.44803451E+07	 1.53590998E-01	-2.97445887E-01
5.44925531E+07	 1.53510046E-01	-2.97488925E-01
5.45047611E+07	 1.53442636E-01	-2.97528834E-01
5.45169692E+07	 1.53365722E-01	-2.97568550E-01
5.45291772E+07	 1.53299206E-01	-2.97602508E-01
5.45413852E+07	 1.53219859E-01	-2.97648757E-01
5.45535932E+07	 1.53147742E-01	-2.97680247E-01
5.45658013E+07	 1.53073693E-01	-2.97719647E-01
5.45780093E+07	 1.53002191E-01	-2.97755393E-01
5.45902173E+07	 1.52932280E-01	-2.97794939E-01
5.46024253E+07	 1.52860632E-01	-2.97828816E-01
5.46146334E+07	 1.52782628E-01	-2.97872680E-01
5.46268414E+07	 1.52704898E-01	-2.97907166E-01
5.46390494E+07	 1.52637916E-01	-2.97952471E-01
5.46512574E+07	 1.52560156E-01	-2.97988460E-01
5.46634655E+07	 1.52491202E-01	-2.98018230E-01
5.46756735E+07	 1.52412601E-01	-2.98057638E-01
5.46878815E+07	 1.52339281E-01	-2.98101525E-01
5.47000895E+07	 1.52274740E-01	-2.98133204E-01
5.47122976E+07	 1.52191805E-01	-2.98177456E-01
5.47245056E+07	 1.52125749E-01	-2.98217300E-01
5.47367136E+07	 1.52053404E-01	-2.98251764E-01
5.47489216E+07	 1.51980765E-01	-2.98291187E-01
5.47611296E+07	 1.51909425E-01	-2.98323509E-01
5.47733377E+07	 1.51830181E-01	-2.98363664E-01
5.47855457E+07	 1.51760868E-01	-2.98406717E-01
5.47977537E+07	 1.51678084E-01	-2.98443824E-01
5.48099617E+07	 1.51613916E-01	-2.98474885E-01
5.48221698E+07	 1.51538095E-01	-2.98512715E-01
5.48343778E+07	 1.51463958E-01	-2.98550487E-01
5.48465858E+07	 1.51393406E-01	-2.98594354E-01
5.48587938E+07	 1.51317863E-01	-2.98627762E-01
5.48710019E+07	 1.51244942E-01	-2.98669389E-01
5.48832099E+07	 1.51167496E-01	-2.98704334E-01
5.48954179E+07	 1.51091419E-01	-2.98744243E-01
5.49076259E+07	 1.51027946E-01	-2.98779756E-01
5.49198340E+07	 1.50954175E-01	-2.98818546E-01
5.49320420E+07	 1.50877994E-01	-2.98854766E-01
5.49442500E+07	 1.50797457E-01	-2.98875821E-01
5.49564580E+07	 1.50724280E-01	-2.98920843E-01
5.49686661E+07	 1.50664275E-01	-2.98960714E-01
5.49808741E+07	 1.50582872E-01	-2.99004547E-01
5.49930821E+07	 1.50517716E-01	-2.99038322E-01
5.50052901E+07	 1.50439050E-01	-2.99072023E-01
5.50174982E+07	 1.50359650E-01	-2.99116606E-01
5.50297062E+07	 1.50287271E-01	-2.99149889E-01
5.50419142E+07	 1.50218505E-01	-2.99193894E-01
5.50541222E+07	 1.50143627E-01	-2.99224734E-01
5.50663303E+07	 1.50078133E-01	-2.99262624E-01
5.50785383E+07	 1.50011076E-01	-2.99303040E-01
5.50907463E+07	 1.49928857E-01	-2.99337864E-01
5.51029543E+07	 1.49855939E-01	-2.99382942E-01
5.51151624E+07	 1.49780568E-01	-2.99419414E-01
5.51273704E+07	 1.49712664E-01	-2.99458042E-01
