! COPPER MOUNTAIN TECHNOLOGIES, PLANAR TR1300/1, 00071119, 20.2.2/1.0
! Date: 12/11/2023 3:20:41 PM
! Data: Format [Calibration Info]
! Freq          	S11: Re/Im F1                  
# HZ S RI R 50
5.00000000E+07	-1.71355176E-01	 2.74066155E-01
5.00122080E+07	-1.71289670E-01	 2.74109856E-01
5.00244160E+07	-1.71229239E-01	 2.74153215E-01
5.00366241E+07	-1.71159626E-01	 2.74191096E-01
5.00488321E+07	-1.71090398E-01	 2.74235786E-01
5.00610401E+07	-1.71021341E-01	 2.74266766E-01
5.00732481E+07	-1.70955705E-01	 2.74306794E-01
5.00854562E+07	-1.70887720E-01	 2.74351971E-01
5.00976642E+07	-1.70814664E-01	 2.74391246E-01
5.01098722E+07	-1.70754887E-01	 2.74436522E-01
5.01220802E+07	-1.70684316E-01	 2.74477009E-01
5.01342883E+07	-1.70615696E-01	 2.74514077E-01
5.01464963E+07	-1.70546031E-01	 2.74550141E-01
5.01587043E+07	-1.70485116E-01	 2.74593709E-01
5.01709123E+07	-1.70413244E-01	 2.74635794E-01
5.01831204E+07	-1.70344260E-01	 2.74673271E-01
5.01953284E+07	-1.70275917E-01	 2.74713191E-01
5.02075364E+07	-1.70211890E-01	 2.74757904E-01
5.02197444E+07	-1.70142709E-01	 2.74802350E-01
5.02319525E+07	-1.70074047E-01	 2.74832202E-01
5.02441605E+07	-1.70009286E-01	 2.74877564E-01
5.02563685E+07	-1.69938685E-01	 2.74920741E-01
5.02685765E+07	-1.69872889E-01	 2.74955633E-01
5.02807846E+07	-1.69806895E-01	 2.74999162E-01
5.02929926E+07	-1.69736705E-01	 2.75037201E-01
5.03052006E+07	-1.69665273E-01	 2.75076811E-01
5.03174086E+07	-1.69600062E-01	 2.75112438E-01
5.03296167E+07	-1.69530008E-01	 2.75155327E-01
5.03418247E+07	-1.69461305E-01	 2.75200214E-01
5.03540327E+07	-1.69395611E-01	 2.75237951E-01
5.03662407E+07	-1.69320704E-01	 2.75285597E-01
5.03784488E+07	-1.69260096E-01	 2.75317841E-01
5.03906568E+07	-1.69193660E-01	 2.75361303E-01
5.04028648E+07	-1.69123702E-01	 2.75401540E-01
5.04150728E+07	-1.69053661E-01	 2.75433764E-01
5.04272809E+07	-1.68984965E-01	 2.75484279E-01
5.04394889E+07	-1.68924772E-01	 2.75517911E-01
5.04516969E+07	-1.68857695E-01	 2.75557208E-01
5.04639049E+07	-1.68788030E-01	 2.75598953E-01
5.04761130E+07	-1.68715537E-01	 2.75642372E-01
5.04883210E+07	-1.68650472E-01	 2.75680590E-01
5.05005290E+07	-1.68579332E-01	 2.75722702E-01
5.05127370E+07	-1.68506424E-01	 2.75762135E-01
5.05249451E+07	-1.68453963E-01	 2.75803040E-01
5.05371531E+07	-1.68382185E-01	 2.75848035E-01
5.05493611E+07	-1.68312256E-01	 2.75882154E-01
5.05615691E+07	-1.68239942E-01	 2.75921601E-01
5.05737772E+07	-1.68172782E-01	 2.75960622E-01
5.05859852E+07	-1.68106201E-01	 2.76000920E-01
5.05981932E+07	-1.68035800E-01	 2.76040236E-01
5.06104012E+07	-1.67967674E-01	 2.76081347E-01
5.06226093E+07	-1.67898010E-01	 2.76121679E-01
5.06348173E+07	-1.67836014E-01	 2.76159246E-01
5.06470253E+07	-1.67773677E-01	 2.76199771E-01
5.06592333E+07	-1.67694740E-01	 2.76238925E-01
5.06714414E+07	-1.67627968E-01	 2.76282170E-01
5.06836494E+07	-1.67561793E-01	 2.76322887E-01
5.06958574E+07	-1.67492043E-01	 2.76358199E-01
5.07080654E+07	-1.67430799E-01	 2.76395098E-01
5.07202735E+07	-1.67356022E-01	 2.76435091E-01
5.07324815E+07	-1.67288246E-01	 2.76473934E-01
5.07446895E+07	-1.67224063E-01	 2.76514413E-01
5.07568975E+07	-1.67151119E-01	 2.76550316E-01
5.07691056E+07	-1.67090417E-01	 2.76594975E-01
5.07813136E+07	-1.67016837E-01	 2.76635841E-01
5.07935216E+07	-1.66946283E-01	 2.76683299E-01
5.08057296E+07	-1.66875580E-01	 2.76711267E-01
5.08179377E+07	-1.66806289E-01	 2.76759825E-01
5.08301457E+07	-1.66737827E-01	 2.76796340E-01
5.08423537E+07	-1.66675680E-01	 2.76839089E-01
5.08545617E+07	-1.66613290E-01	 2.76873283E-01
5.08667698E+07	-1.66537832E-01	 2.76913608E-01
5.08789778E+07	-1.66467138E-01	 2.76954982E-01
5.08911858E+07	-1.66401187E-01	 2.76988630E-01
5.09033938E+07	-1.66334793E-01	 2.77027636E-01
5.09156019E+07	-1.66266561E-01	 2.77071228E-01
5.09278099E+07	-1.66193326E-01	 2.77100965E-01
5.09400179E+07	-1.66128191E-01	 2.77148110E-01
5.09522259E+07	-1.66060209E-01	 2.77190876E-01
5.09644340E+07	-1.65996056E-01	 2.77228536E-01
5.09766420E+07	-1.65926479E-01	 2.77263744E-01
5.09888500E+07	-1.65852671E-01	 2.77302782E-01
5.10010580E+07	-1.65784685E-01	 2.77346647E-01
5.10132661E+07	-1.65713330E-01	 2.77386107E-01
5.10254741E+07	-1.65649689E-01	 2.77421050E-01
5.10376821E+07	-1.65577833E-01	 2.77466872E-01
5.10498901E+07	-1.65511933E-01	 2.77498105E-01
5.10620982E+07	-1.65443888E-01	 2.77542653E-01
5.10743062E+07	-1.65371914E-01	 2.77576433E-01
5.10865142E+07	-1.65305217E-01	 2.77625050E-01
5.10987222E+07	-1.65240360E-01	 2.77652399E-01
5.11109303E+07	-1.65174340E-01	 2.77703826E-01
5.11231383E+07	-1.65099809E-01	 2.77734640E-01
5.11353463E+07	-1.65027673E-01	 2.77773395E-01
5.11475543E+07	-1.64961673E-01	 2.77818533E-01
5.11597624E+07	-1.64891422E-01	 2.77854706E-01
5.11719704E+07	-1.64821759E-01	 2.77895538E-01
5.11841784E+07	-1.64751226E-01	 2.77929419E-01
5.11963864E+07	-1.64680373E-01	 2.77975316E-01
5.12085944E+07	-1.64617062E-01	 2.78008212E-01
5.12208025E+07	-1.64547799E-01	 2.78048588E-01
5.12330105E+07	-1.64479989E-01	 2.78090948E-01
5.12452185E+07	-1.64404516E-01	 2.78123817E-01
5.12574265E+07	-1.64339775E-01	 2.78165367E-01
5.12696346E+07	-1.64272417E-01	 2.78199327E-01
5.12818426E+07	-1.64205506E-01	 2.78240655E-01
5.12940506E+07	-1.64135180E-01	 2.78285076E-01
5.13062586E+07	-1.64067953E-01	 2.78319230E-01
5.13184667E+07	-1.63998381E-01	 2.78358016E-01
5.13306747E+07	-1.63925572E-01	 2.78393939E-01
5.13428827E+07	-1.63854890E-01	 2.78437598E-01
5.13550907E+07	-1.63786856E-01	 2.78474438E-01
5.13672988E+07	-1.63721992E-01	 2.78515029E-01
5.13795068E+07	-1.63647483E-01	 2.78559155E-01
5.13917148E+07	-1.63578597E-01	 2.78589987E-01
5.14039228E+07	-1.63516977E-01	 2.78627246E-01
5.14161309E+07	-1.63443011E-01	 2.78666074E-01
5.14283389E+07	-1.63367027E-01	 2.78708329E-01
5.14405469E+07	-1.63305894E-01	 2.78737201E-01
5.14527549E+07	-1.63237113E-01	 2.78777890E-01
5.14649630E+07	-1.63160021E-01	 2.78823277E-01
5.14771710E+07	-1.63088919E-01	 2.78851015E-01
5.14893790E+07	-1.63026883E-01	 2.78895669E-01
5.15015870E+07	-1.62959459E-01	 2.78935349E-01
5.15137951E+07	-1.62897857E-01	 2.78973066E-01
5.15260031E+07	-1.62825030E-01	 2.79016755E-01
5.15382111E+07	-1.62753615E-01	 2.79049012E-01
5.15504191E+07	-1.62687722E-01	 2.79092584E-01
5.15626272E+07	-1.62613015E-01	 2.79128542E-01
5.15748352E+07	-1.62546329E-01	 2.79177683E-01
5.15870432E+07	-1.62480609E-01	 2.79204183E-01
5.15992512E+07	-1.62402757E-01	 2.79241895E-01
5.16114593E+07	-1.62335271E-01	 2.79284488E-01
5.16236673E+07	-1.62271790E-01	 2.79319497E-01
5.16358753E+07	-1.62191608E-01	 2.79367048E-01
5.16480833E+07	-1.62130190E-01	 2.79397341E-01
5.16602914E+07	-1.62062662E-01	 2.79436627E-01
5.16724994E+07	-1.61992585E-01	 2.79475588E-01
5.16847074E+07	-1.61926362E-01	 2.79511333E-01
5.16969154E+07	-1.61854322E-01	 2.79550614E-01
5.17091235E+07	-1.61784847E-01	 2.79590761E-01
5.17213315E+07	-1.61711344E-01	 2.79636077E-01
5.17335395E+07	-1.61642766E-01	 2.79666453E-01
5.17457475E+07	-1.61580585E-01	 2.79703745E-01
5.17579556E+07	-1.61505504E-01	 2.79744453E-01
5.17701636E+07	-1.61442698E-01	 2.79772418E-01
5.17823716E+07	-1.61367694E-01	 2.79815647E-01
5.17945796E+07	-1.61294509E-01	 2.79853945E-01
5.18067877E+07	-1.61224229E-01	 2.79899420E-01
5.18189957E+07	-1.61160698E-01	 2.79934346E-01
5.18312037E+07	-1.61087320E-01	 2.79967342E-01
5.18434117E+07	-1.61020218E-01	 2.80008832E-01
5.18556198E+07	-1.60951431E-01	 2.80046021E-01
5.18678278E+07	-1.60878989E-01	 2.80085719E-01
5.18800358E+07	-1.60813839E-01	 2.80129340E-01
5.18922438E+07	-1.60744017E-01	 2.80161240E-01
5.19044519E+07	-1.60679117E-01	 2.80199073E-01
5.19166599E+07	-1.60610942E-01	 2.80240463E-01
5.19288679E+07	-1.60536255E-01	 2.80269722E-01
5.19410759E+07	-1.60473785E-01	 2.80311735E-01
5.19532840E+07	-1.60398932E-01	 2.80349624E-01
5.19654920E+07	-1.60326028E-01	 2.80384167E-01
5.19777000E+07	-1.60255469E-01	 2.80423961E-01
5.19899080E+07	-1.60188687E-01	 2.80461754E-01
5.20021161E+07	-1.60117262E-01	 2.80497948E-01
5.20143241E+07	-1.60050701E-01	 2.80541108E-01
5.20265321E+07	-1.59985898E-01	 2.80573321E-01
5.20387401E+07	-1.59903421E-01	 2.80610168E-01
5.20509482E+07	-1.59838614E-01	 2.80655021E-01
5.20631562E+07	-1.59771850E-01	 2.80681170E-01
5.20753642E+07	-1.59708465E-01	 2.80725131E-01
5.20875722E+07	-1.59636954E-01	 2.80763612E-01
5.20997803E+07	-1.59562463E-01	 2.80800353E-01
5.21119883E+07	-1.59496412E-01	 2.80839681E-01
5.21241963E+07	-1.59426736E-01	 2.80880471E-01
5.21364043E+07	-1.59356156E-01	 2.80916994E-01
5.21486124E+07	-1.59287865E-01	 2.80951859E-01
5.21608204E+07	-1.59218529E-01	 2.80989567E-01
5.21730284E+07	-1.59144351E-01	 2.81019952E-01
5.21852364E+07	-1.59083570E-01	 2.81060499E-01
5.21974445E+07	-1.59013565E-01	 2.81097864E-01
5.22096525E+07	-1.58947385E-01	 2.81140902E-01
5.22218605E+07	-1.58870571E-01	 2.81182593E-01
5.22340685E+07	-1.58800664E-01	 2.81213992E-01
5.22462766E+07	-1.58735705E-01	 2.81253589E-01
5.22584846E+07	-1.58667048E-01	 2.81291333E-01
5.22706926E+07	-1.58598557E-01	 2.81323286E-01
5.22829006E+07	-1.58526875E-01	 2.81364418E-01
5.22951087E+07	-1.58456508E-01	 2.81399767E-01
5.23073167E+07	-1.58382114E-01	 2.81439590E-01
5.23195247E+07	-1.58324487E-01	 2.81475915E-01
5.23317327E+07	-1.58252176E-01	 2.81515932E-01
5.23439408E+07	-1.58173736E-01	 2.81553735E-01
5.23561488E+07	-1.58113819E-01	 2.81589105E-01
5.23683568E+07	-1.58036049E-01	 2.81624757E-01
5.23805648E+07	-1.57977371E-01	 2.81663201E-01
5.23927728E+07	-1.57900552E-01	 2.81705424E-01
5.24049809E+07	-1.57837722E-01	 2.81739431E-01
5.24171889E+07	-1.57760728E-01	 2.81778097E-01
5.24293969E+07	-1.57690261E-01	 2.81811569E-01
5.24416049E+07	-1.57618677E-01	 2.81847708E-01
5.24538130E+07	-1.57553138E-01	 2.81882216E-01
5.24660210E+07	-1.57489559E-01	 2.81925109E-01
5.24782290E+07	-1.57420077E-01	 2.81964590E-01
5.24904370E+07	-1.57346269E-01	 2.82002000E-01
5.25026451E+07	-1.57289937E-01	 2.82035034E-01
5.25148531E+07	-1.57205202E-01	 2.82070606E-01
5.25270611E+07	-1.57141986E-01	 2.82108922E-01
5.25392691E+07	-1.57067925E-01	 2.82152012E-01
5.25514772E+07	-1.56997587E-01	 2.82184858E-01
5.25636852E+07	-1.56927505E-01	 2.82215027E-01
5.25758932E+07	-1.56860489E-01	 2.82257646E-01
5.25881012E+07	-1.56798145E-01	 2.82291668E-01
5.26003093E+07	-1.56725132E-01	 2.82327281E-01
5.26125173E+07	-1.56652959E-01	 2.82367037E-01
5.26247253E+07	-1.56586846E-01	 2.82407085E-01
5.26369333E+07	-1.56509611E-01	 2.82445950E-01
5.26491414E+07	-1.56440942E-01	 2.82479338E-01
5.26613494E+07	-1.56381214E-01	 2.82511801E-01
5.26735574E+07	-1.56303839E-01	 2.82558793E-01
5.26857654E+07	-1.56232808E-01	 2.82588757E-01
5.26979735E+07	-1.56161938E-01	 2.82617123E-01
5.27101815E+07	-1.56088964E-01	 2.82662484E-01
5.27223895E+07	-1.56019615E-01	 2.82696126E-01
5.27345975E+07	-1.55960624E-01	 2.82737210E-01
5.27468056E+07	-1.55891452E-01	 2.82770722E-01
5.27590136E+07	-1.55819684E-01	 2.82808756E-01
5.27712216E+07	-1.55746317E-01	 2.82845522E-01
5.27834296E+07	-1.55686374E-01	 2.82880084E-01
5.27956377E+07	-1.55613408E-01	 2.82922776E-01
5.28078457E+07	-1.55535994E-01	 2.82963282E-01
5.28200537E+07	-1.55469786E-01	 2.82992380E-01
5.28322617E+07	-1.55398856E-01	 2.83028928E-01
5.28444698E+07	-1.55328978E-01	 2.83071990E-01
5.28566778E+07	-1.55254654E-01	 2.83102763E-01
5.28688858E+07	-1.55190487E-01	 2.83141021E-01
5.28810938E+07	-1.55117795E-01	 2.83175395E-01
5.28933019E+07	-1.55047276E-01	 2.83211062E-01
5.29055099E+07	-1.54969570E-01	 2.83249037E-01
5.29177179E+07	-1.54902097E-01	 2.83286982E-01
5.29299259E+07	-1.54838145E-01	 2.83321811E-01
5.29421340E+07	-1.54769408E-01	 2.83356327E-01
5.29543420E+07	-1.54701095E-01	 2.83398526E-01
5.29665500E+07	-1.54631321E-01	 2.83430188E-01
5.29787580E+07	-1.54563815E-01	 2.83465952E-01
5.29909661E+07	-1.54485235E-01	 2.83503631E-01
5.30031741E+07	-1.54421746E-01	 2.83541573E-01
5.30153821E+07	-1.54349604E-01	 2.83578992E-01
5.30275901E+07	-1.54283992E-01	 2.83612076E-01
5.30397982E+07	-1.54207406E-01	 2.83649703E-01
5.30520062E+07	-1.54136017E-01	 2.83692570E-01
5.30642142E+07	-1.54069032E-01	 2.83723243E-01
5.30764222E+07	-1.54007415E-01	 2.83762818E-01
5.30886303E+07	-1.53933401E-01	 2.83799112E-01
5.31008383E+07	-1.53856342E-01	 2.83832037E-01
5.31130463E+07	-1.53791859E-01	 2.83867134E-01
5.31252543E+07	-1.53722098E-01	 2.83904434E-01
5.31374624E+07	-1.53654500E-01	 2.83946865E-01
5.31496704E+07	-1.53583011E-01	 2.83975843E-01
5.31618784E+07	-1.53516862E-01	 2.84013775E-01
5.31740864E+07	-1.53450581E-01	 2.84051180E-01
5.31862945E+07	-1.53369230E-01	 2.84084582E-01
5.31985025E+07	-1.53299494E-01	 2.84123990E-01
5.32107105E+07	-1.53231988E-01	 2.84155020E-01
5.32229185E+07	-1.53162552E-01	 2.84195956E-01
5.32351266E+07	-1.53097562E-01	 2.84228283E-01
5.32473346E+07	-1.53019885E-01	 2.84267636E-01
5.32595426E+07	-1.52951544E-01	 2.84301386E-01
5.32717506E+07	-1.52882840E-01	 2.84342019E-01
5.32839587E+07	-1.52809074E-01	 2.84372934E-01
5.32961667E+07	-1.52736541E-01	 2.84410181E-01
5.33083747E+07	-1.52669340E-01	 2.84451759E-01
5.33205827E+07	-1.52603208E-01	 2.84487379E-01
5.33327908E+07	-1.52532934E-01	 2.84516894E-01
5.33449988E+07	-1.52461412E-01	 2.84559301E-01
5.33572068E+07	-1.52386261E-01	 2.84594986E-01
5.33694148E+07	-1.52320822E-01	 2.84627548E-01
5.33816229E+07	-1.52251189E-01	 2.84661154E-01
5.33938309E+07	-1.52184047E-01	 2.84698797E-01
5.34060389E+07	-1.52108406E-01	 2.84734578E-01
5.34182469E+07	-1.52034294E-01	 2.84773069E-01
5.34304550E+07	-1.51970926E-01	 2.84809205E-01
5.34426630E+07	-1.51897509E-01	 2.84842844E-01
5.34548710E+07	-1.51832732E-01	 2.84878739E-01
5.34670790E+07	-1.51752661E-01	 2.84912243E-01
5.34792871E+07	-1.51686439E-01	 2.84946708E-01
5.34914951E+07	-1.51615124E-01	 2.84990978E-01
5.35037031E+07	-1.51543498E-01	 2.85025419E-01
5.35159111E+07	-1.51474643E-01	 2.85058308E-01
5.35281192E+07	-1.51406188E-01	 2.85102925E-01
5.35403272E+07	-1.51333382E-01	 2.85130246E-01
5.35525352E+07	-1.51259987E-01	 2.85170484E-01
5.35647432E+07	-1.51198188E-01	 2.85193449E-01
5.35769512E+07	-1.51126559E-01	 2.85241167E-01
5.35891593E+07	-1.51053554E-01	 2.85276083E-01
5.36013673E+07	-1.50985074E-01	 2.85302641E-01
5.36135753E+07	-1.50919781E-01	 2.85343308E-01
5.36257833E+07	-1.50839064E-01	 2.85377753E-01
5.36379914E+07	-1.50768018E-01	 2.85413171E-01
5.36501994E+07	-1.50702653E-01	 2.85452701E-01
5.36624074E+07	-1.50630351E-01	 2.85485784E-01
5.36746154E+07	-1.50563004E-01	 2.85525821E-01
5.36868235E+07	-1.50493770E-01	 2.85553907E-01
5.36990315E+07	-1.50417485E-01	 2.85599388E-01
5.37112395E+07	-1.50358671E-01	 2.85628758E-01
5.37234475E+07	-1.50276507E-01	 2.85663450E-01
5.37356556E+07	-1.50209383E-01	 2.85696827E-01
5.37478636E+07	-1.50140051E-01	 2.85741223E-01
5.37600716E+07	-1.50074966E-01	 2.85775227E-01
5.37722796E+07	-1.49998987E-01	 2.85806634E-01
5.37844877E+07	-1.49923635E-01	 2.85844321E-01
5.37966957E+07	-1.49857705E-01	 2.85874829E-01
5.38089037E+07	-1.49788962E-01	 2.85907477E-01
5.38211117E+07	-1.49717642E-01	 2.85947756E-01
5.38333198E+07	-1.49646644E-01	 2.85982738E-01
5.38455278E+07	-1.49576532E-01	 2.86012073E-01
5.38577358E+07	-1.49508584E-01	 2.86053707E-01
5.38699438E+07	-1.49436623E-01	 2.86090584E-01
5.38821519E+07	-1.49367071E-01	 2.86124535E-01
5.38943599E+07	-1.49298260E-01	 2.86157989E-01
5.39065679E+07	-1.49223636E-01	 2.86194641E-01
5.39187759E+07	-1.49152192E-01	 2.86230803E-01
5.39309840E+07	-1.49084569E-01	 2.86272848E-01
5.39431920E+07	-1.49005475E-01	 2.86302984E-01
5.39554000E+07	-1.48938590E-01	 2.86343163E-01
5.39676080E+07	-1.48871078E-01	 2.86371779E-01
5.39798161E+07	-1.48800733E-01	 2.86399852E-01
5.39920241E+07	-1.48727889E-01	 2.86440797E-01
5.40042321E+07	-1.48657239E-01	 2.86478863E-01
5.40164401E+07	-1.48587943E-01	 2.86510004E-01
5.40286482E+07	-1.48517231E-01	 2.86547842E-01
5.40408562E+07	-1.48451335E-01	 2.86577532E-01
5.40530642E+07	-1.48379242E-01	 2.86611525E-01
5.40652722E+07	-1.48301033E-01	 2.86656967E-01
5.40774803E+07	-1.48233613E-01	 2.86687123E-01
5.40896883E+07	-1.48159739E-01	 2.86725274E-01
5.41018963E+07	-1.48096742E-01	 2.86751262E-01
5.41141043E+07	-1.48024876E-01	 2.86795673E-01
5.41263124E+07	-1.47945791E-01	 2.86826117E-01
5.41385204E+07	-1.47885815E-01	 2.86862241E-01
5.41507284E+07	-1.47808928E-01	 2.86898067E-01
5.41629364E+07	-1.47745848E-01	 2.86927540E-01
5.41751445E+07	-1.47668748E-01	 2.86962123E-01
5.41873525E+07	-1.47597738E-01	 2.86996756E-01
5.41995605E+07	-1.47531528E-01	 2.87032837E-01
5.42117685E+07	-1.47454081E-01	 2.87074540E-01
5.42239766E+07	-1.47386387E-01	 2.87102825E-01
5.42361846E+07	-1.47317834E-01	 2.87138872E-01
5.42483926E+07	-1.47250464E-01	 2.87171558E-01
5.42606006E+07	-1.47177419E-01	 2.87209344E-01
5.42728087E+07	-1.47101156E-01	 2.87238981E-01
5.42850167E+07	-1.47038552E-01	 2.87283467E-01
5.42972247E+07	-1.46961534E-01	 2.87316203E-01
5.43094327E+07	-1.46889119E-01	 2.87346039E-01
5.43216408E+07	-1.46821078E-01	 2.87376496E-01
5.43338488E+07	-1.46751099E-01	 2.87415587E-01
5.43460568E+07	-1.46681828E-01	 2.87448246E-01
5.43582648E+07	-1.46609405E-01	 2.87476648E-01
5.43704729E+07	-1.46537786E-01	 2.87519703E-01
5.43826809E+07	-1.46464568E-01	 2.87554755E-01
5.43948889E+07	-1.46394108E-01	 2.87579628E-01
5.44070969E+07	-1.46322073E-01	 2.87612927E-01
5.44193050E+07	-1.46250467E-01	 2.87647308E-01
5.44315130E+07	-1.46189799E-01	 2.87683208E-01
5.44437210E+07	-1.46108970E-01	 2.87714868E-01
5.44559290E+07	-1.46036534E-01	 2.87758978E-01
5.44681371E+07	-1.45968272E-01	 2.87788332E-01
5.44803451E+07	-1.45911691E-01	 2.87824467E-01
5.44925531E+07	-1.45828466E-01	 2.87857653E-01
5.45047611E+07	-1.45761269E-01	 2.87892006E-01
5.45169692E+07	-1.45685089E-01	 2.87925184E-01
5.45291772E+07	-1.45615602E-01	 2.87965296E-01
5.45413852E+07	-1.45546349E-01	 2.87998415E-01
5.45535932E+07	-1.45481690E-01	 2.88027297E-01
5.45658013E+07	-1.45403010E-01	 2.88067108E-01
5.45780093E+07	-1.45336731E-01	 2.88092504E-01
5.45902173E+07	-1.45265909E-01	 2.88133808E-01
5.46024253E+07	-1.45195619E-01	 2.88170366E-01
5.46146334E+07	-1.45126304E-01	 2.88201649E-01
5.46268414E+07	-1.45044503E-01	 2.88236293E-01
5.46390494E+07	-1.44976271E-01	 2.88275039E-01
5.46512574E+07	-1.44906028E-01	 2.88300547E-01
5.46634655E+07	-1.44829513E-01	 2.88337359E-01
5.46756735E+07	-1.44769891E-01	 2.88373772E-01
5.46878815E+07	-1.44692188E-01	 2.88409641E-01
5.47000895E+07	-1.44623586E-01	 2.88435380E-01
5.47122976E+07	-1.44551065E-01	 2.88481258E-01
5.47245056E+07	-1.44481610E-01	 2.88507294E-01
5.47367136E+07	-1.44411743E-01	 2.88538770E-01
5.47489216E+07	-1.44340318E-01	 2.88576664E-01
5.47611296E+07	-1.44270185E-01	 2.88609486E-01
5.47733377E+07	-1.44196206E-01	 2.88636347E-01
5.47855457E+07	-1.44127964E-01	 2.88675151E-01
5.47977537E+07	-1.44050764E-01	 2.88702114E-01
5.48099617E+07	-1.43990011E-01	 2.88743344E-01
5.48221698E+07	-1.43914496E-01	 2.88771759E-01
5.48343778E+07	-1.43845496E-01	 2.88804538E-01
5.48465858E+07	-1.43773713E-01	 2.88845839E-01
5.48587938E+07	-1.43690438E-01	 2.88871973E-01
5.48710019E+07	-1.43625144E-01	 2.88911006E-01
5.48832099E+07	-1.43557268E-01	 2.88950295E-01
5.48954179E+07	-1.43483877E-01	 2.88975169E-01
5.49076259E+07	-1.43414708E-01	 2.89014515E-01
5.49198340E+07	-1.43346750E-01	 2.89047125E-01
5.49320420E+07	-1.43270217E-01	 2.89082497E-01
5.49442500E+07	-1.43193330E-01	 2.89101077E-01
5.49564580E+07	-1.43121454E-01	 2.89146649E-01
5.49686661E+07	-1.43057358E-01	 2.89175001E-01
5.49808741E+07	-1.42979451E-01	 2.89210986E-01
5.49930821E+07	-1.42914473E-01	 2.89248614E-01
5.50052901E+07	-1.42842137E-01	 2.89280811E-01
5.50174982E+07	-1.42767866E-01	 2.89320068E-01
5.50297062E+07	-1.42693017E-01	 2.89349839E-01
5.50419142E+07	-1.42626135E-01	 2.89383695E-01
5.50541222E+07	-1.42550120E-01	 2.89416168E-01
5.50663303E+07	-1.42483965E-01	 2.89450527E-01
5.50785383E+07	-1.42412868E-01	 2.89483042E-01
5.50907463E+07	-1.42350616E-01	 2.89517558E-01
5.51029543E+07	-1.42264784E-01	 2.89542228E-01
5.51151624E+07	-1.42199482E-01	 2.89583369E-01
5.51273704E+07	-1.42131466E-01	 2.89617529E-01
