! COPPER MOUNTAIN TECHNOLOGIES, PLANAR TR1300/1, 00071119, 20.2.2/1.0
! Date: 12/11/2023 3:37:49 PM
! Data: Format [Calibration Info]
! Freq          	S11: Re/Im F1                  
# HZ S RI R 50
5.00000000E+07	-1.82948240E-02	 1.70084941E-03
5.00122080E+07	-1.84542839E-02	 1.96734211E-03
5.00244160E+07	-1.81403983E-02	 1.47120565E-03
5.00366241E+07	-1.85386707E-02	 1.90321842E-03
5.00488321E+07	-1.84996218E-02	 1.60218588E-03
5.00610401E+07	-1.85147684E-02	 1.94711329E-03
5.00732481E+07	-1.84832283E-02	 1.81741284E-03
5.00854562E+07	-1.84401535E-02	 1.75243100E-03
5.00976642E+07	-1.84479510E-02	 1.94470632E-03
5.01098722E+07	-1.84523813E-02	 1.42185984E-03
5.01220802E+07	-1.81980621E-02	 1.82197752E-03
5.01342883E+07	-1.84339173E-02	 1.76654569E-03
5.01464963E+07	-1.84735173E-02	 1.42618138E-03
5.01587043E+07	-1.83787076E-02	 1.69851454E-03
5.01709123E+07	-1.82887691E-02	 1.66446947E-03
5.01831204E+07	-1.83117801E-02	 1.63175981E-03
5.01953284E+07	-1.83038978E-02	 1.89490306E-03
5.02075364E+07	-1.83110724E-02	 1.37762599E-03
5.02197444E+07	-1.84510951E-02	 1.62254984E-03
5.02319525E+07	-1.82807925E-02	 1.85656230E-03
5.02441605E+07	-1.85367943E-02	 1.84535932E-03
5.02563685E+07	-1.82161548E-02	 1.69445852E-03
5.02685765E+07	-1.85488712E-02	 1.76961222E-03
5.02807846E+07	-1.85393468E-02	 1.53096065E-03
5.02929926E+07	-1.82632801E-02	 1.57259056E-03
5.03052006E+07	-1.83429885E-02	 1.88682887E-03
5.03174086E+07	-1.81583950E-02	 1.53449599E-03
5.03296167E+07	-1.83644185E-02	 1.94416493E-03
5.03418247E+07	-1.84043080E-02	 1.85336923E-03
5.03540327E+07	-1.84680374E-02	 1.74802288E-03
5.03662407E+07	-1.86280801E-02	 1.85758716E-03
5.03784488E+07	-1.82313574E-02	 1.60599503E-03
5.03906568E+07	-1.83525858E-02	 1.72953921E-03
5.04028648E+07	-1.81543677E-02	 1.58449819E-03
5.04150728E+07	-1.83961989E-02	 2.01709577E-03
5.04272809E+07	-1.82291658E-02	 1.58287892E-03
5.04394889E+07	-1.82981674E-02	 1.90949624E-03
5.04516969E+07	-1.82496245E-02	 1.77459866E-03
5.04639049E+07	-1.81978523E-02	 1.79311429E-03
5.04761130E+07	-1.85668267E-02	 1.77704548E-03
5.04883210E+07	-1.84340021E-02	 1.87652344E-03
5.05005290E+07	-1.85309350E-02	 1.84475629E-03
5.05127370E+07	-1.81349342E-02	 1.86757051E-03
5.05249451E+07	-1.84447012E-02	 1.67598124E-03
5.05371531E+07	-1.83402700E-02	 1.65452326E-03
5.05493611E+07	-1.82593530E-02	 1.71344873E-03
5.05615691E+07	-1.86552978E-02	 1.63143319E-03
5.05737772E+07	-1.85621826E-02	 1.84631034E-03
5.05859852E+07	-1.84363312E-02	 1.72746382E-03
5.05981932E+07	-1.84596632E-02	 1.72518705E-03
5.06104012E+07	-1.82151188E-02	 1.56417804E-03
5.06226093E+07	-1.82375296E-02	 2.02868050E-03
5.06348173E+07	-1.85959120E-02	 1.69314743E-03
5.06470253E+07	-1.82791544E-02	 1.71785604E-03
5.06592333E+07	-1.82812517E-02	 1.83227439E-03
5.06714414E+07	-1.82662234E-02	 1.84084316E-03
5.06836494E+07	-1.83783062E-02	 1.43329523E-03
5.06958574E+07	-1.84048131E-02	 1.76114874E-03
5.07080654E+07	-1.84943576E-02	 1.90931236E-03
5.07202735E+07	-1.84672868E-02	 1.64519890E-03
5.07324815E+07	-1.84416431E-02	 1.86807429E-03
5.07446895E+07	-1.84666402E-02	 1.70008663E-03
5.07568975E+07	-1.84986784E-02	 1.61841535E-03
5.07691056E+07	-1.84600282E-02	 1.67523576E-03
5.07813136E+07	-1.84191233E-02	 1.70179728E-03
5.07935216E+07	-1.85068834E-02	 1.77729046E-03
5.08057296E+07	-1.84261087E-02	 1.58469187E-03
5.08179377E+07	-1.86261999E-02	 1.69567357E-03
5.08301457E+07	-1.83564334E-02	 1.74383053E-03
5.08423537E+07	-1.82548619E-02	 1.79602913E-03
5.08545617E+07	-1.83315465E-02	 1.83069383E-03
5.08667698E+07	-1.82253609E-02	 1.92006027E-03
5.08789778E+07	-1.84212899E-02	 1.73192559E-03
5.08911858E+07	-1.83584801E-02	 1.76353013E-03
5.09033938E+07	-1.84351265E-02	 1.76203491E-03
5.09156019E+07	-1.83803483E-02	 1.32458313E-03
5.09278099E+07	-1.83600957E-02	 1.78731141E-03
5.09400179E+07	-1.83500458E-02	 1.60181178E-03
5.09522259E+07	-1.81178481E-02	 1.48031105E-03
5.09644340E+07	-1.83587074E-02	 1.80252563E-03
5.09766420E+07	-1.83569620E-02	 1.99261412E-03
5.09888500E+07	-1.85284378E-02	 1.80119180E-03
5.10010580E+07	-1.84216697E-02	 1.57778108E-03
5.10132661E+07	-1.86111945E-02	 1.68987060E-03
5.10254741E+07	-1.85063380E-02	 1.62119039E-03
5.10376821E+07	-1.83280290E-02	 1.71913629E-03
5.10498901E+07	-1.83758694E-02	 1.84597477E-03
5.10620982E+07	-1.84201559E-02	 1.55660936E-03
5.10743062E+07	-1.83292199E-02	 1.64039941E-03
5.10865142E+07	-1.84836772E-02	 1.77198687E-03
5.10987222E+07	-1.85018105E-02	 1.71318290E-03
5.11109303E+07	-1.84231622E-02	 1.82998783E-03
5.11231383E+07	-1.83824976E-02	 1.65251702E-03
5.11353463E+07	-1.84274938E-02	 1.67795653E-03
5.11475543E+07	-1.87267152E-02	 1.53884355E-03
5.11597624E+07	-1.87062258E-02	 1.69456067E-03
5.11719704E+07	-1.82878496E-02	 1.85387710E-03
5.11841784E+07	-1.85140257E-02	 1.59595035E-03
5.11963864E+07	-1.84503070E-02	 1.70986777E-03
5.12085944E+07	-1.83182769E-02	 1.57837435E-03
5.12208025E+07	-1.82709589E-02	 1.45896478E-03
5.12330105E+07	-1.82914495E-02	 1.75108630E-03
5.12452185E+07	-1.83086061E-02	 1.69763097E-03
5.12574265E+07	-1.84330911E-02	 1.62284652E-03
5.12696346E+07	-1.84126966E-02	 1.58536890E-03
5.12818426E+07	-1.81752625E-02	 1.89628745E-03
5.12940506E+07	-1.84734882E-02	 1.87245744E-03
5.13062586E+07	-1.85099349E-02	 1.75897449E-03
5.13184667E+07	-1.83582904E-02	 1.72986671E-03
5.13306747E+07	-1.86409432E-02	 1.61021288E-03
5.13428827E+07	-1.81560192E-02	 1.65143487E-03
5.13550907E+07	-1.84698576E-02	 1.73990465E-03
5.13672988E+07	-1.83415779E-02	 1.46206604E-03
5.13795068E+07	-1.83156108E-02	 1.59826399E-03
5.13917148E+07	-1.82203671E-02	 1.58376423E-03
5.14039228E+07	-1.85032987E-02	 1.77747398E-03
5.14161309E+07	-1.84435881E-02	 1.71705795E-03
5.14283389E+07	-1.85398462E-02	 1.64466123E-03
5.14405469E+07	-1.84515523E-02	 1.73899690E-03
5.14527549E+07	-1.83897182E-02	 1.84701898E-03
5.14649630E+07	-1.84268161E-02	 1.53582457E-03
5.14771710E+07	-1.83660966E-02	 1.81520596E-03
5.14893790E+07	-1.82801027E-02	 1.91306382E-03
5.15015870E+07	-1.82651944E-02	 1.68609160E-03
5.15137951E+07	-1.82673061E-02	 1.94168620E-03
5.15260031E+07	-1.82949578E-02	 1.62524384E-03
5.15382111E+07	-1.84358750E-02	 1.76031156E-03
5.15504191E+07	-1.82563776E-02	 1.64662719E-03
5.15626272E+07	-1.82699806E-02	 1.76972416E-03
5.15748352E+07	-1.81708354E-02	 1.80531298E-03
5.15870432E+07	-1.80171884E-02	 1.64620702E-03
5.15992512E+07	-1.84241702E-02	 1.81318724E-03
5.16114593E+07	-1.82407604E-02	 1.66237012E-03
5.16236673E+07	-1.83050048E-02	 1.54094358E-03
5.16358753E+07	-1.83381256E-02	 1.84434861E-03
5.16480833E+07	-1.83053830E-02	 1.88044305E-03
5.16602914E+07	-1.81654522E-02	 1.73924730E-03
5.16724994E+07	-1.84005950E-02	 1.81822903E-03
5.16847074E+07	-1.82855385E-02	 1.66549217E-03
5.16969154E+07	-1.83919832E-02	 1.56915347E-03
5.17091235E+07	-1.85478972E-02	 1.67282446E-03
5.17213315E+07	-1.81777988E-02	 1.81220283E-03
5.17335395E+07	-1.81144595E-02	 1.65908628E-03
5.17457475E+07	-1.82892832E-02	 1.68149765E-03
5.17579556E+07	-1.82057319E-02	 1.66388832E-03
5.17701636E+07	-1.84739411E-02	 1.71230475E-03
5.17823716E+07	-1.84844359E-02	 1.77657757E-03
5.17945796E+07	-1.84850624E-02	 1.74897774E-03
5.18067877E+07	-1.85888775E-02	 1.98830966E-03
5.18189957E+07	-1.82736003E-02	 2.06273118E-03
5.18312037E+07	-1.81921384E-02	 1.69104767E-03
5.18434117E+07	-1.84550159E-02	 1.69616730E-03
5.18556198E+07	-1.82415307E-02	 1.71098818E-03
5.18678278E+07	-1.85253503E-02	 1.71817456E-03
5.18800358E+07	-1.85170768E-02	 1.78218044E-03
5.18922438E+07	-1.84243683E-02	 1.83749181E-03
5.19044519E+07	-1.84917081E-02	 1.71008507E-03
5.19166599E+07	-1.84734614E-02	 1.78697465E-03
5.19288679E+07	-1.83895665E-02	 1.57866407E-03
5.19410759E+07	-1.83224234E-02	 1.60170924E-03
5.19532840E+07	-1.82285765E-02	 1.69779306E-03
5.19654920E+07	-1.84634690E-02	 1.87108310E-03
5.19777000E+07	-1.83838639E-02	 1.67944717E-03
5.19899080E+07	-1.84013787E-02	 1.65646538E-03
5.20021161E+07	-1.79881359E-02	 1.75969334E-03
5.20143241E+07	-1.82294100E-02	 1.78039251E-03
5.20265321E+07	-1.81900252E-02	 1.77874404E-03
5.20387401E+07	-1.82659889E-02	 1.91588631E-03
5.20509482E+07	-1.82615436E-02	 1.87863712E-03
5.20631562E+07	-1.82985992E-02	 1.92630493E-03
5.20753642E+07	-1.84047487E-02	 1.70194251E-03
5.20875722E+07	-1.84535775E-02	 1.81288682E-03
5.20997803E+07	-1.82059790E-02	 1.71803260E-03
5.21119883E+07	-1.83412361E-02	 1.58883118E-03
5.21241963E+07	-1.84583144E-02	 1.66390520E-03
5.21364043E+07	-1.85720728E-02	 1.57021601E-03
5.21486124E+07	-1.83177899E-02	 1.45787423E-03
5.21608204E+07	-1.83731776E-02	 1.71493390E-03
5.21730284E+07	-1.84556821E-02	 1.78407667E-03
5.21852364E+07	-1.82302457E-02	 1.73124958E-03
5.21974445E+07	-1.85232111E-02	 1.63167358E-03
5.22096525E+07	-1.85792844E-02	 1.83733328E-03
5.22218605E+07	-1.82499009E-02	 1.76677473E-03
5.22340685E+07	-1.81320690E-02	 1.78405313E-03
5.22462766E+07	-1.85989799E-02	 1.79509276E-03
5.22584846E+07	-1.81535020E-02	 1.69642322E-03
5.22706926E+07	-1.81764495E-02	 1.74951580E-03
5.22829006E+07	-1.81668385E-02	 1.58155169E-03
5.22951087E+07	-1.85375830E-02	 1.80584297E-03
5.23073167E+07	-1.84233962E-02	 1.45591627E-03
5.23195247E+07	-1.84533333E-02	 1.69906484E-03
5.23317327E+07	-1.83055507E-02	 1.67422750E-03
5.23439408E+07	-1.81775485E-02	 1.47156268E-03
5.23561488E+07	-1.84041870E-02	 1.56926814E-03
5.23683568E+07	-1.82236370E-02	 1.70519615E-03
5.23805648E+07	-1.83834608E-02	 1.93169056E-03
5.23927728E+07	-1.83984215E-02	 1.91389715E-03
5.24049809E+07	-1.82727465E-02	 1.78913311E-03
5.24171889E+07	-1.84074882E-02	 1.78181815E-03
5.24293969E+07	-1.85056079E-02	 1.62619837E-03
5.24416049E+07	-1.82014007E-02	 1.42798784E-03
5.24538130E+07	-1.83539511E-02	 1.87805342E-03
5.24660210E+07	-1.84262735E-02	 1.87212501E-03
5.24782290E+07	-1.83760129E-02	 1.62613043E-03
5.24904370E+07	-1.83061925E-02	 2.19287328E-03
5.25026451E+07	-1.80410670E-02	 1.72574281E-03
5.25148531E+07	-1.85803522E-02	 1.66969710E-03
5.25270611E+07	-1.83974671E-02	 1.72167016E-03
5.25392691E+07	-1.85262678E-02	 1.57249149E-03
5.25514772E+07	-1.81967765E-02	 1.64642596E-03
5.25636852E+07	-1.83566766E-02	 1.67995229E-03
5.25758932E+07	-1.85280255E-02	 1.82485997E-03
5.25881012E+07	-1.81764370E-02	 1.79739119E-03
5.26003093E+07	-1.81533421E-02	 1.58781053E-03
5.26125173E+07	-1.81437347E-02	 1.89619052E-03
5.26247253E+07	-1.84339867E-02	 1.66512997E-03
5.26369333E+07	-1.84137009E-02	 1.71660501E-03
5.26491414E+07	-1.81956041E-02	 1.86701411E-03
5.26613494E+07	-1.83489815E-02	 1.63506745E-03
5.26735574E+07	-1.82745379E-02	 1.63488419E-03
5.26857654E+07	-1.83818776E-02	 1.63589467E-03
5.26979735E+07	-1.84137627E-02	 1.50242383E-03
5.27101815E+07	-1.83662920E-02	 1.86301172E-03
5.27223895E+07	-1.82076705E-02	 1.71402064E-03
5.27345975E+07	-1.82253659E-02	 1.63357984E-03
5.27468056E+07	-1.82801588E-02	 1.74121698E-03
5.27590136E+07	-1.85002188E-02	 1.75454698E-03
5.27712216E+07	-1.85018028E-02	 1.69462463E-03
5.27834296E+07	-1.83660811E-02	 1.81391399E-03
5.27956377E+07	-1.85024923E-02	 1.63188643E-03
5.28078457E+07	-1.83266806E-02	 1.62690488E-03
5.28200537E+07	-1.83414692E-02	 1.74895952E-03
5.28322617E+07	-1.82365049E-02	 1.84829433E-03
5.28444698E+07	-1.85630147E-02	 1.68461890E-03
5.28566778E+07	-1.81693483E-02	 1.46718761E-03
5.28688858E+07	-1.81515379E-02	 1.85256665E-03
5.28810938E+07	-1.82827185E-02	 1.72083944E-03
5.28933019E+07	-1.81617040E-02	 1.71781450E-03
5.29055099E+07	-1.82956080E-02	 1.59092880E-03
5.29177179E+07	-1.81496241E-02	 1.91687283E-03
5.29299259E+07	-1.81105184E-02	 1.65704608E-03
5.29421340E+07	-1.83787950E-02	 1.80228772E-03
5.29543420E+07	-1.82979424E-02	 1.83056048E-03
5.29665500E+07	-1.82793796E-02	 1.65099783E-03
5.29787580E+07	-1.86203450E-02	 1.57844160E-03
5.29909661E+07	-1.84228259E-02	 1.74878847E-03
5.30031741E+07	-1.81659089E-02	 1.65590074E-03
5.30153821E+07	-1.85288755E-02	 1.53866134E-03
5.30275901E+07	-1.83145676E-02	 1.84501083E-03
5.30397982E+07	-1.83228142E-02	 1.57016608E-03
5.30520062E+07	-1.84021374E-02	 1.64853344E-03
5.30642142E+07	-1.84672954E-02	 1.45386454E-03
5.30764222E+07	-1.83881010E-02	 1.79162564E-03
5.30886303E+07	-1.82184452E-02	 1.56336564E-03
5.31008383E+07	-1.82921571E-02	 1.70614712E-03
5.31130463E+07	-1.83562628E-02	 1.98662954E-03
5.31252543E+07	-1.83238578E-02	 1.69686881E-03
5.31374624E+07	-1.84217834E-02	 1.86843187E-03
5.31496704E+07	-1.83040642E-02	 1.93206572E-03
5.31618784E+07	-1.81822118E-02	 1.70663182E-03
5.31740864E+07	-1.84041522E-02	 1.56429297E-03
5.31862945E+07	-1.84198280E-02	 1.64162190E-03
5.31985025E+07	-1.83853708E-02	 1.91579547E-03
5.32107105E+07	-1.83476329E-02	 1.70170039E-03
5.32229185E+07	-1.86008157E-02	 1.73001485E-03
5.32351266E+07	-1.84230356E-02	 2.04692144E-03
5.32473346E+07	-1.82450791E-02	 1.78395411E-03
5.32595426E+07	-1.81967033E-02	 1.79417651E-03
5.32717506E+07	-1.84469000E-02	 1.52820448E-03
5.32839587E+07	-1.80497636E-02	 2.03299598E-03
5.32961667E+07	-1.82313600E-02	 1.84426630E-03
5.33083747E+07	-1.85057380E-02	 1.65797257E-03
5.33205827E+07	-1.85612564E-02	 1.73664792E-03
5.33327908E+07	-1.82429310E-02	 1.86466368E-03
5.33449988E+07	-1.83436925E-02	 1.49607164E-03
5.33572068E+07	-1.82894305E-02	 2.07360400E-03
5.33694148E+07	-1.82801961E-02	 1.77981462E-03
5.33816229E+07	-1.83976750E-02	 1.76974377E-03
5.33938309E+07	-1.82607434E-02	 1.77662810E-03
5.34060389E+07	-1.84549135E-02	 1.86149313E-03
5.34182469E+07	-1.83372958E-02	 1.78689195E-03
5.34304550E+07	-1.84383843E-02	 2.04636425E-03
5.34426630E+07	-1.81844217E-02	 1.47987748E-03
5.34548710E+07	-1.87565595E-02	 1.59218235E-03
5.34670790E+07	-1.84628895E-02	 1.89049310E-03
5.34792871E+07	-1.80674032E-02	 1.81298141E-03
5.34914951E+07	-1.83383125E-02	 1.87922999E-03
5.35037031E+07	-1.83878974E-02	 2.06599734E-03
5.35159111E+07	-1.83384678E-02	 1.89064553E-03
5.35281192E+07	-1.83643627E-02	 1.86134822E-03
5.35403272E+07	-1.83197608E-02	 1.39994044E-03
5.35525352E+07	-1.83289253E-02	 1.80556719E-03
5.35647432E+07	-1.82862237E-02	 1.75262753E-03
5.35769512E+07	-1.83179760E-02	 1.65595233E-03
5.35891593E+07	-1.84133700E-02	 2.04940959E-03
5.36013673E+07	-1.81843762E-02	 1.46936431E-03
5.36135753E+07	-1.85240970E-02	 1.88435507E-03
5.36257833E+07	-1.81817541E-02	 1.91157399E-03
5.36379914E+07	-1.80573196E-02	 2.13066096E-03
5.36501994E+07	-1.83004202E-02	 1.74794038E-03
5.36624074E+07	-1.83144153E-02	 1.83907570E-03
5.36746154E+07	-1.84250618E-02	 1.59899920E-03
5.36868235E+07	-1.84057525E-02	 1.86019495E-03
5.36990315E+07	-1.84674933E-02	 1.75720757E-03
5.37112395E+07	-1.84236777E-02	 1.90980991E-03
5.37234475E+07	-1.82988578E-02	 1.64334666E-03
5.37356556E+07	-1.84511487E-02	 1.75499009E-03
5.37478636E+07	-1.85615619E-02	 1.74776583E-03
5.37600716E+07	-1.85644155E-02	 1.78776078E-03
5.37722796E+07	-1.86562945E-02	 1.80426478E-03
5.37844877E+07	-1.83460878E-02	 1.84475936E-03
5.37966957E+07	-1.82583478E-02	 1.78846844E-03
5.38089037E+07	-1.82664342E-02	 1.91400096E-03
5.38211117E+07	-1.83278499E-02	 1.81093320E-03
5.38333198E+07	-1.84618985E-02	 1.78984624E-03
5.38455278E+07	-1.83509191E-02	 1.67666524E-03
5.38577358E+07	-1.81461282E-02	 1.89625739E-03
5.38699438E+07	-1.84122310E-02	 1.79873349E-03
5.38821519E+07	-1.84210014E-02	 1.76076565E-03
5.38943599E+07	-1.85258219E-02	 1.75030729E-03
5.39065679E+07	-1.82657536E-02	 1.85807921E-03
5.39187759E+07	-1.82115784E-02	 1.88475558E-03
5.39309840E+07	-1.81668504E-02	 1.85688013E-03
5.39431920E+07	-1.81821726E-02	 1.88305156E-03
5.39554000E+07	-1.80486570E-02	 1.84279266E-03
5.39676080E+07	-1.85129749E-02	 1.91786748E-03
5.39798161E+07	-1.83510174E-02	 1.81342393E-03
5.39920241E+07	-1.82055443E-02	 1.63717169E-03
5.40042321E+07	-1.81987795E-02	 1.72100929E-03
5.40164401E+07	-1.83903397E-02	 1.78245792E-03
5.40286482E+07	-1.86445160E-02	 1.91656205E-03
5.40408562E+07	-1.84194998E-02	 1.68897735E-03
5.40530642E+07	-1.80609899E-02	 1.74928479E-03
5.40652722E+07	-1.86581679E-02	 1.61907457E-03
5.40774803E+07	-1.81695065E-02	 1.55180372E-03
5.40896883E+07	-1.80201889E-02	 1.73961383E-03
5.41018963E+07	-1.82584606E-02	 1.76853054E-03
5.41141043E+07	-1.83048886E-02	 1.84737291E-03
5.41263124E+07	-1.84568075E-02	 1.59225062E-03
5.41385204E+07	-1.82791409E-02	 1.88457609E-03
5.41507284E+07	-1.83807612E-02	 1.84570442E-03
5.41629364E+07	-1.84364787E-02	 1.92874090E-03
5.41751445E+07	-1.83963937E-02	 1.74107888E-03
5.41873525E+07	-1.86131268E-02	 1.82618778E-03
5.41995605E+07	-1.83083324E-02	 1.73308985E-03
5.42117685E+07	-1.83885924E-02	 1.56243711E-03
5.42239766E+07	-1.81841627E-02	 1.53356058E-03
5.42361846E+07	-1.85937075E-02	 1.96056616E-03
5.42483926E+07	-1.81361236E-02	 1.74262175E-03
5.42606006E+07	-1.82628939E-02	 1.78439359E-03
5.42728087E+07	-1.82865952E-02	 1.69350758E-03
5.42850167E+07	-1.83544965E-02	 1.63820147E-03
5.42972247E+07	-1.84715211E-02	 1.96013244E-03
5.43094327E+07	-1.83660510E-02	 1.80142149E-03
5.43216408E+07	-1.84371636E-02	 1.71025482E-03
5.43338488E+07	-1.83770349E-02	 1.49959222E-03
5.43460568E+07	-1.83076011E-02	 1.87710408E-03
5.43582648E+07	-1.81995638E-02	 1.75115986E-03
5.43704729E+07	-1.82892897E-02	 1.82272361E-03
5.43826809E+07	-1.80290777E-02	 2.02504811E-03
5.43948889E+07	-1.84686212E-02	 1.64737830E-03
5.44070969E+07	-1.83067379E-02	 1.82095078E-03
5.44193050E+07	-1.83493742E-02	 1.80602833E-03
5.44315130E+07	-1.82828930E-02	 1.88538879E-03
5.44437210E+07	-1.84075774E-02	 1.66493672E-03
5.44559290E+07	-1.83412475E-02	 1.39982514E-03
5.44681371E+07	-1.83311226E-02	 1.63310463E-03
5.44803451E+07	-1.82934288E-02	 1.85102242E-03
5.44925531E+07	-1.82580019E-02	 1.64231664E-03
5.45047611E+07	-1.83568777E-02	 1.81839284E-03
5.45169692E+07	-1.83443089E-02	 1.92049236E-03
5.45291772E+07	-1.81705546E-02	 1.85409800E-03
5.45413852E+07	-1.82381271E-02	 1.70984866E-03
5.45535932E+07	-1.83864686E-02	 1.94899179E-03
5.45658013E+07	-1.86268535E-02	 1.84375481E-03
5.45780093E+07	-1.83393696E-02	 1.45862536E-03
5.45902173E+07	-1.84055505E-02	 2.02727869E-03
5.46024253E+07	-1.85245730E-02	 2.07508588E-03
5.46146334E+07	-1.84049613E-02	 1.82648777E-03
5.46268414E+07	-1.83040685E-02	 1.98327006E-03
5.46390494E+07	-1.83338614E-02	 1.84392103E-03
5.46512574E+07	-1.84598636E-02	 1.89954792E-03
5.46634655E+07	-1.83112109E-02	 1.82511919E-03
5.46756735E+07	-1.83932269E-02	 1.74850940E-03
5.46878815E+07	-1.84487416E-02	 1.91156896E-03
5.47000895E+07	-1.82830662E-02	 1.81368886E-03
5.47122976E+07	-1.84306068E-02	 1.81414290E-03
5.47245056E+07	-1.83488910E-02	 1.71710428E-03
5.47367136E+07	-1.82657791E-02	 1.90966157E-03
5.47489216E+07	-1.85216880E-02	 1.82079364E-03
5.47611296E+07	-1.82191279E-02	 1.60720166E-03
5.47733377E+07	-1.81836905E-02	 1.73255353E-03
5.47855457E+07	-1.84403405E-02	 1.56774491E-03
5.47977537E+07	-1.83995273E-02	 1.64202466E-03
5.48099617E+07	-1.85031897E-02	 1.91873371E-03
5.48221698E+07	-1.82085420E-02	 1.73320988E-03
5.48343778E+07	-1.83141117E-02	 2.07313499E-03
5.48465858E+07	-1.83591062E-02	 1.47113075E-03
5.48587938E+07	-1.84835296E-02	 1.74715574E-03
5.48710019E+07	-1.81784830E-02	 1.99716734E-03
5.48832099E+07	-1.81796735E-02	 1.86512168E-03
5.48954179E+07	-1.84050676E-02	 1.61375516E-03
5.49076259E+07	-1.81075243E-02	 1.70137210E-03
5.49198340E+07	-1.83380066E-02	 1.69053847E-03
5.49320420E+07	-1.84371368E-02	 1.67830161E-03
5.49442500E+07	-1.82671988E-02	 1.95432871E-03
5.49564580E+07	-1.85459168E-02	 1.77283871E-03
5.49686661E+07	-1.80693505E-02	 2.03757561E-03
5.49808741E+07	-1.81928329E-02	 1.73849456E-03
5.49930821E+07	-1.83266670E-02	 1.99971141E-03
5.50052901E+07	-1.81943794E-02	 1.78551766E-03
5.50174982E+07	-1.83412363E-02	 1.60849815E-03
5.50297062E+07	-1.84881994E-02	 1.89466071E-03
5.50419142E+07	-1.83854802E-02	 1.87862628E-03
5.50541222E+07	-1.84895296E-02	 2.04917834E-03
5.50663303E+07	-1.81586700E-02	 1.88037391E-03
5.50785383E+07	-1.84414230E-02	 1.73185350E-03
5.50907463E+07	-1.83399482E-02	 1.70572808E-03
5.51029543E+07	-1.87183900E-02	 1.87382259E-03
5.51151624E+07	-1.83154724E-02	 1.98794310E-03
5.51273704E+07	-1.81284490E-02	 1.63530192E-03
