! COPPER MOUNTAIN TECHNOLOGIES, PLANAR TR1300/1, 00071119, 20.2.2/1.0
! Date: 1/9/2024 7:45:58 PM
! Data: Format [Calibration Info]
! Freq          	S11: Re/Im F1                  
# HZ S RI R 50
5.00000000E+07	 3.70351335E-01	 5.67819179E-02
5.00122080E+07	 3.69588934E-01	 5.57298242E-02
5.00244160E+07	 3.68821892E-01	 5.46735654E-02
5.00366241E+07	 3.68057172E-01	 5.36207530E-02
5.00488321E+07	 3.67281000E-01	 5.25662345E-02
5.00610401E+07	 3.66507327E-01	 5.15268619E-02
5.00732481E+07	 3.65744767E-01	 5.04912314E-02
5.00854562E+07	 3.64956443E-01	 4.94503951E-02
5.00976642E+07	 3.64174502E-01	 4.84088284E-02
5.01098722E+07	 3.63393528E-01	 4.73829585E-02
5.01220802E+07	 3.62591255E-01	 4.63695155E-02
5.01342883E+07	 3.61813153E-01	 4.53273549E-02
5.01464963E+07	 3.61014540E-01	 4.43245810E-02
5.01587043E+07	 3.60222531E-01	 4.33053049E-02
5.01709123E+07	 3.59425008E-01	 4.22993782E-02
5.01831204E+07	 3.58621705E-01	 4.12891063E-02
5.01953284E+07	 3.57818109E-01	 4.02814128E-02
5.02075364E+07	 3.57002483E-01	 3.92920905E-02
5.02197444E+07	 3.56205676E-01	 3.82935254E-02
5.02319525E+07	 3.55389797E-01	 3.73000461E-02
5.02441605E+07	 3.54573164E-01	 3.63156720E-02
5.02563685E+07	 3.53760462E-01	 3.53357151E-02
5.02685765E+07	 3.52933221E-01	 3.43600871E-02
5.02807846E+07	 3.52119896E-01	 3.33774902E-02
5.02929926E+07	 3.51291481E-01	 3.24013542E-02
5.03052006E+07	 3.50465303E-01	 3.14386587E-02
5.03174086E+07	 3.49631805E-01	 3.04772080E-02
5.03296167E+07	 3.48801793E-01	 2.95178983E-02
5.03418247E+07	 3.47964634E-01	 2.85665324E-02
5.03540327E+07	 3.47130063E-01	 2.76119286E-02
5.03662407E+07	 3.46290230E-01	 2.66589438E-02
5.03784488E+07	 3.45441777E-01	 2.57196322E-02
5.03906568E+07	 3.44590983E-01	 2.47941418E-02
5.04028648E+07	 3.43754899E-01	 2.38474485E-02
5.04150728E+07	 3.42903015E-01	 2.29168393E-02
5.04272809E+07	 3.42049588E-01	 2.19875331E-02
5.04394889E+07	 3.41187614E-01	 2.10696243E-02
5.04516969E+07	 3.40345789E-01	 2.01469019E-02
5.04639049E+07	 3.39482262E-01	 1.92318118E-02
5.04761130E+07	 3.38614691E-01	 1.83147086E-02
5.04883210E+07	 3.37757017E-01	 1.74066134E-02
5.05005290E+07	 3.36896752E-01	 1.65068315E-02
5.05127370E+07	 3.36025796E-01	 1.56150532E-02
5.05249451E+07	 3.35149575E-01	 1.47102152E-02
5.05371531E+07	 3.34283934E-01	 1.38235993E-02
5.05493611E+07	 3.33403304E-01	 1.29344126E-02
5.05615691E+07	 3.32527345E-01	 1.20540643E-02
5.05737772E+07	 3.31644329E-01	 1.11667494E-02
5.05859852E+07	 3.30766009E-01	 1.02979117E-02
5.05981932E+07	 3.29878357E-01	 9.42880724E-03
5.06104012E+07	 3.28991944E-01	 8.55692237E-03
5.06226093E+07	 3.28104777E-01	 7.69291333E-03
5.06348173E+07	 3.27216275E-01	 6.84539122E-03
5.06470253E+07	 3.26328747E-01	 5.98151937E-03
5.06592333E+07	 3.25429670E-01	 5.13262883E-03
5.06714414E+07	 3.24537127E-01	 4.28702792E-03
5.06836494E+07	 3.23633481E-01	 3.44219546E-03
5.06958574E+07	 3.22737835E-01	 2.60750979E-03
5.07080654E+07	 3.21833516E-01	 1.77195267E-03
5.07202735E+07	 3.20931177E-01	 9.43884030E-04
5.07324815E+07	 3.20030506E-01	 1.15944308E-04
5.07446895E+07	 3.19112720E-01	-7.04226191E-04
5.07568975E+07	 3.18202699E-01	-1.51989284E-03
5.07691056E+07	 3.17297039E-01	-2.33419960E-03
5.07813136E+07	 3.16371132E-01	-3.13931355E-03
5.07935216E+07	 3.15467635E-01	-3.94655358E-03
5.08057296E+07	 3.14540962E-01	-4.75397429E-03
5.08179377E+07	 3.13623674E-01	-5.54764155E-03
5.08301457E+07	 3.12702346E-01	-6.34448521E-03
5.08423537E+07	 3.11776697E-01	-7.12999337E-03
5.08545617E+07	 3.10853363E-01	-7.91504499E-03
5.08667698E+07	 3.09927911E-01	-8.69297501E-03
5.08789778E+07	 3.08998923E-01	-9.47444709E-03
5.08911858E+07	 3.08068198E-01	-1.02438226E-02
5.09033938E+07	 3.07133281E-01	-1.10098563E-02
5.09156019E+07	 3.06205591E-01	-1.17672901E-02
5.09278099E+07	 3.05262527E-01	-1.25203639E-02
5.09400179E+07	 3.04331401E-01	-1.32730075E-02
5.09522259E+07	 3.03393403E-01	-1.40327711E-02
5.09644340E+07	 3.02451133E-01	-1.47772956E-02
5.09766420E+07	 3.01514160E-01	-1.55261040E-02
5.09888500E+07	 3.00562463E-01	-1.62556631E-02
5.10010580E+07	 2.99621808E-01	-1.69889679E-02
5.10132661E+07	 2.98680275E-01	-1.77222341E-02
5.10254741E+07	 2.97731893E-01	-1.84488016E-02
5.10376821E+07	 2.96779546E-01	-1.91711207E-02
5.10498901E+07	 2.95827889E-01	-1.98869313E-02
5.10620982E+07	 2.94879758E-01	-2.06055372E-02
5.10743062E+07	 2.93920871E-01	-2.13030229E-02
5.10865142E+07	 2.92977716E-01	-2.20066633E-02
5.10987222E+07	 2.92020505E-01	-2.27050962E-02
5.11109303E+07	 2.91054374E-01	-2.34000551E-02
5.11231383E+07	 2.90097259E-01	-2.40922109E-02
5.11353463E+07	 2.89135725E-01	-2.47806535E-02
5.11475543E+07	 2.88178717E-01	-2.54669012E-02
5.11597624E+07	 2.87204627E-01	-2.61344272E-02
5.11719704E+07	 2.86252264E-01	-2.68171322E-02
5.11841784E+07	 2.85286592E-01	-2.74843625E-02
5.11963864E+07	 2.84316447E-01	-2.81544385E-02
5.12085944E+07	 2.83344393E-01	-2.88135585E-02
5.12208025E+07	 2.82380684E-01	-2.94715596E-02
5.12330105E+07	 2.81415740E-01	-3.01203017E-02
5.12452185E+07	 2.80434780E-01	-3.07723821E-02
5.12574265E+07	 2.79470084E-01	-3.14183707E-02
5.12696346E+07	 2.78486177E-01	-3.20556642E-02
5.12818426E+07	 2.77510879E-01	-3.26930008E-02
5.12940506E+07	 2.76536619E-01	-3.33200651E-02
5.13062586E+07	 2.75553266E-01	-3.39455202E-02
5.13184667E+07	 2.74585225E-01	-3.45693002E-02
5.13306747E+07	 2.73605167E-01	-3.51902224E-02
5.13428827E+07	 2.72618087E-01	-3.58067992E-02
5.13550907E+07	 2.71637475E-01	-3.64137050E-02
5.13672988E+07	 2.70659123E-01	-3.70234952E-02
5.13795068E+07	 2.69676361E-01	-3.76224582E-02
5.13917148E+07	 2.68687181E-01	-3.82198209E-02
5.14039228E+07	 2.67702131E-01	-3.88135701E-02
5.14161309E+07	 2.66706520E-01	-3.94005535E-02
5.14283389E+07	 2.65718052E-01	-3.99841906E-02
5.14405469E+07	 2.64744641E-01	-4.05664733E-02
5.14527549E+07	 2.63746635E-01	-4.11409462E-02
5.14649630E+07	 2.62758625E-01	-4.17226044E-02
5.14771710E+07	 2.61764361E-01	-4.22773628E-02
5.14893790E+07	 2.60771821E-01	-4.28502372E-02
5.15015870E+07	 2.59784324E-01	-4.34087902E-02
5.15137951E+07	 2.58790623E-01	-4.39626683E-02
5.15260031E+07	 2.57793713E-01	-4.45098870E-02
5.15382111E+07	 2.56801131E-01	-4.50640401E-02
5.15504191E+07	 2.55798904E-01	-4.56027604E-02
5.15626272E+07	 2.54804044E-01	-4.61364731E-02
5.15748352E+07	 2.53805271E-01	-4.66654827E-02
5.15870432E+07	 2.52807065E-01	-4.72008545E-02
5.15992512E+07	 2.51804444E-01	-4.77212761E-02
5.16114593E+07	 2.50807765E-01	-4.82521338E-02
5.16236673E+07	 2.49814873E-01	-4.87632951E-02
5.16358753E+07	 2.48809262E-01	-4.92720490E-02
5.16480833E+07	 2.47815318E-01	-4.97828964E-02
5.16602914E+07	 2.46804599E-01	-5.02910771E-02
5.16724994E+07	 2.45799362E-01	-5.07853428E-02
5.16847074E+07	 2.44798435E-01	-5.12816161E-02
5.16969154E+07	 2.43790072E-01	-5.17749013E-02
5.17091235E+07	 2.42784621E-01	-5.22637225E-02
5.17213315E+07	 2.41787237E-01	-5.27471193E-02
5.17335395E+07	 2.40776311E-01	-5.32230038E-02
5.17457475E+07	 2.39769806E-01	-5.36955057E-02
5.17579556E+07	 2.38768988E-01	-5.41617261E-02
5.17701636E+07	 2.37756252E-01	-5.46299254E-02
5.17823716E+07	 2.36751312E-01	-5.50988110E-02
5.17945796E+07	 2.35745653E-01	-5.55467061E-02
5.18067877E+07	 2.34732357E-01	-5.59978047E-02
5.18189957E+07	 2.33728778E-01	-5.64552185E-02
5.18312037E+07	 2.32717654E-01	-5.69003601E-02
5.18434117E+07	 2.31706260E-01	-5.73328646E-02
5.18556198E+07	 2.30698732E-01	-5.77759123E-02
5.18678278E+07	 2.29691134E-01	-5.82017354E-02
5.18800358E+07	 2.28680241E-01	-5.86320777E-02
5.18922438E+07	 2.27669608E-01	-5.90616203E-02
5.19044519E+07	 2.26657187E-01	-5.94773898E-02
5.19166599E+07	 2.25647062E-01	-5.98991591E-02
5.19288679E+07	 2.24633921E-01	-6.03078091E-02
5.19410759E+07	 2.23624717E-01	-6.07103635E-02
5.19532840E+07	 2.22610122E-01	-6.11118075E-02
5.19654920E+07	 2.21594296E-01	-6.15128671E-02
5.19777000E+07	 2.20590492E-01	-6.19097680E-02
5.19899080E+07	 2.19571800E-01	-6.22969653E-02
5.20021161E+07	 2.18561985E-01	-6.26848852E-02
5.20143241E+07	 2.17550283E-01	-6.30676383E-02
5.20265321E+07	 2.16536931E-01	-6.34439923E-02
5.20387401E+07	 2.15516263E-01	-6.38131150E-02
5.20509482E+07	 2.14502779E-01	-6.41870286E-02
5.20631562E+07	 2.13490675E-01	-6.45504866E-02
5.20753642E+07	 2.12482910E-01	-6.49041847E-02
5.20875722E+07	 2.11462519E-01	-6.52753885E-02
5.20997803E+07	 2.10454379E-01	-6.56223751E-02
5.21119883E+07	 2.09442354E-01	-6.59685674E-02
5.21241963E+07	 2.08426106E-01	-6.63099210E-02
5.21364043E+07	 2.07408770E-01	-6.66536370E-02
5.21486124E+07	 2.06391171E-01	-6.69893945E-02
5.21608204E+07	 2.05382655E-01	-6.73207928E-02
5.21730284E+07	 2.04370940E-01	-6.76554694E-02
5.21852364E+07	 2.03359225E-01	-6.79751748E-02
5.21974445E+07	 2.02348729E-01	-6.82948339E-02
5.22096525E+07	 2.01333051E-01	-6.86121242E-02
5.22218605E+07	 2.00319224E-01	-6.89215550E-02
5.22340685E+07	 1.99306099E-01	-6.92304866E-02
5.22462766E+07	 1.98291035E-01	-6.95320902E-02
5.22584846E+07	 1.97280564E-01	-6.98310104E-02
5.22706926E+07	 1.96266090E-01	-7.01245705E-02
5.22829006E+07	 1.95253654E-01	-7.04183653E-02
5.22951087E+07	 1.94241594E-01	-7.07063644E-02
5.23073167E+07	 1.93229860E-01	-7.09871486E-02
5.23195247E+07	 1.92221875E-01	-7.12640487E-02
5.23317327E+07	 1.91209562E-01	-7.15368906E-02
5.23439408E+07	 1.90199325E-01	-7.18175101E-02
5.23561488E+07	 1.89190229E-01	-7.20748530E-02
5.23683568E+07	 1.88179533E-01	-7.23453892E-02
5.23805648E+07	 1.87171189E-01	-7.26029717E-02
5.23927728E+07	 1.86154693E-01	-7.28578138E-02
5.24049809E+07	 1.85152993E-01	-7.31053645E-02
5.24171889E+07	 1.84140753E-01	-7.33547435E-02
5.24293969E+07	 1.83137067E-01	-7.36006570E-02
5.24416049E+07	 1.82127164E-01	-7.38327043E-02
5.24538130E+07	 1.81120235E-01	-7.40719841E-02
5.24660210E+07	 1.80106540E-01	-7.43012995E-02
5.24782290E+07	 1.79102489E-01	-7.45220432E-02
5.24904370E+07	 1.78095010E-01	-7.47578417E-02
5.25026451E+07	 1.77090077E-01	-7.49711791E-02
5.25148531E+07	 1.76084871E-01	-7.51842645E-02
5.25270611E+07	 1.75077214E-01	-7.53912599E-02
5.25392691E+07	 1.74075556E-01	-7.56037273E-02
5.25514772E+07	 1.73067828E-01	-7.58048439E-02
5.25636852E+07	 1.72068552E-01	-7.60028786E-02
5.25758932E+07	 1.71063055E-01	-7.62038960E-02
5.25881012E+07	 1.70061218E-01	-7.63900654E-02
5.26003093E+07	 1.69065210E-01	-7.65771669E-02
5.26125173E+07	 1.68066811E-01	-7.67621273E-02
5.26247253E+07	 1.67064236E-01	-7.69465658E-02
5.26369333E+07	 1.66060716E-01	-7.71184044E-02
5.26491414E+07	 1.65066065E-01	-7.72892827E-02
5.26613494E+07	 1.64062605E-01	-7.74556037E-02
5.26735574E+07	 1.63063264E-01	-7.76245341E-02
5.26857654E+07	 1.62071866E-01	-7.77857856E-02
5.26979735E+07	 1.61081561E-01	-7.79346851E-02
5.27101815E+07	 1.60078003E-01	-7.80860956E-02
5.27223895E+07	 1.59087563E-01	-7.82356832E-02
5.27345975E+07	 1.58093490E-01	-7.83770051E-02
5.27468056E+07	 1.57095332E-01	-7.85248023E-02
5.27590136E+07	 1.56104115E-01	-7.86625982E-02
5.27712216E+07	 1.55110150E-01	-7.87883417E-02
5.27834296E+07	 1.54123611E-01	-7.89309679E-02
5.27956377E+07	 1.53135020E-01	-7.90494069E-02
5.28078457E+07	 1.52140890E-01	-7.91722351E-02
5.28200537E+07	 1.51154545E-01	-7.92915349E-02
5.28322617E+07	 1.50167031E-01	-7.94037638E-02
5.28444698E+07	 1.49179163E-01	-7.95154412E-02
5.28566778E+07	 1.48194516E-01	-7.96211274E-02
5.28688858E+07	 1.47208510E-01	-7.97220539E-02
5.28810938E+07	 1.46222694E-01	-7.98250304E-02
5.28933019E+07	 1.45243094E-01	-7.99207315E-02
5.29055099E+07	 1.44260009E-01	-8.00108305E-02
5.29177179E+07	 1.43277222E-01	-8.00977466E-02
5.29299259E+07	 1.42299198E-01	-8.01869480E-02
5.29421340E+07	 1.41317919E-01	-8.02635512E-02
5.29543420E+07	 1.40344933E-01	-8.03416507E-02
5.29665500E+07	 1.39358867E-01	-8.04114890E-02
5.29787580E+07	 1.38387138E-01	-8.04849249E-02
5.29909661E+07	 1.37407347E-01	-8.05501606E-02
5.30031741E+07	 1.36436833E-01	-8.06108991E-02
5.30153821E+07	 1.35462425E-01	-8.06689553E-02
5.30275901E+07	 1.34489762E-01	-8.07263170E-02
5.30397982E+07	 1.33523558E-01	-8.07767641E-02
5.30520062E+07	 1.32550432E-01	-8.08179958E-02
5.30642142E+07	 1.31580665E-01	-8.08709844E-02
5.30764222E+07	 1.30608033E-01	-8.09053972E-02
5.30886303E+07	 1.29654223E-01	-8.09398707E-02
5.31008383E+07	 1.28681427E-01	-8.09700124E-02
5.31130463E+07	 1.27723226E-01	-8.10012191E-02
5.31252543E+07	 1.26748970E-01	-8.10306020E-02
5.31374624E+07	 1.25793178E-01	-8.10464243E-02
5.31496704E+07	 1.24830050E-01	-8.10670919E-02
5.31618784E+07	 1.23870416E-01	-8.10797131E-02
5.31740864E+07	 1.22916599E-01	-8.10906231E-02
5.31862945E+07	 1.21962057E-01	-8.11040313E-02
5.31985025E+07	 1.21004143E-01	-8.11090148E-02
5.32107105E+07	 1.20047642E-01	-8.10988475E-02
5.32229185E+07	 1.19096385E-01	-8.11001619E-02
5.32351266E+07	 1.18140505E-01	-8.10955421E-02
5.32473346E+07	 1.17195608E-01	-8.10873822E-02
5.32595426E+07	 1.16246595E-01	-8.10734464E-02
5.32717506E+07	 1.15294743E-01	-8.10569909E-02
5.32839587E+07	 1.14349893E-01	-8.10361171E-02
5.32961667E+07	 1.13404082E-01	-8.10092489E-02
5.33083747E+07	 1.12457523E-01	-8.09807863E-02
5.33205827E+07	 1.11516563E-01	-8.09554554E-02
5.33327908E+07	 1.10576415E-01	-8.09169342E-02
5.33449988E+07	 1.09633150E-01	-8.08800631E-02
5.33572068E+07	 1.08698370E-01	-8.08388535E-02
5.33694148E+07	 1.07758376E-01	-8.07956395E-02
5.33816229E+07	 1.06821012E-01	-8.07467963E-02
5.33938309E+07	 1.05887560E-01	-8.07028254E-02
5.34060389E+07	 1.04949209E-01	-8.06345491E-02
5.34182469E+07	 1.04027287E-01	-8.05865588E-02
5.34304550E+07	 1.03093434E-01	-8.05234240E-02
5.34426630E+07	 1.02169930E-01	-8.04577474E-02
5.34548710E+07	 1.01235336E-01	-8.03843614E-02
5.34670790E+07	 1.00309478E-01	-8.03124701E-02
5.34792871E+07	 9.93840713E-02	-8.02410919E-02
5.34914951E+07	 9.84610945E-02	-8.01646982E-02
5.35037031E+07	 9.75409989E-02	-8.00805366E-02
5.35159111E+07	 9.66232308E-02	-7.99954006E-02
5.35281192E+07	 9.57013900E-02	-7.99067958E-02
5.35403272E+07	 9.47899821E-02	-7.98160787E-02
5.35525352E+07	 9.38743546E-02	-7.97204235E-02
5.35647432E+07	 9.29616415E-02	-7.96221210E-02
5.35769512E+07	 9.20484762E-02	-7.95225241E-02
5.35891593E+07	 9.11340980E-02	-7.94199302E-02
5.36013673E+07	 9.02284717E-02	-7.93057913E-02
5.36135753E+07	 8.93172957E-02	-7.91964161E-02
5.36257833E+07	 8.84205222E-02	-7.90813572E-02
5.36379914E+07	 8.75130402E-02	-7.89703145E-02
5.36501994E+07	 8.66112844E-02	-7.88494585E-02
5.36624074E+07	 8.57115792E-02	-7.87222225E-02
5.36746154E+07	 8.48083074E-02	-7.85995241E-02
5.36868235E+07	 8.39107480E-02	-7.84679105E-02
5.36990315E+07	 8.30141192E-02	-7.83337279E-02
5.37112395E+07	 8.21220626E-02	-7.81922827E-02
5.37234475E+07	 8.12290679E-02	-7.80580748E-02
5.37356556E+07	 8.03336252E-02	-7.79115743E-02
5.37478636E+07	 7.94472226E-02	-7.77631478E-02
5.37600716E+07	 7.85621560E-02	-7.76160855E-02
5.37722796E+07	 7.76744462E-02	-7.74651660E-02
5.37844877E+07	 7.67931665E-02	-7.73113432E-02
5.37966957E+07	 7.59120190E-02	-7.71484223E-02
5.38089037E+07	 7.50326481E-02	-7.69876319E-02
5.38211117E+07	 7.41502108E-02	-7.68235098E-02
5.38333198E+07	 7.32790907E-02	-7.66575110E-02
5.38455278E+07	 7.23959720E-02	-7.64865984E-02
5.38577358E+07	 7.15231961E-02	-7.63163665E-02
5.38699438E+07	 7.06538706E-02	-7.61360718E-02
5.38821519E+07	 6.97791150E-02	-7.59587919E-02
5.38943599E+07	 6.89151422E-02	-7.57721712E-02
5.39065679E+07	 6.80487770E-02	-7.55919382E-02
5.39187759E+07	 6.71798396E-02	-7.54097749E-02
5.39309840E+07	 6.63266815E-02	-7.52093473E-02
5.39431920E+07	 6.54642921E-02	-7.50185308E-02
5.39554000E+07	 6.45980791E-02	-7.48124034E-02
5.39676080E+07	 6.37505514E-02	-7.46210077E-02
5.39798161E+07	 6.28919604E-02	-7.44198907E-02
5.39920241E+07	 6.20408416E-02	-7.42095333E-02
5.40042321E+07	 6.11855189E-02	-7.39958299E-02
5.40164401E+07	 6.03398878E-02	-7.37888395E-02
5.40286482E+07	 5.94874671E-02	-7.35725368E-02
5.40408562E+07	 5.86458201E-02	-7.33583072E-02
5.40530642E+07	 5.78006531E-02	-7.31359219E-02
5.40652722E+07	 5.69625473E-02	-7.29118828E-02
5.40774803E+07	 5.61202322E-02	-7.26850145E-02
5.40896883E+07	 5.52822676E-02	-7.24523010E-02
5.41018963E+07	 5.44427168E-02	-7.22227067E-02
5.41141043E+07	 5.36108161E-02	-7.19873753E-02
5.41263124E+07	 5.27770994E-02	-7.17507577E-02
5.41385204E+07	 5.19452490E-02	-7.15125756E-02
5.41507284E+07	 5.11230613E-02	-7.12653801E-02
5.41629364E+07	 5.02929224E-02	-7.10194110E-02
5.41751445E+07	 4.94662699E-02	-7.07694905E-02
5.41873525E+07	 4.86450998E-02	-7.05245559E-02
5.41995605E+07	 4.78252274E-02	-7.02681840E-02
5.42117685E+07	 4.70107307E-02	-7.00095735E-02
5.42239766E+07	 4.61931477E-02	-6.97493459E-02
5.42361846E+07	 4.53766866E-02	-6.94858434E-02
5.42483926E+07	 4.45661549E-02	-6.92219903E-02
5.42606006E+07	 4.37563219E-02	-6.89522538E-02
5.42728087E+07	 4.29553272E-02	-6.86839532E-02
5.42850167E+07	 4.21420381E-02	-6.84154357E-02
5.42972247E+07	 4.13431677E-02	-6.81332935E-02
5.43094327E+07	 4.05383004E-02	-6.78517809E-02
5.43216408E+07	 3.97386207E-02	-6.75775806E-02
5.43338488E+07	 3.89385468E-02	-6.72900226E-02
5.43460568E+07	 3.81461354E-02	-6.70053244E-02
5.43582648E+07	 3.73518230E-02	-6.67172003E-02
5.43704729E+07	 3.65631424E-02	-6.64214523E-02
5.43826809E+07	 3.57746558E-02	-6.61286330E-02
5.43948889E+07	 3.49869608E-02	-6.58394916E-02
5.44070969E+07	 3.41984786E-02	-6.55309973E-02
5.44193050E+07	 3.34178599E-02	-6.52283267E-02
5.44315130E+07	 3.26369722E-02	-6.49286531E-02
5.44437210E+07	 3.18594765E-02	-6.46209952E-02
5.44559290E+07	 3.10840229E-02	-6.43107229E-02
5.44681371E+07	 3.03095568E-02	-6.39974704E-02
5.44803451E+07	 2.95395641E-02	-6.36856872E-02
5.44925531E+07	 2.87621183E-02	-6.33639289E-02
5.45047611E+07	 2.79999827E-02	-6.30514849E-02
5.45169692E+07	 2.72321530E-02	-6.27291991E-02
5.45291772E+07	 2.64748677E-02	-6.23982430E-02
5.45413852E+07	 2.57083806E-02	-6.20762689E-02
5.45535932E+07	 2.49531811E-02	-6.17403720E-02
5.45658013E+07	 2.41991855E-02	-6.14151458E-02
5.45780093E+07	 2.34383407E-02	-6.10814316E-02
5.45902173E+07	 2.26884035E-02	-6.07358829E-02
5.46024253E+07	 2.19421389E-02	-6.04005132E-02
5.46146334E+07	 2.11922749E-02	-6.00581414E-02
5.46268414E+07	 2.04509686E-02	-5.97188943E-02
5.46390494E+07	 1.97090205E-02	-5.93680323E-02
5.46512574E+07	 1.89583392E-02	-5.90252979E-02
5.46634655E+07	 1.82264658E-02	-5.86707699E-02
5.46756735E+07	 1.74917678E-02	-5.83146544E-02
5.46878815E+07	 1.67547882E-02	-5.79657920E-02
5.47000895E+07	 1.60190108E-02	-5.76053272E-02
5.47122976E+07	 1.52954127E-02	-5.72428459E-02
5.47245056E+07	 1.45670982E-02	-5.68838705E-02
5.47367136E+07	 1.38405981E-02	-5.65191697E-02
5.47489216E+07	 1.31214768E-02	-5.61529262E-02
5.47611296E+07	 1.23968256E-02	-5.57838240E-02
5.47733377E+07	 1.16785271E-02	-5.54097831E-02
5.47855457E+07	 1.09654279E-02	-5.50400992E-02
5.47977537E+07	 1.02523095E-02	-5.46608837E-02
5.48099617E+07	 9.53829959E-03	-5.42800460E-02
5.48221698E+07	 8.83163958E-03	-5.39006093E-02
5.48343778E+07	 8.12557169E-03	-5.35236298E-02
5.48465858E+07	 7.42259305E-03	-5.31358087E-02
5.48587938E+07	 6.72096028E-03	-5.27505006E-02
5.48710019E+07	 6.02103122E-03	-5.23579870E-02
5.48832099E+07	 5.32534459E-03	-5.19691405E-02
5.48954179E+07	 4.63109672E-03	-5.15753594E-02
5.49076259E+07	 3.93433144E-03	-5.11777537E-02
5.49198340E+07	 3.24580671E-03	-5.07887298E-02
5.49320420E+07	 2.56392170E-03	-5.03867981E-02
5.49442500E+07	 1.86531108E-03	-4.99825719E-02
5.49564580E+07	 1.19093157E-03	-4.95839466E-02
5.49686661E+07	 5.08352002E-04	-4.91764685E-02
5.49808741E+07	-1.66390816E-04	-4.87678522E-02
5.49930821E+07	-8.45685903E-04	-4.83520205E-02
5.50052901E+07	-1.51664669E-03	-4.79465868E-02
5.50174982E+07	-2.18893725E-03	-4.75294340E-02
5.50297062E+07	-2.85751690E-03	-4.71187097E-02
5.50419142E+07	-3.51788320E-03	-4.66955164E-02
5.50541222E+07	-4.18286368E-03	-4.62791062E-02
5.50663303E+07	-4.84565265E-03	-4.58545096E-02
5.50785383E+07	-5.50673854E-03	-4.54364959E-02
5.50907463E+07	-6.16515773E-03	-4.50089223E-02
5.51029543E+07	-6.81325173E-03	-4.45808422E-02
5.51151624E+07	-7.46703726E-03	-4.41450476E-02
5.51273704E+07	-8.11635394E-03	-4.37160549E-02
