! COPPER MOUNTAIN TECHNOLOGIES, PLANAR TR1300/1, 00071119, 20.2.2/1.0
! Date: 1/9/2024 7:27:50 PM
! Data: Format [Calibration Info]
! Freq          	S11: Re/Im F1                  
# HZ S RI R 50
5.00000000E+07	 4.86893734E-01	-6.79139587E-01
5.00122080E+07	 4.82514257E-01	-6.82248434E-01
5.00244160E+07	 4.78088560E-01	-6.85336094E-01
5.00366241E+07	 4.73667807E-01	-6.88405058E-01
5.00488321E+07	 4.69216869E-01	-6.91436769E-01
5.00610401E+07	 4.64750916E-01	-6.94454213E-01
5.00732481E+07	 4.60260733E-01	-6.97421690E-01
5.00854562E+07	 4.55749727E-01	-7.00367948E-01
5.00976642E+07	 4.51239755E-01	-7.03286027E-01
5.01098722E+07	 4.46680344E-01	-7.06139192E-01
5.01220802E+07	 4.42088400E-01	-7.08962432E-01
5.01342883E+07	 4.37545788E-01	-7.11861807E-01
5.01464963E+07	 4.32966025E-01	-7.14638106E-01
5.01587043E+07	 4.28338013E-01	-7.17397351E-01
5.01709123E+07	 4.23705335E-01	-7.20133897E-01
5.01831204E+07	 4.19054221E-01	-7.22846764E-01
5.01953284E+07	 4.14375589E-01	-7.25523234E-01
5.02075364E+07	 4.09680100E-01	-7.28136682E-01
5.02197444E+07	 4.05016393E-01	-7.30793451E-01
5.02319525E+07	 4.00279452E-01	-7.33358275E-01
5.02441605E+07	 3.95541117E-01	-7.35918811E-01
5.02563685E+07	 3.90805509E-01	-7.38435070E-01
5.02685765E+07	 3.86012558E-01	-7.40880371E-01
5.02807846E+07	 3.81254958E-01	-7.43394048E-01
5.02929926E+07	 3.76456893E-01	-7.45829737E-01
5.03052006E+07	 3.71643102E-01	-7.48218987E-01
5.03174086E+07	 3.66818896E-01	-7.50577917E-01
5.03296167E+07	 3.61983513E-01	-7.52923896E-01
5.03418247E+07	 3.57122107E-01	-7.55218920E-01
5.03540327E+07	 3.52249193E-01	-7.57497042E-01
5.03662407E+07	 3.47356760E-01	-7.59735012E-01
5.03784488E+07	 3.42458019E-01	-7.61928951E-01
5.03906568E+07	 3.37514723E-01	-7.64065801E-01
5.04028648E+07	 3.32618115E-01	-7.66249246E-01
5.04150728E+07	 3.27681044E-01	-7.68372578E-01
5.04272809E+07	 3.22723358E-01	-7.70452876E-01
5.04394889E+07	 3.17746229E-01	-7.72435044E-01
5.04516969E+07	 3.12790665E-01	-7.74517264E-01
5.04639049E+07	 3.07786906E-01	-7.76467277E-01
5.04761130E+07	 3.02780203E-01	-7.78430122E-01
5.04883210E+07	 2.97747499E-01	-7.80348623E-01
5.05005290E+07	 2.92747990E-01	-7.82220880E-01
5.05127370E+07	 2.87697804E-01	-7.84089230E-01
5.05249451E+07	 2.82640308E-01	-7.85898718E-01
5.05371531E+07	 2.77589433E-01	-7.87686133E-01
5.05493611E+07	 2.72505368E-01	-7.89434983E-01
5.05615691E+07	 2.67414978E-01	-7.91148086E-01
5.05737772E+07	 2.62327754E-01	-7.92830870E-01
5.05859852E+07	 2.57225358E-01	-7.94476927E-01
5.05981932E+07	 2.52108588E-01	-7.96103780E-01
5.06104012E+07	 2.46985633E-01	-7.97693073E-01
5.06226093E+07	 2.41847762E-01	-7.99252952E-01
5.06348173E+07	 2.36703696E-01	-8.00753887E-01
5.06470253E+07	 2.31525323E-01	-8.02247051E-01
5.06592333E+07	 2.26383103E-01	-8.03700747E-01
5.06714414E+07	 2.21210818E-01	-8.05117054E-01
5.06836494E+07	 2.16025982E-01	-8.06511116E-01
5.06958574E+07	 2.10839596E-01	-8.07841633E-01
5.07080654E+07	 2.05644789E-01	-8.09159115E-01
5.07202735E+07	 2.00431485E-01	-8.10444288E-01
5.07324815E+07	 1.95210154E-01	-8.11708717E-01
5.07446895E+07	 1.90009198E-01	-8.12910038E-01
5.07568975E+07	 1.84769317E-01	-8.14086798E-01
5.07691056E+07	 1.79534559E-01	-8.15253007E-01
5.07813136E+07	 1.74305518E-01	-8.16350486E-01
5.07935216E+07	 1.69055981E-01	-8.17430632E-01
5.08057296E+07	 1.63804343E-01	-8.18461897E-01
5.08179377E+07	 1.58535473E-01	-8.19483596E-01
5.08301457E+07	 1.53278275E-01	-8.20455674E-01
5.08423537E+07	 1.48012107E-01	-8.21404019E-01
5.08545617E+07	 1.42723172E-01	-8.22310879E-01
5.08667698E+07	 1.37449453E-01	-8.23191925E-01
5.08789778E+07	 1.32167501E-01	-8.24029234E-01
5.08911858E+07	 1.26858420E-01	-8.24841790E-01
5.09033938E+07	 1.21580610E-01	-8.25598488E-01
5.09156019E+07	 1.16278668E-01	-8.26350276E-01
5.09278099E+07	 1.10960182E-01	-8.27045100E-01
5.09400179E+07	 1.05673556E-01	-8.27702015E-01
5.09522259E+07	 1.00356111E-01	-8.28337288E-01
5.09644340E+07	 9.50368025E-02	-8.28941889E-01
5.09766420E+07	 8.96998808E-02	-8.29507613E-01
5.09888500E+07	 8.43935419E-02	-8.30030332E-01
5.10010580E+07	 7.90800371E-02	-8.30528575E-01
5.10132661E+07	 7.37500397E-02	-8.30988262E-01
5.10254741E+07	 6.84305836E-02	-8.31429375E-01
5.10376821E+07	 6.30879317E-02	-8.31808378E-01
5.10498901E+07	 5.77689360E-02	-8.32170619E-01
5.10620982E+07	 5.24379558E-02	-8.32492704E-01
5.10743062E+07	 4.71017707E-02	-8.32787363E-01
5.10865142E+07	 4.17612319E-02	-8.33029186E-01
5.10987222E+07	 3.64372551E-02	-8.33239497E-01
5.11109303E+07	 3.10895453E-02	-8.33419233E-01
5.11231383E+07	 2.57632531E-02	-8.33596080E-01
5.11353463E+07	 2.04291660E-02	-8.33700222E-01
5.11475543E+07	 1.50880802E-02	-8.33782807E-01
5.11597624E+07	 9.75118561E-03	-8.33842156E-01
5.11719704E+07	 4.41831609E-03	-8.33856534E-01
5.11841784E+07	-9.22912046E-04	-8.33827323E-01
5.11963864E+07	-6.24779304E-03	-8.33772240E-01
5.12085944E+07	-1.16016913E-02	-8.33682719E-01
5.12208025E+07	-1.69119985E-02	-8.33545254E-01
5.12330105E+07	-2.22435575E-02	-8.33398014E-01
5.12452185E+07	-2.75718139E-02	-8.33203463E-01
5.12574265E+07	-3.28935194E-02	-8.32982527E-01
5.12696346E+07	-3.82235204E-02	-8.32723737E-01
5.12818426E+07	-4.35428515E-02	-8.32419560E-01
5.12940506E+07	-4.88498723E-02	-8.32078959E-01
5.13062586E+07	-5.41817391E-02	-8.31722872E-01
5.13184667E+07	-5.94822453E-02	-8.31332807E-01
5.13306747E+07	-6.47928097E-02	-8.30899036E-01
5.13428827E+07	-7.01018161E-02	-8.30433929E-01
5.13550907E+07	-7.53969472E-02	-8.29929005E-01
5.13672988E+07	-8.06957023E-02	-8.29395238E-01
5.13795068E+07	-8.59827445E-02	-8.28817360E-01
5.13917148E+07	-9.12785680E-02	-8.28202573E-01
5.14039228E+07	-9.65541975E-02	-8.27573548E-01
5.14161309E+07	-1.01842444E-01	-8.26888714E-01
5.14283389E+07	-1.07108272E-01	-8.26186053E-01
5.14405469E+07	-1.12397126E-01	-8.25466240E-01
5.14527549E+07	-1.17649696E-01	-8.24689429E-01
5.14649630E+07	-1.22892171E-01	-8.23879702E-01
5.14771710E+07	-1.28148018E-01	-8.23038662E-01
5.14893790E+07	-1.33396239E-01	-8.22162975E-01
5.15015870E+07	-1.38633075E-01	-8.21258625E-01
5.15137951E+07	-1.43869478E-01	-8.20317030E-01
5.15260031E+07	-1.49080483E-01	-8.19334963E-01
5.15382111E+07	-1.54302761E-01	-8.18345393E-01
5.15504191E+07	-1.59508175E-01	-8.17284408E-01
5.15626272E+07	-1.64703323E-01	-8.16211274E-01
5.15748352E+07	-1.69886194E-01	-8.15096979E-01
5.15870432E+07	-1.75083501E-01	-8.13981781E-01
5.15992512E+07	-1.80257099E-01	-8.12805953E-01
5.16114593E+07	-1.85423555E-01	-8.11604482E-01
5.16236673E+07	-1.90584211E-01	-8.10356338E-01
5.16358753E+07	-1.95734260E-01	-8.09076458E-01
5.16480833E+07	-2.00863511E-01	-8.07788813E-01
5.16602914E+07	-2.06005905E-01	-8.06440974E-01
5.16724994E+07	-2.11141706E-01	-8.05045302E-01
5.16847074E+07	-2.16258642E-01	-8.03680599E-01
5.16969154E+07	-2.21360649E-01	-8.02220333E-01
5.17091235E+07	-2.26446354E-01	-8.00749505E-01
5.17213315E+07	-2.31529902E-01	-7.99245077E-01
5.17335395E+07	-2.36608182E-01	-7.97725049E-01
5.17457475E+07	-2.41658435E-01	-7.96163947E-01
5.17579556E+07	-2.46701918E-01	-7.94554413E-01
5.17701636E+07	-2.51762161E-01	-7.92918318E-01
5.17823716E+07	-2.56787770E-01	-7.91275534E-01
5.17945796E+07	-2.61791673E-01	-7.89573999E-01
5.18067877E+07	-2.66795255E-01	-7.87840369E-01
5.18189957E+07	-2.71783637E-01	-7.86093420E-01
5.18312037E+07	-2.76779267E-01	-7.84305885E-01
5.18434117E+07	-2.81729298E-01	-7.82477775E-01
5.18556198E+07	-2.86706806E-01	-7.80631740E-01
5.18678278E+07	-2.91637361E-01	-7.78741171E-01
5.18800358E+07	-2.96582553E-01	-7.76830891E-01
5.18922438E+07	-3.01500646E-01	-7.74894471E-01
5.19044519E+07	-3.06393956E-01	-7.72918965E-01
5.19166599E+07	-3.11291252E-01	-7.70903318E-01
5.19288679E+07	-3.16163515E-01	-7.68860649E-01
5.19410759E+07	-3.21024299E-01	-7.66788832E-01
5.19532840E+07	-3.25874023E-01	-7.64687675E-01
5.19654920E+07	-3.30709115E-01	-7.62549622E-01
5.19777000E+07	-3.35524932E-01	-7.60396235E-01
5.19899080E+07	-3.40320012E-01	-7.58186961E-01
5.20021161E+07	-3.45123333E-01	-7.55997662E-01
5.20143241E+07	-3.49880913E-01	-7.53712843E-01
5.20265321E+07	-3.54640924E-01	-7.51444732E-01
5.20387401E+07	-3.59380840E-01	-7.49122476E-01
5.20509482E+07	-3.64115787E-01	-7.46780572E-01
5.20631562E+07	-3.68844597E-01	-7.44403671E-01
5.20753642E+07	-3.73525651E-01	-7.42010873E-01
5.20875722E+07	-3.78201718E-01	-7.39582770E-01
5.20997803E+07	-3.82862118E-01	-7.37120779E-01
5.21119883E+07	-3.87508642E-01	-7.34632032E-01
5.21241963E+07	-3.92146447E-01	-7.32110252E-01
5.21364043E+07	-3.96753198E-01	-7.29565063E-01
5.21486124E+07	-4.01346166E-01	-7.26970401E-01
5.21608204E+07	-4.05922749E-01	-7.24366226E-01
5.21730284E+07	-4.10493158E-01	-7.21744613E-01
5.21852364E+07	-4.15042314E-01	-7.19072285E-01
5.21974445E+07	-4.19552758E-01	-7.16381460E-01
5.22096525E+07	-4.24059305E-01	-7.13656853E-01
5.22218605E+07	-4.28548360E-01	-7.10908462E-01
5.22340685E+07	-4.33018342E-01	-7.08130276E-01
5.22462766E+07	-4.37474371E-01	-7.05334523E-01
5.22584846E+07	-4.41906414E-01	-7.02484445E-01
5.22706926E+07	-4.46312609E-01	-6.99633050E-01
5.22829006E+07	-4.50723353E-01	-6.96736091E-01
5.22951087E+07	-4.55077593E-01	-6.93829504E-01
5.23073167E+07	-4.59433280E-01	-6.90870011E-01
5.23195247E+07	-4.63780126E-01	-6.87899810E-01
5.23317327E+07	-4.68101839E-01	-6.84893741E-01
5.23439408E+07	-4.72393958E-01	-6.81886779E-01
5.23561488E+07	-4.76665931E-01	-6.78821869E-01
5.23683568E+07	-4.80923677E-01	-6.75749462E-01
5.23805648E+07	-4.85158193E-01	-6.72658913E-01
5.23927728E+07	-4.89379960E-01	-6.69501207E-01
5.24049809E+07	-4.93566917E-01	-6.66360857E-01
5.24171889E+07	-4.97741001E-01	-6.63179746E-01
5.24293969E+07	-5.01899523E-01	-6.59979321E-01
5.24416049E+07	-5.06015720E-01	-6.56727531E-01
5.24538130E+07	-5.10146350E-01	-6.53484492E-01
5.24660210E+07	-5.14229607E-01	-6.50197760E-01
5.24782290E+07	-5.18289598E-01	-6.46877837E-01
5.24904370E+07	-5.22359425E-01	-6.43557857E-01
5.25026451E+07	-5.26359030E-01	-6.40199670E-01
5.25148531E+07	-5.30370330E-01	-6.36807977E-01
5.25270611E+07	-5.34332784E-01	-6.33390834E-01
5.25392691E+07	-5.38290121E-01	-6.29950056E-01
5.25514772E+07	-5.42220504E-01	-6.26480076E-01
5.25636852E+07	-5.46130148E-01	-6.23016982E-01
5.25758932E+07	-5.50031109E-01	-6.19492220E-01
5.25881012E+07	-5.53883688E-01	-6.15970314E-01
5.26003093E+07	-5.57722504E-01	-6.12410047E-01
5.26125173E+07	-5.61545403E-01	-6.08842848E-01
5.26247253E+07	-5.65341664E-01	-6.05224366E-01
5.26369333E+07	-5.69106489E-01	-6.01603867E-01
5.26491414E+07	-5.72844589E-01	-5.97960215E-01
5.26613494E+07	-5.76582205E-01	-5.94277629E-01
5.26735574E+07	-5.80277332E-01	-5.90583348E-01
5.26857654E+07	-5.83935452E-01	-5.86883500E-01
5.26979735E+07	-5.87585771E-01	-5.83148893E-01
5.27101815E+07	-5.91218393E-01	-5.79363680E-01
5.27223895E+07	-5.94807661E-01	-5.75585811E-01
5.27345975E+07	-5.98392565E-01	-5.71771120E-01
5.27468056E+07	-6.01941216E-01	-5.67962369E-01
5.27590136E+07	-6.05482103E-01	-5.64103141E-01
5.27712216E+07	-6.08976405E-01	-5.60214110E-01
5.27834296E+07	-6.12453049E-01	-5.56328098E-01
5.27956377E+07	-6.15907514E-01	-5.52415877E-01
5.28078457E+07	-6.19334939E-01	-5.48462600E-01
5.28200537E+07	-6.22736529E-01	-5.44516753E-01
5.28322617E+07	-6.26099978E-01	-5.40554450E-01
5.28444698E+07	-6.29457893E-01	-5.36556356E-01
5.28566778E+07	-6.32772458E-01	-5.32543715E-01
5.28688858E+07	-6.36062035E-01	-5.28482756E-01
5.28810938E+07	-6.39350694E-01	-5.24440748E-01
5.28933019E+07	-6.42598391E-01	-5.20382132E-01
5.29055099E+07	-6.45795982E-01	-5.16261491E-01
5.29177179E+07	-6.48982843E-01	-5.12140924E-01
5.29299259E+07	-6.52155530E-01	-5.07997288E-01
5.29421340E+07	-6.55296743E-01	-5.03850193E-01
5.29543420E+07	-6.58400199E-01	-4.99671201E-01
5.29665500E+07	-6.61484486E-01	-4.95494730E-01
5.29787580E+07	-6.64548292E-01	-4.91265352E-01
5.29909661E+07	-6.67571299E-01	-4.87030302E-01
5.30031741E+07	-6.70576184E-01	-4.82787294E-01
5.30153821E+07	-6.73546403E-01	-4.78519490E-01
5.30275901E+07	-6.76489432E-01	-4.74238923E-01
5.30397982E+07	-6.79417760E-01	-4.69934058E-01
5.30520062E+07	-6.82286848E-01	-4.65598001E-01
5.30642142E+07	-6.85171397E-01	-4.61270753E-01
5.30764222E+07	-6.88000480E-01	-4.56926916E-01
5.30886303E+07	-6.90820197E-01	-4.52560605E-01
5.31008383E+07	-6.93591178E-01	-4.48185935E-01
5.31130463E+07	-6.96323091E-01	-4.43765664E-01
5.31252543E+07	-6.99072505E-01	-4.39350894E-01
5.31374624E+07	-7.01774441E-01	-4.34928518E-01
5.31496704E+07	-7.04429512E-01	-4.30450508E-01
5.31618784E+07	-7.07057205E-01	-4.25980723E-01
5.31740864E+07	-7.09661105E-01	-4.21509644E-01
5.31862945E+07	-7.12248126E-01	-4.17015785E-01
5.31985025E+07	-7.14814562E-01	-4.12493158E-01
5.32107105E+07	-7.17320360E-01	-4.07969091E-01
5.32229185E+07	-7.19827515E-01	-4.03406617E-01
5.32351266E+07	-7.22290907E-01	-3.98861808E-01
5.32473346E+07	-7.24724739E-01	-3.94282045E-01
5.32595426E+07	-7.27127798E-01	-3.89699034E-01
5.32717506E+07	-7.29517671E-01	-3.85083135E-01
5.32839587E+07	-7.31855070E-01	-3.80454110E-01
5.32961667E+07	-7.34161837E-01	-3.75844169E-01
5.33083747E+07	-7.36453736E-01	-3.71180706E-01
5.33205827E+07	-7.38710040E-01	-3.66536914E-01
5.33327908E+07	-7.40949647E-01	-3.61846232E-01
5.33449988E+07	-7.43146619E-01	-3.57179223E-01
5.33572068E+07	-7.45312676E-01	-3.52477696E-01
5.33694148E+07	-7.47451734E-01	-3.47756239E-01
5.33816229E+07	-7.49557648E-01	-3.43047381E-01
5.33938309E+07	-7.51645065E-01	-3.38302476E-01
5.34060389E+07	-7.53683644E-01	-3.33550922E-01
5.34182469E+07	-7.55700344E-01	-3.28802707E-01
5.34304550E+07	-7.57712364E-01	-3.24019783E-01
5.34426630E+07	-7.59647298E-01	-3.19241358E-01
5.34548710E+07	-7.61580126E-01	-3.14434353E-01
5.34670790E+07	-7.63476069E-01	-3.09640134E-01
5.34792871E+07	-7.65339856E-01	-3.04833436E-01
5.34914951E+07	-7.67176468E-01	-3.00004596E-01
5.35037031E+07	-7.68990292E-01	-2.95147508E-01
5.35159111E+07	-7.70754805E-01	-2.90303268E-01
5.35281192E+07	-7.72501515E-01	-2.85440282E-01
5.35403272E+07	-7.74220994E-01	-2.80580484E-01
5.35525352E+07	-7.75898201E-01	-2.75707494E-01
5.35647432E+07	-7.77540549E-01	-2.70819122E-01
5.35769512E+07	-7.79187770E-01	-2.65937982E-01
5.35891593E+07	-7.80741362E-01	-2.61014142E-01
5.36013673E+07	-7.82331850E-01	-2.56097562E-01
5.36135753E+07	-7.83842535E-01	-2.51170682E-01
5.36257833E+07	-7.85348368E-01	-2.46246571E-01
5.36379914E+07	-7.86811693E-01	-2.41300250E-01
5.36501994E+07	-7.88251362E-01	-2.36329519E-01
5.36624074E+07	-7.89640325E-01	-2.31395388E-01
5.36746154E+07	-7.91025682E-01	-2.26437175E-01
5.36868235E+07	-7.92363356E-01	-2.21456124E-01
5.36990315E+07	-7.93658694E-01	-2.16472804E-01
5.37112395E+07	-7.94937015E-01	-2.11484105E-01
5.37234475E+07	-7.96192460E-01	-2.06477476E-01
5.37356556E+07	-7.97409036E-01	-2.01476558E-01
5.37478636E+07	-7.98580332E-01	-1.96462653E-01
5.37600716E+07	-7.99733666E-01	-1.91450466E-01
5.37722796E+07	-8.00861445E-01	-1.86427138E-01
5.37844877E+07	-8.01950052E-01	-1.81397358E-01
5.37966957E+07	-8.02993624E-01	-1.76357587E-01
5.38089037E+07	-8.04010296E-01	-1.71334490E-01
5.38211117E+07	-8.05017814E-01	-1.66299382E-01
5.38333198E+07	-8.05989706E-01	-1.61248308E-01
5.38455278E+07	-8.06918482E-01	-1.56186411E-01
5.38577358E+07	-8.07811790E-01	-1.51130307E-01
5.38699438E+07	-8.08675034E-01	-1.46067780E-01
5.38821519E+07	-8.09522214E-01	-1.40973036E-01
5.38943599E+07	-8.10302634E-01	-1.35910709E-01
5.39065679E+07	-8.11086326E-01	-1.30824168E-01
5.39187759E+07	-8.11824074E-01	-1.25747039E-01
5.39309840E+07	-8.12527874E-01	-1.20663477E-01
5.39431920E+07	-8.13205637E-01	-1.15587322E-01
5.39554000E+07	-8.13843159E-01	-1.10481868E-01
5.39676080E+07	-8.14456521E-01	-1.05387567E-01
5.39798161E+07	-8.15040361E-01	-1.00284983E-01
5.39920241E+07	-8.15577842E-01	-9.51924146E-02
5.40042321E+07	-8.16103305E-01	-9.00784684E-02
5.40164401E+07	-8.16582603E-01	-8.49728806E-02
5.40286482E+07	-8.17027469E-01	-7.98582600E-02
5.40408562E+07	-8.17449555E-01	-7.47523673E-02
5.40530642E+07	-8.17836897E-01	-6.96471974E-02
5.40652722E+07	-8.18199517E-01	-6.45340121E-02
5.40774803E+07	-8.18522760E-01	-5.94085955E-02
5.40896883E+07	-8.18808013E-01	-5.42979131E-02
5.41018963E+07	-8.19071111E-01	-4.91772920E-02
5.41141043E+07	-8.19301776E-01	-4.40555324E-02
5.41263124E+07	-8.19491075E-01	-3.89310789E-02
5.41385204E+07	-8.19648591E-01	-3.38082184E-02
5.41507284E+07	-8.19784672E-01	-2.86799678E-02
5.41629364E+07	-8.19880389E-01	-2.35742781E-02
5.41751445E+07	-8.19954951E-01	-1.84527325E-02
5.41873525E+07	-8.19995076E-01	-1.33352942E-02
5.41995605E+07	-8.19996860E-01	-8.21083660E-03
5.42117685E+07	-8.19951115E-01	-3.10129927E-03
5.42239766E+07	-8.19889919E-01	 2.02697265E-03
5.42361846E+07	-8.19819557E-01	 7.12683353E-03
5.42483926E+07	-8.19679144E-01	 1.22480330E-02
5.42606006E+07	-8.19531782E-01	 1.73684133E-02
5.42728087E+07	-8.19340312E-01	 2.24722101E-02
5.42850167E+07	-8.19120350E-01	 2.75899846E-02
5.42972247E+07	-8.18864763E-01	 3.26930588E-02
5.43094327E+07	-8.18583761E-01	 3.78042776E-02
5.43216408E+07	-8.18259171E-01	 4.29019047E-02
5.43338488E+07	-8.17913690E-01	 4.80116959E-02
5.43460568E+07	-8.17564510E-01	 5.31037087E-02
5.43582648E+07	-8.17132367E-01	 5.81989701E-02
5.43704729E+07	-8.16699813E-01	 6.32867679E-02
5.43826809E+07	-8.16234152E-01	 6.83712512E-02
5.43948889E+07	-8.15722743E-01	 7.34526482E-02
5.44070969E+07	-8.15177711E-01	 7.85193222E-02
5.44193050E+07	-8.14622183E-01	 8.36122177E-02
5.44315130E+07	-8.14025071E-01	 8.86845298E-02
5.44437210E+07	-8.13385062E-01	 9.37328973E-02
5.44559290E+07	-8.12726567E-01	 9.88013348E-02
5.44681371E+07	-8.12033734E-01	 1.03861525E-01
5.44803451E+07	-8.11309013E-01	 1.08924483E-01
5.44925531E+07	-8.10541547E-01	 1.13955625E-01
5.45047611E+07	-8.09758121E-01	 1.19011267E-01
5.45169692E+07	-8.08956178E-01	 1.24042940E-01
5.45291772E+07	-8.08087387E-01	 1.29066206E-01
5.45413852E+07	-8.07219104E-01	 1.34080606E-01
5.45535932E+07	-8.06309695E-01	 1.39106952E-01
5.45658013E+07	-8.05361180E-01	 1.44109732E-01
5.45780093E+07	-8.04391502E-01	 1.49108538E-01
5.45902173E+07	-8.03389941E-01	 1.54105383E-01
5.46024253E+07	-8.02347742E-01	 1.59101455E-01
5.46146334E+07	-8.01277983E-01	 1.64079738E-01
5.46268414E+07	-8.00191002E-01	 1.69062194E-01
5.46390494E+07	-7.99066805E-01	 1.74027727E-01
5.46512574E+07	-7.97922695E-01	 1.78994793E-01
5.46634655E+07	-7.96720028E-01	 1.83944183E-01
5.46756735E+07	-7.95490656E-01	 1.88897374E-01
5.46878815E+07	-7.94245060E-01	 1.93812932E-01
5.47000895E+07	-7.92974464E-01	 1.98762804E-01
5.47122976E+07	-7.91665023E-01	 2.03695979E-01
5.47245056E+07	-7.90319408E-01	 2.08583547E-01
5.47367136E+07	-7.88953205E-01	 2.13487120E-01
5.47489216E+07	-7.87544717E-01	 2.18392265E-01
5.47611296E+07	-7.86123317E-01	 2.23269388E-01
5.47733377E+07	-7.84646854E-01	 2.28145916E-01
5.47855457E+07	-7.83171509E-01	 2.33007837E-01
5.47977537E+07	-7.81635823E-01	 2.37859540E-01
5.48099617E+07	-7.80084898E-01	 2.42700432E-01
5.48221698E+07	-7.78492668E-01	 2.47544030E-01
5.48343778E+07	-7.76901465E-01	 2.52363357E-01
5.48465858E+07	-7.75260239E-01	 2.57184309E-01
5.48587938E+07	-7.73580660E-01	 2.61987744E-01
5.48710019E+07	-7.71890093E-01	 2.66789334E-01
5.48832099E+07	-7.70161386E-01	 2.71570803E-01
5.48954179E+07	-7.68392657E-01	 2.76345634E-01
5.49076259E+07	-7.66600758E-01	 2.81084205E-01
5.49198340E+07	-7.64790931E-01	 2.85830269E-01
5.49320420E+07	-7.62945820E-01	 2.90573765E-01
5.49442500E+07	-7.61043526E-01	 2.95304397E-01
5.49564580E+07	-7.59151747E-01	 2.99996466E-01
5.49686661E+07	-7.57226785E-01	 3.04703823E-01
5.49808741E+07	-7.55277638E-01	 3.09399082E-01
5.49930821E+07	-7.53278331E-01	 3.14063101E-01
5.50052901E+07	-7.51249569E-01	 3.18721511E-01
5.50174982E+07	-7.49201817E-01	 3.23362573E-01
5.50297062E+07	-7.47138131E-01	 3.27995916E-01
5.50419142E+07	-7.45042737E-01	 3.32628417E-01
5.50541222E+07	-7.42895850E-01	 3.37225753E-01
5.50663303E+07	-7.40724404E-01	 3.41826578E-01
5.50785383E+07	-7.38540677E-01	 3.46415524E-01
5.50907463E+07	-7.36322334E-01	 3.50985990E-01
5.51029543E+07	-7.34036689E-01	 3.55501519E-01
5.51151624E+07	-7.31815595E-01	 3.60063803E-01
5.51273704E+07	-7.29498626E-01	 3.64589190E-01
