! COPPER MOUNTAIN TECHNOLOGIES, PLANAR TR1300/1, 00071119, 20.2.2/1.0
! Date: 1/9/2024 7:22:40 PM
! Data: Format [Calibration Info]
! Freq          	S11: Re/Im F1                  
# HZ S RI R 50
5.00000000E+07	 3.19848559E-01	-4.58483127E-01
5.00122080E+07	 3.16901374E-01	-4.60532097E-01
5.00244160E+07	 3.13929178E-01	-4.62563444E-01
5.00366241E+07	 3.10957782E-01	-4.64580125E-01
5.00488321E+07	 3.07961035E-01	-4.66571827E-01
5.00610401E+07	 3.04963509E-01	-4.68563567E-01
5.00732481E+07	 3.01950070E-01	-4.70520957E-01
5.00854562E+07	 2.98912374E-01	-4.72453952E-01
5.00976642E+07	 2.95889140E-01	-4.74373670E-01
5.01098722E+07	 2.92817360E-01	-4.76255093E-01
5.01220802E+07	 2.89744677E-01	-4.78106628E-01
5.01342883E+07	 2.86687383E-01	-4.80012896E-01
5.01464963E+07	 2.83607453E-01	-4.81846508E-01
5.01587043E+07	 2.80509610E-01	-4.83665141E-01
5.01709123E+07	 2.77397938E-01	-4.85454607E-01
5.01831204E+07	 2.74273368E-01	-4.87241024E-01
5.01953284E+07	 2.71130961E-01	-4.89001475E-01
5.02075364E+07	 2.67973315E-01	-4.90713585E-01
5.02197444E+07	 2.64849949E-01	-4.92461602E-01
5.02319525E+07	 2.61667209E-01	-4.94145045E-01
5.02441605E+07	 2.58489094E-01	-4.95827750E-01
5.02563685E+07	 2.55311100E-01	-4.97473999E-01
5.02685765E+07	 2.52095777E-01	-4.99085468E-01
5.02807846E+07	 2.48905916E-01	-5.00728216E-01
5.02929926E+07	 2.45689390E-01	-5.02335321E-01
5.03052006E+07	 2.42456245E-01	-5.03905419E-01
5.03174086E+07	 2.39220498E-01	-5.05448554E-01
5.03296167E+07	 2.35975607E-01	-5.06985348E-01
5.03418247E+07	 2.32714249E-01	-5.08494928E-01
5.03540327E+07	 2.29450329E-01	-5.09990198E-01
5.03662407E+07	 2.26163462E-01	-5.11449345E-01
5.03784488E+07	 2.22887194E-01	-5.12888869E-01
5.03906568E+07	 2.19574983E-01	-5.14290739E-01
5.04028648E+07	 2.16289672E-01	-5.15719349E-01
5.04150728E+07	 2.12980629E-01	-5.17116556E-01
5.04272809E+07	 2.09659261E-01	-5.18470933E-01
5.04394889E+07	 2.06313940E-01	-5.19777871E-01
5.04516969E+07	 2.02991888E-01	-5.21135455E-01
5.04639049E+07	 1.99645728E-01	-5.22417166E-01
5.04761130E+07	 1.96289639E-01	-5.23701419E-01
5.04883210E+07	 1.92914080E-01	-5.24954494E-01
5.05005290E+07	 1.89563671E-01	-5.26179647E-01
5.05127370E+07	 1.86188314E-01	-5.27395703E-01
5.05249451E+07	 1.82788270E-01	-5.28579882E-01
5.05371531E+07	 1.79411598E-01	-5.29749655E-01
5.05493611E+07	 1.76007708E-01	-5.30888832E-01
5.05615691E+07	 1.72599747E-01	-5.32006994E-01
5.05737772E+07	 1.69189201E-01	-5.33112918E-01
5.05859852E+07	 1.65767126E-01	-5.34188509E-01
5.05981932E+07	 1.62338217E-01	-5.35244815E-01
5.06104012E+07	 1.58911770E-01	-5.36285111E-01
5.06226093E+07	 1.55469289E-01	-5.37299412E-01
5.06348173E+07	 1.52023267E-01	-5.38275910E-01
5.06470253E+07	 1.48560750E-01	-5.39241647E-01
5.06592333E+07	 1.45112952E-01	-5.40191976E-01
5.06714414E+07	 1.41648854E-01	-5.41113805E-01
5.06836494E+07	 1.38177163E-01	-5.42018704E-01
5.06958574E+07	 1.34709863E-01	-5.42884188E-01
5.07080654E+07	 1.31226224E-01	-5.43747178E-01
5.07202735E+07	 1.27736706E-01	-5.44581772E-01
5.07324815E+07	 1.24240708E-01	-5.45402114E-01
5.07446895E+07	 1.20762888E-01	-5.46176579E-01
5.07568975E+07	 1.17254089E-01	-5.46943126E-01
5.07691056E+07	 1.13750253E-01	-5.47695466E-01
5.07813136E+07	 1.10245310E-01	-5.48402242E-01
5.07935216E+07	 1.06739535E-01	-5.49103090E-01
5.08057296E+07	 1.03214800E-01	-5.49763466E-01
5.08179377E+07	 9.96891002E-02	-5.50421704E-01
5.08301457E+07	 9.61675254E-02	-5.51052359E-01
5.08423537E+07	 9.26418081E-02	-5.51657864E-01
5.08545617E+07	 8.91047655E-02	-5.52239845E-01
5.08667698E+07	 8.55741792E-02	-5.52805913E-01
5.08789778E+07	 8.20358151E-02	-5.53339969E-01
5.08911858E+07	 7.84917123E-02	-5.53861213E-01
5.09033938E+07	 7.49522013E-02	-5.54348166E-01
5.09156019E+07	 7.14083646E-02	-5.54824624E-01
5.09278099E+07	 6.78491451E-02	-5.55270164E-01
5.09400179E+07	 6.43071380E-02	-5.55691451E-01
5.09522259E+07	 6.07560363E-02	-5.56092647E-01
5.09644340E+07	 5.71938945E-02	-5.56475497E-01
5.09766420E+07	 5.36199022E-02	-5.56830099E-01
5.09888500E+07	 5.00694171E-02	-5.57153217E-01
5.10010580E+07	 4.65096595E-02	-5.57469310E-01
5.10132661E+07	 4.29451487E-02	-5.57753370E-01
5.10254741E+07	 3.93883924E-02	-5.58026682E-01
5.10376821E+07	 3.58143412E-02	-5.58253920E-01
5.10498901E+07	 3.22463858E-02	-5.58477586E-01
5.10620982E+07	 2.86857259E-02	-5.58674004E-01
5.10743062E+07	 2.51107349E-02	-5.58844130E-01
5.10865142E+07	 2.15359358E-02	-5.58979683E-01
5.10987222E+07	 1.79775914E-02	-5.59111874E-01
5.11109303E+07	 1.44025237E-02	-5.59207465E-01
5.11231383E+07	 1.08360644E-02	-5.59298863E-01
5.11353463E+07	 7.26518576E-03	-5.59356369E-01
5.11475543E+07	 3.69262835E-03	-5.59390441E-01
5.11597624E+07	 1.26710001E-04	-5.59410801E-01
5.11719704E+07	-3.45040113E-03	-5.59393738E-01
5.11841784E+07	-7.02589567E-03	-5.59357679E-01
5.11963864E+07	-1.05852105E-02	-5.59303096E-01
5.12085944E+07	-1.41668194E-02	-5.59223695E-01
5.12208025E+07	-1.77245978E-02	-5.59109799E-01
5.12330105E+07	-2.12914930E-02	-5.58997191E-01
5.12452185E+07	-2.48613755E-02	-5.58848092E-01
5.12574265E+07	-2.84187620E-02	-5.58675972E-01
5.12696346E+07	-3.19868732E-02	-5.58478698E-01
5.12818426E+07	-3.55488287E-02	-5.58265537E-01
5.12940506E+07	-3.90958838E-02	-5.58019095E-01
5.13062586E+07	-4.26635035E-02	-5.57753282E-01
5.13184667E+07	-4.62116469E-02	-5.57471132E-01
5.13306747E+07	-4.97608396E-02	-5.57168571E-01
5.13428827E+07	-5.33191113E-02	-5.56837054E-01
5.13550907E+07	-5.68594736E-02	-5.56470673E-01
5.13672988E+07	-6.04075897E-02	-5.56104476E-01
5.13795068E+07	-6.39402844E-02	-5.55692596E-01
5.13917148E+07	-6.74803547E-02	-5.55280130E-01
5.14039228E+07	-7.10204113E-02	-5.54832035E-01
5.14161309E+07	-7.45554689E-02	-5.54360423E-01
5.14283389E+07	-7.80805449E-02	-5.53867571E-01
5.14405469E+07	-8.16185057E-02	-5.53363953E-01
5.14527549E+07	-8.51334444E-02	-5.52826808E-01
5.14649630E+07	-8.86387495E-02	-5.52272440E-01
5.14771710E+07	-9.21570642E-02	-5.51698615E-01
5.14893790E+07	-9.56736802E-02	-5.51104917E-01
5.15015870E+07	-9.91754563E-02	-5.50471125E-01
5.15137951E+07	-1.02681568E-01	-5.49828159E-01
5.15260031E+07	-1.06168302E-01	-5.49154686E-01
5.15382111E+07	-1.09667504E-01	-5.48468897E-01
5.15504191E+07	-1.13149744E-01	-5.47743339E-01
5.15626272E+07	-1.16625293E-01	-5.47015792E-01
5.15748352E+07	-1.20098492E-01	-5.46241601E-01
5.15870432E+07	-1.23567655E-01	-5.45475751E-01
5.15992512E+07	-1.27038080E-01	-5.44675866E-01
5.16114593E+07	-1.30495899E-01	-5.43854356E-01
5.16236673E+07	-1.33950971E-01	-5.43001225E-01
5.16358753E+07	-1.37399007E-01	-5.42131820E-01
5.16480833E+07	-1.40834237E-01	-5.41253920E-01
5.16602914E+07	-1.44276153E-01	-5.40329966E-01
5.16724994E+07	-1.47712170E-01	-5.39381184E-01
5.16847074E+07	-1.51138226E-01	-5.38448846E-01
5.16969154E+07	-1.54555733E-01	-5.37458277E-01
5.17091235E+07	-1.57957128E-01	-5.36459326E-01
5.17213315E+07	-1.61360223E-01	-5.35429396E-01
5.17335395E+07	-1.64760419E-01	-5.34411356E-01
5.17457475E+07	-1.68150432E-01	-5.33339397E-01
5.17579556E+07	-1.71525119E-01	-5.32242985E-01
5.17701636E+07	-1.74910898E-01	-5.31138767E-01
5.17823716E+07	-1.78282668E-01	-5.30022896E-01
5.17945796E+07	-1.81620470E-01	-5.28865906E-01
5.18067877E+07	-1.84974355E-01	-5.27690426E-01
5.18189957E+07	-1.88318262E-01	-5.26500898E-01
5.18312037E+07	-1.91656247E-01	-5.25288912E-01
5.18434117E+07	-1.94979651E-01	-5.24051118E-01
5.18556198E+07	-1.98310475E-01	-5.22793025E-01
5.18678278E+07	-2.01611435E-01	-5.21520939E-01
5.18800358E+07	-2.04923783E-01	-5.20227030E-01
5.18922438E+07	-2.08214240E-01	-5.18909899E-01
5.19044519E+07	-2.11495632E-01	-5.17570438E-01
5.19166599E+07	-2.14776840E-01	-5.16199546E-01
5.19288679E+07	-2.18032746E-01	-5.14814864E-01
5.19410759E+07	-2.21289786E-01	-5.13424753E-01
5.19532840E+07	-2.24536395E-01	-5.11995501E-01
5.19654920E+07	-2.27781276E-01	-5.10551703E-01
5.19777000E+07	-2.31007973E-01	-5.09098207E-01
5.19899080E+07	-2.34219355E-01	-5.07604438E-01
5.20021161E+07	-2.37431240E-01	-5.06123448E-01
5.20143241E+07	-2.40623195E-01	-5.04576575E-01
5.20265321E+07	-2.43814503E-01	-5.03037486E-01
5.20387401E+07	-2.46992760E-01	-5.01461591E-01
5.20509482E+07	-2.50159864E-01	-4.99881955E-01
5.20631562E+07	-2.53323377E-01	-4.98277001E-01
5.20753642E+07	-2.56462483E-01	-4.96654675E-01
5.20875722E+07	-2.59596727E-01	-4.95013250E-01
5.20997803E+07	-2.62719569E-01	-4.93351281E-01
5.21119883E+07	-2.65836449E-01	-4.91670528E-01
5.21241963E+07	-2.68943729E-01	-4.89966157E-01
5.21364043E+07	-2.72027325E-01	-4.88245218E-01
5.21486124E+07	-2.75104409E-01	-4.86499322E-01
5.21608204E+07	-2.78170113E-01	-4.84734840E-01
5.21730284E+07	-2.81232092E-01	-4.82965498E-01
5.21852364E+07	-2.84280590E-01	-4.81160238E-01
5.21974445E+07	-2.87305985E-01	-4.79337613E-01
5.22096525E+07	-2.90326692E-01	-4.77499884E-01
5.22218605E+07	-2.93338243E-01	-4.75643679E-01
5.22340685E+07	-2.96330557E-01	-4.73761846E-01
5.22462766E+07	-2.99319957E-01	-4.71870888E-01
5.22584846E+07	-3.02289010E-01	-4.69945604E-01
5.22706926E+07	-3.05245321E-01	-4.68021718E-01
5.22829006E+07	-3.08200634E-01	-4.66071959E-01
5.22951087E+07	-3.11118741E-01	-4.64104573E-01
5.23073167E+07	-3.14037794E-01	-4.62109894E-01
5.23195247E+07	-3.16948274E-01	-4.60103177E-01
5.23317327E+07	-3.19846202E-01	-4.58072238E-01
5.23439408E+07	-3.22728324E-01	-4.56038383E-01
5.23561488E+07	-3.25594075E-01	-4.53963099E-01
5.23683568E+07	-3.28441235E-01	-4.51902158E-01
5.23805648E+07	-3.31291629E-01	-4.49811764E-01
5.23927728E+07	-3.34113113E-01	-4.47673339E-01
5.24049809E+07	-3.36922570E-01	-4.45546839E-01
5.24171889E+07	-3.39723713E-01	-4.43403083E-01
5.24293969E+07	-3.42505855E-01	-4.41243745E-01
5.24416049E+07	-3.45269713E-01	-4.39048040E-01
5.24538130E+07	-3.48034951E-01	-4.36858257E-01
5.24660210E+07	-3.50783174E-01	-4.34645187E-01
5.24782290E+07	-3.53496364E-01	-4.32399343E-01
5.24904370E+07	-3.56217982E-01	-4.30163091E-01
5.25026451E+07	-3.58907279E-01	-4.27889339E-01
5.25148531E+07	-3.61595554E-01	-4.25600961E-01
5.25270611E+07	-3.64258453E-01	-4.23287590E-01
5.25392691E+07	-3.66912756E-01	-4.20978205E-01
5.25514772E+07	-3.69556215E-01	-4.18630623E-01
5.25636852E+07	-3.72171870E-01	-4.16294365E-01
5.25758932E+07	-3.74785357E-01	-4.13913970E-01
5.25881012E+07	-3.77373835E-01	-4.11530487E-01
5.26003093E+07	-3.79948416E-01	-4.09123440E-01
5.26125173E+07	-3.82498563E-01	-4.06729413E-01
5.26247253E+07	-3.85049030E-01	-4.04280009E-01
5.26369333E+07	-3.87576297E-01	-4.01833991E-01
5.26491414E+07	-3.90085941E-01	-3.99374030E-01
5.26613494E+07	-3.92595382E-01	-3.96884123E-01
5.26735574E+07	-3.95074463E-01	-3.94388623E-01
5.26857654E+07	-3.97525067E-01	-3.91889599E-01
5.26979735E+07	-3.99972170E-01	-3.89370252E-01
5.27101815E+07	-4.02411104E-01	-3.86812383E-01
5.27223895E+07	-4.04818679E-01	-3.84269003E-01
5.27345975E+07	-4.07226390E-01	-3.81699488E-01
5.27468056E+07	-4.09606750E-01	-3.79112037E-01
5.27590136E+07	-4.11982980E-01	-3.76513441E-01
5.27712216E+07	-4.14327012E-01	-3.73886761E-01
5.27834296E+07	-4.16657635E-01	-3.71261402E-01
5.27956377E+07	-4.18973727E-01	-3.68617463E-01
5.28078457E+07	-4.21272561E-01	-3.65952394E-01
5.28200537E+07	-4.23549718E-01	-3.63288275E-01
5.28322617E+07	-4.25817156E-01	-3.60604923E-01
5.28444698E+07	-4.28051084E-01	-3.57902275E-01
5.28566778E+07	-4.30278072E-01	-3.55191977E-01
5.28688858E+07	-4.32496191E-01	-3.52457853E-01
5.28810938E+07	-4.34695589E-01	-3.49721783E-01
5.28933019E+07	-4.36869577E-01	-3.46976080E-01
5.29055099E+07	-4.39018580E-01	-3.44197420E-01
5.29177179E+07	-4.41159965E-01	-3.41413301E-01
5.29299259E+07	-4.43284240E-01	-3.38621372E-01
5.29421340E+07	-4.45393558E-01	-3.35815915E-01
5.29543420E+07	-4.47474072E-01	-3.32992983E-01
5.29665500E+07	-4.49544902E-01	-3.30166792E-01
5.29787580E+07	-4.51596235E-01	-3.27312617E-01
5.29909661E+07	-4.53624532E-01	-3.24457336E-01
5.30031741E+07	-4.55638137E-01	-3.21587864E-01
5.30153821E+07	-4.57625590E-01	-3.18694567E-01
5.30275901E+07	-4.59603407E-01	-3.15814891E-01
5.30397982E+07	-4.61563537E-01	-3.12901709E-01
5.30520062E+07	-4.63492328E-01	-3.09974557E-01
5.30642142E+07	-4.65424535E-01	-3.07056602E-01
5.30764222E+07	-4.67325295E-01	-3.04114671E-01
5.30886303E+07	-4.69204742E-01	-3.01165067E-01
5.31008383E+07	-4.71068155E-01	-2.98199309E-01
5.31130463E+07	-4.72905478E-01	-2.95224441E-01
5.31252543E+07	-4.74743937E-01	-2.92237187E-01
5.31374624E+07	-4.76543148E-01	-2.89244655E-01
5.31496704E+07	-4.78322843E-01	-2.86228990E-01
5.31618784E+07	-4.80095552E-01	-2.83209838E-01
5.31740864E+07	-4.81836403E-01	-2.80180236E-01
5.31862945E+07	-4.83574429E-01	-2.77138788E-01
5.31985025E+07	-4.85286994E-01	-2.74086256E-01
5.32107105E+07	-4.86968071E-01	-2.71027148E-01
5.32229185E+07	-4.88644220E-01	-2.67946145E-01
5.32351266E+07	-4.90296043E-01	-2.64867838E-01
5.32473346E+07	-4.91922268E-01	-2.61777842E-01
5.32595426E+07	-4.93530812E-01	-2.58683123E-01
5.32717506E+07	-4.95138795E-01	-2.55556110E-01
5.32839587E+07	-4.96702246E-01	-2.52432182E-01
5.32961667E+07	-4.98245164E-01	-2.49312988E-01
5.33083747E+07	-4.99786442E-01	-2.46159885E-01
5.33205827E+07	-5.01294193E-01	-2.43016579E-01
5.33327908E+07	-5.02783862E-01	-2.39847860E-01
5.33449988E+07	-5.04264243E-01	-2.36692864E-01
5.33572068E+07	-5.05702858E-01	-2.33514839E-01
5.33694148E+07	-5.07138501E-01	-2.30332527E-01
5.33816229E+07	-5.08548082E-01	-2.27137425E-01
5.33938309E+07	-5.09945248E-01	-2.23932092E-01
5.34060389E+07	-5.11308655E-01	-2.20716395E-01
5.34182469E+07	-5.12661240E-01	-2.17506964E-01
5.34304550E+07	-5.14004296E-01	-2.14279551E-01
5.34426630E+07	-5.15299347E-01	-2.11047937E-01
5.34548710E+07	-5.16584897E-01	-2.07792301E-01
5.34670790E+07	-5.17860467E-01	-2.04550470E-01
5.34792871E+07	-5.19114292E-01	-2.01299086E-01
5.34914951E+07	-5.20329039E-01	-1.98028313E-01
5.35037031E+07	-5.21539996E-01	-1.94751123E-01
5.35159111E+07	-5.22718182E-01	-1.91468528E-01
5.35281192E+07	-5.23884782E-01	-1.88187502E-01
5.35403272E+07	-5.25027667E-01	-1.84906315E-01
5.35525352E+07	-5.26149294E-01	-1.81600353E-01
5.35647432E+07	-5.27252005E-01	-1.78293543E-01
5.35769512E+07	-5.28332264E-01	-1.74986599E-01
5.35891593E+07	-5.29383646E-01	-1.71662678E-01
5.36013673E+07	-5.30430112E-01	-1.68330015E-01
5.36135753E+07	-5.31449977E-01	-1.65007951E-01
5.36257833E+07	-5.32438768E-01	-1.61663016E-01
5.36379914E+07	-5.33420269E-01	-1.58320957E-01
5.36501994E+07	-5.34377699E-01	-1.54966093E-01
5.36624074E+07	-5.35291913E-01	-1.51626261E-01
5.36746154E+07	-5.36220854E-01	-1.48268196E-01
5.36868235E+07	-5.37107782E-01	-1.44898748E-01
5.36990315E+07	-5.37968937E-01	-1.41521707E-01
5.37112395E+07	-5.38815994E-01	-1.38149142E-01
5.37234475E+07	-5.39643778E-01	-1.34770706E-01
5.37356556E+07	-5.40457125E-01	-1.31380296E-01
5.37478636E+07	-5.41233751E-01	-1.27989868E-01
5.37600716E+07	-5.41995060E-01	-1.24589974E-01
5.37722796E+07	-5.42742300E-01	-1.21194763E-01
5.37844877E+07	-5.43454172E-01	-1.17794268E-01
5.37966957E+07	-5.44144664E-01	-1.14382312E-01
5.38089037E+07	-5.44821315E-01	-1.10975757E-01
5.38211117E+07	-5.45491320E-01	-1.07575228E-01
5.38333198E+07	-5.46124185E-01	-1.04156334E-01
5.38455278E+07	-5.46725200E-01	-1.00730603E-01
5.38577358E+07	-5.47317018E-01	-9.73115590E-02
5.38699438E+07	-5.47882760E-01	-9.38877831E-02
5.38821519E+07	-5.48437209E-01	-9.04386157E-02
5.38943599E+07	-5.48943815E-01	-8.70197470E-02
5.39065679E+07	-5.49466428E-01	-8.35651555E-02
5.39187759E+07	-5.49942724E-01	-8.01294499E-02
5.39309840E+07	-5.50397882E-01	-7.66882248E-02
5.39431920E+07	-5.50842560E-01	-7.32510183E-02
5.39554000E+07	-5.51254513E-01	-6.97891802E-02
5.39676080E+07	-5.51659966E-01	-6.63559301E-02
5.39798161E+07	-5.52029305E-01	-6.29016737E-02
5.39920241E+07	-5.52374050E-01	-5.94488460E-02
5.40042321E+07	-5.52714532E-01	-5.59861802E-02
5.40164401E+07	-5.53021131E-01	-5.25393714E-02
5.40286482E+07	-5.53300795E-01	-4.90754932E-02
5.40408562E+07	-5.53566360E-01	-4.56188191E-02
5.40530642E+07	-5.53809564E-01	-4.21595370E-02
5.40652722E+07	-5.54035514E-01	-3.86974760E-02
5.40774803E+07	-5.54235581E-01	-3.52278378E-02
5.40896883E+07	-5.54405961E-01	-3.17767132E-02
5.41018963E+07	-5.54568224E-01	-2.83071165E-02
5.41141043E+07	-5.54704107E-01	-2.48385189E-02
5.41263124E+07	-5.54820725E-01	-2.13698030E-02
5.41385204E+07	-5.54901914E-01	-1.79096184E-02
5.41507284E+07	-5.54974137E-01	-1.44330553E-02
5.41629364E+07	-5.55020982E-01	-1.09727624E-02
5.41751445E+07	-5.55051317E-01	-7.50365592E-03
5.41873525E+07	-5.55056427E-01	-4.04589469E-03
5.41995605E+07	-5.55035680E-01	-5.73640718E-04
5.42117685E+07	-5.54977170E-01	 2.88805869E-03
5.42239766E+07	-5.54925887E-01	 6.35719278E-03
5.42361846E+07	-5.54855091E-01	 9.81287409E-03
5.42483926E+07	-5.54743399E-01	 1.32709127E-02
5.42606006E+07	-5.54621898E-01	 1.67360460E-02
5.42728087E+07	-5.54464002E-01	 2.02004231E-02
5.42850167E+07	-5.54291869E-01	 2.36547004E-02
5.42972247E+07	-5.54104009E-01	 2.71103246E-02
5.43094327E+07	-5.53889089E-01	 3.05773133E-02
5.43216408E+07	-5.53649507E-01	 3.40232081E-02
5.43338488E+07	-5.53397899E-01	 3.74767811E-02
5.43460568E+07	-5.53130944E-01	 4.09304491E-02
5.43582648E+07	-5.52824565E-01	 4.43722171E-02
5.43704729E+07	-5.52501681E-01	 4.78292590E-02
5.43826809E+07	-5.52161715E-01	 5.12679744E-02
5.43948889E+07	-5.51788397E-01	 5.46989605E-02
5.44070969E+07	-5.51403423E-01	 5.81399303E-02
5.44193050E+07	-5.51007050E-01	 6.15758754E-02
5.44315130E+07	-5.50576780E-01	 6.50054511E-02
5.44437210E+07	-5.50128107E-01	 6.84343569E-02
5.44559290E+07	-5.49653001E-01	 7.18579620E-02
5.44681371E+07	-5.49161578E-01	 7.52720012E-02
5.44803451E+07	-5.48651941E-01	 7.87194077E-02
5.44925531E+07	-5.48118882E-01	 8.21091898E-02
5.45047611E+07	-5.47558601E-01	 8.55291450E-02
5.45169692E+07	-5.46983840E-01	 8.89435075E-02
5.45291772E+07	-5.46365588E-01	 9.23496244E-02
5.45413852E+07	-5.45757313E-01	 9.57312926E-02
5.45535932E+07	-5.45116557E-01	 9.91341731E-02
5.45658013E+07	-5.44457227E-01	 1.02521164E-01
5.45780093E+07	-5.43765951E-01	 1.05905027E-01
5.45902173E+07	-5.43068530E-01	 1.09284928E-01
5.46024253E+07	-5.42337913E-01	 1.12667766E-01
5.46146334E+07	-5.41585153E-01	 1.16037583E-01
5.46268414E+07	-5.40825515E-01	 1.19403836E-01
5.46390494E+07	-5.40040138E-01	 1.22758415E-01
5.46512574E+07	-5.39241049E-01	 1.26121322E-01
5.46634655E+07	-5.38396882E-01	 1.29477671E-01
5.46756735E+07	-5.37539905E-01	 1.32824119E-01
5.46878815E+07	-5.36673017E-01	 1.36157493E-01
5.47000895E+07	-5.35784606E-01	 1.39496521E-01
5.47122976E+07	-5.34868072E-01	 1.42827008E-01
5.47245056E+07	-5.33931685E-01	 1.46135781E-01
5.47367136E+07	-5.32984211E-01	 1.49457682E-01
5.47489216E+07	-5.31997724E-01	 1.52769345E-01
5.47611296E+07	-5.31004587E-01	 1.56080491E-01
5.47733377E+07	-5.29982023E-01	 1.59372236E-01
5.47855457E+07	-5.28943130E-01	 1.62668306E-01
5.47977537E+07	-5.27888017E-01	 1.65938149E-01
5.48099617E+07	-5.26814755E-01	 1.69214533E-01
5.48221698E+07	-5.25701167E-01	 1.72487473E-01
5.48343778E+07	-5.24598440E-01	 1.75741824E-01
5.48465858E+07	-5.23459454E-01	 1.79000991E-01
5.48587938E+07	-5.22293672E-01	 1.82254979E-01
5.48710019E+07	-5.21110485E-01	 1.85492975E-01
5.48832099E+07	-5.19914156E-01	 1.88728480E-01
5.48954179E+07	-5.18690153E-01	 1.91955180E-01
5.49076259E+07	-5.17452265E-01	 1.95162860E-01
5.49198340E+07	-5.16199300E-01	 1.98373024E-01
5.49320420E+07	-5.14914044E-01	 2.01573520E-01
5.49442500E+07	-5.13604572E-01	 2.04771919E-01
5.49564580E+07	-5.12293054E-01	 2.07950032E-01
5.49686661E+07	-5.10956641E-01	 2.11128184E-01
5.49808741E+07	-5.09603165E-01	 2.14299313E-01
5.49930821E+07	-5.08221322E-01	 2.17444699E-01
5.50052901E+07	-5.06822536E-01	 2.20597080E-01
5.50174982E+07	-5.05401073E-01	 2.23729960E-01
5.50297062E+07	-5.03968522E-01	 2.26859325E-01
5.50419142E+07	-5.02516777E-01	 2.29984795E-01
5.50541222E+07	-5.01035617E-01	 2.33089127E-01
5.50663303E+07	-4.99539255E-01	 2.36203614E-01
5.50785383E+07	-4.98030475E-01	 2.39294238E-01
5.50907463E+07	-4.96487520E-01	 2.42381542E-01
5.51029543E+07	-4.94917432E-01	 2.45428947E-01
5.51151624E+07	-4.93375179E-01	 2.48515951E-01
5.51273704E+07	-4.91785768E-01	 2.51567483E-01
