! COPPER MOUNTAIN TECHNOLOGIES, PLANAR TR1300/1, 00071119, 20.2.2/1.0
! Date: 1/9/2024 7:17:29 PM
! Data: Format [Calibration Info]
! Freq          	S11: Re/Im F1                  
# HZ S RI R 50
5.00000000E+07	-3.06728950E-01	 4.44580844E-01
5.00122080E+07	-3.03922421E-01	 4.46457293E-01
5.00244160E+07	-3.01095623E-01	 4.48329283E-01
5.00366241E+07	-2.98258407E-01	 4.50176687E-01
5.00488321E+07	-2.95409469E-01	 4.52006182E-01
5.00610401E+07	-2.92558339E-01	 4.53841683E-01
5.00732481E+07	-2.89687318E-01	 4.55643878E-01
5.00854562E+07	-2.86796103E-01	 4.57408917E-01
5.00976642E+07	-2.83912034E-01	 4.59168777E-01
5.01098722E+07	-2.80990151E-01	 4.60900337E-01
5.01220802E+07	-2.78078812E-01	 4.62602189E-01
5.01342883E+07	-2.75168910E-01	 4.64344448E-01
5.01464963E+07	-2.72230857E-01	 4.66031093E-01
5.01587043E+07	-2.69293161E-01	 4.67704360E-01
5.01709123E+07	-2.66326988E-01	 4.69360515E-01
5.01831204E+07	-2.63364310E-01	 4.70979708E-01
5.01953284E+07	-2.60377087E-01	 4.72610366E-01
5.02075364E+07	-2.57388781E-01	 4.74169845E-01
5.02197444E+07	-2.54409308E-01	 4.75777910E-01
5.02319525E+07	-2.51394746E-01	 4.77331922E-01
5.02441605E+07	-2.48379148E-01	 4.78856895E-01
5.02563685E+07	-2.45362319E-01	 4.80399694E-01
5.02685765E+07	-2.42313693E-01	 4.81866101E-01
5.02807846E+07	-2.39276169E-01	 4.83377085E-01
5.02929926E+07	-2.36215617E-01	 4.84845466E-01
5.03052006E+07	-2.33157724E-01	 4.86290414E-01
5.03174086E+07	-2.30088758E-01	 4.87711743E-01
5.03296167E+07	-2.27009442E-01	 4.89122159E-01
5.03418247E+07	-2.23915062E-01	 4.90508078E-01
5.03540327E+07	-2.20828172E-01	 4.91881491E-01
5.03662407E+07	-2.17715107E-01	 4.93231386E-01
5.03784488E+07	-2.14601576E-01	 4.94543602E-01
5.03906568E+07	-2.11460809E-01	 4.95825475E-01
5.04028648E+07	-2.08340212E-01	 4.97143258E-01
5.04150728E+07	-2.05212411E-01	 4.98425336E-01
5.04272809E+07	-2.02059411E-01	 4.99672850E-01
5.04394889E+07	-1.98888486E-01	 5.00859266E-01
5.04516969E+07	-1.95733071E-01	 5.02112038E-01
5.04639049E+07	-1.92570994E-01	 5.03299299E-01
5.04761130E+07	-1.89390969E-01	 5.04464436E-01
5.04883210E+07	-1.86194712E-01	 5.05629336E-01
5.05005290E+07	-1.83011828E-01	 5.06754720E-01
5.05127370E+07	-1.79821110E-01	 5.07878954E-01
5.05249451E+07	-1.76606936E-01	 5.08951145E-01
5.05371531E+07	-1.73393344E-01	 5.10037613E-01
5.05493611E+07	-1.70180199E-01	 5.11077810E-01
5.05615691E+07	-1.66955291E-01	 5.12113060E-01
5.05737772E+07	-1.63717342E-01	 5.13115557E-01
5.05859852E+07	-1.60474908E-01	 5.14116764E-01
5.05981932E+07	-1.57233339E-01	 5.15081224E-01
5.06104012E+07	-1.53984105E-01	 5.16038866E-01
5.06226093E+07	-1.50722220E-01	 5.16963779E-01
5.06348173E+07	-1.47457157E-01	 5.17871536E-01
5.06470253E+07	-1.44180117E-01	 5.18754964E-01
5.06592333E+07	-1.40902246E-01	 5.19630595E-01
5.06714414E+07	-1.37632736E-01	 5.20481169E-01
5.06836494E+07	-1.34344167E-01	 5.21313690E-01
5.06958574E+07	-1.31050749E-01	 5.22098813E-01
5.07080654E+07	-1.27759812E-01	 5.22890595E-01
5.07202735E+07	-1.24451225E-01	 5.23662651E-01
5.07324815E+07	-1.21138583E-01	 5.24414308E-01
5.07446895E+07	-1.17844545E-01	 5.25127449E-01
5.07568975E+07	-1.14531986E-01	 5.25828532E-01
5.07691056E+07	-1.11202928E-01	 5.26528451E-01
5.07813136E+07	-1.07876359E-01	 5.27168803E-01
5.07935216E+07	-1.04549867E-01	 5.27808342E-01
5.08057296E+07	-1.01208431E-01	 5.28426361E-01
5.08179377E+07	-9.78796208E-02	 5.29020146E-01
5.08301457E+07	-9.45400042E-02	 5.29601858E-01
5.08423537E+07	-9.12092430E-02	 5.30160057E-01
5.08545617E+07	-8.78527670E-02	 5.30696742E-01
5.08667698E+07	-8.45073755E-02	 5.31212266E-01
5.08789778E+07	-8.11448109E-02	 5.31708363E-01
5.08911858E+07	-7.77923994E-02	 5.32180021E-01
5.09033938E+07	-7.44374419E-02	 5.32626579E-01
5.09156019E+07	-7.10718434E-02	 5.33064192E-01
5.09278099E+07	-6.77064657E-02	 5.33482355E-01
5.09400179E+07	-6.43478138E-02	 5.33874386E-01
5.09522259E+07	-6.09714271E-02	 5.34235620E-01
5.09644340E+07	-5.75974680E-02	 5.34588668E-01
5.09766420E+07	-5.42158338E-02	 5.34895201E-01
5.09888500E+07	-5.08439471E-02	 5.35207401E-01
5.10010580E+07	-4.74658557E-02	 5.35493784E-01
5.10132661E+07	-4.40846334E-02	 5.35751196E-01
5.10254741E+07	-4.06958185E-02	 5.35998852E-01
5.10376821E+07	-3.73196970E-02	 5.36208956E-01
5.10498901E+07	-3.39204934E-02	 5.36402132E-01
5.10620982E+07	-3.05392659E-02	 5.36581723E-01
5.10743062E+07	-2.71608748E-02	 5.36746814E-01
5.10865142E+07	-2.37560383E-02	 5.36865171E-01
5.10987222E+07	-2.03622420E-02	 5.36996420E-01
5.11109303E+07	-1.69818647E-02	 5.37071171E-01
5.11231383E+07	-1.35928514E-02	 5.37154146E-01
5.11353463E+07	-1.01928771E-02	 5.37191082E-01
5.11475543E+07	-6.79917644E-03	 5.37221393E-01
5.11597624E+07	-3.41131609E-03	 5.37238437E-01
5.11719704E+07	-4.63320260E-06	 5.37213621E-01
5.11841784E+07	 3.38848104E-03	 5.37185650E-01
5.11963864E+07	 6.77508891E-03	 5.37119225E-01
5.12085944E+07	 1.01669687E-02	 5.37041723E-01
5.12208025E+07	 1.35663984E-02	 5.36940844E-01
5.12330105E+07	 1.69610017E-02	 5.36826915E-01
5.12452185E+07	 2.03517592E-02	 5.36675103E-01
5.12574265E+07	 2.37390421E-02	 5.36532063E-01
5.12696346E+07	 2.71188140E-02	 5.36329469E-01
5.12818426E+07	 3.05147043E-02	 5.36117079E-01
5.12940506E+07	 3.39131115E-02	 5.35898733E-01
5.13062586E+07	 3.72870734E-02	 5.35638433E-01
5.13184667E+07	 4.06857485E-02	 5.35370382E-01
5.13306747E+07	 4.40618924E-02	 5.35084665E-01
5.13428827E+07	 4.74395463E-02	 5.34760611E-01
5.13550907E+07	 5.08198969E-02	 5.34421934E-01
5.13672988E+07	 5.42021468E-02	 5.34070709E-01
5.13795068E+07	 5.75763287E-02	 5.33687289E-01
5.13917148E+07	 6.09467373E-02	 5.33302030E-01
5.14039228E+07	 6.43216896E-02	 5.32865341E-01
5.14161309E+07	 6.76854876E-02	 5.32435318E-01
5.14283389E+07	 7.10429903E-02	 5.31968411E-01
5.14405469E+07	 7.44197941E-02	 5.31497740E-01
5.14527549E+07	 7.77796601E-02	 5.30982203E-01
5.14649630E+07	 8.11314185E-02	 5.30451067E-01
5.14771710E+07	 8.44857988E-02	 5.29924691E-01
5.14893790E+07	 8.78427607E-02	 5.29347652E-01
5.15015870E+07	 9.11958674E-02	 5.28760487E-01
5.15137951E+07	 9.45350643E-02	 5.28143043E-01
5.15260031E+07	 9.78697370E-02	 5.27522685E-01
5.15382111E+07	 1.01207027E-01	 5.26868011E-01
5.15504191E+07	 1.04536259E-01	 5.26186988E-01
5.15626272E+07	 1.07860428E-01	 5.25503069E-01
5.15748352E+07	 1.11191941E-01	 5.24776232E-01
5.15870432E+07	 1.14495691E-01	 5.24052600E-01
5.15992512E+07	 1.17811155E-01	 5.23287344E-01
5.16114593E+07	 1.21129973E-01	 5.22507286E-01
5.16236673E+07	 1.24442449E-01	 5.21696795E-01
5.16358753E+07	 1.27734964E-01	 5.20888414E-01
5.16480833E+07	 1.31035492E-01	 5.20048060E-01
5.16602914E+07	 1.34322728E-01	 5.19179530E-01
5.16724994E+07	 1.37612407E-01	 5.18285232E-01
5.16847074E+07	 1.40888410E-01	 5.17403650E-01
5.16969154E+07	 1.44158126E-01	 5.16463629E-01
5.17091235E+07	 1.47428724E-01	 5.15524054E-01
5.17213315E+07	 1.50699533E-01	 5.14548595E-01
5.17335395E+07	 1.53955302E-01	 5.13576839E-01
5.17457475E+07	 1.57206993E-01	 5.12565379E-01
5.17579556E+07	 1.60446945E-01	 5.11535215E-01
5.17701636E+07	 1.63689162E-01	 5.10496841E-01
5.17823716E+07	 1.66926173E-01	 5.09422517E-01
5.17945796E+07	 1.70138792E-01	 5.08340449E-01
5.18067877E+07	 1.73352466E-01	 5.07225214E-01
5.18189957E+07	 1.76566301E-01	 5.06096972E-01
5.18312037E+07	 1.79771865E-01	 5.04948374E-01
5.18434117E+07	 1.82972420E-01	 5.03774861E-01
5.18556198E+07	 1.86165546E-01	 5.02586056E-01
5.18678278E+07	 1.89342889E-01	 5.01377419E-01
5.18800358E+07	 1.92533333E-01	 5.00149693E-01
5.18922438E+07	 1.95699216E-01	 4.98890932E-01
5.19044519E+07	 1.98842907E-01	 4.97624674E-01
5.19166599E+07	 2.02011990E-01	 4.96334763E-01
5.19288679E+07	 2.05149396E-01	 4.95020484E-01
5.19410759E+07	 2.08283825E-01	 4.93693609E-01
5.19532840E+07	 2.11416490E-01	 4.92342721E-01
5.19654920E+07	 2.14536346E-01	 4.90966896E-01
5.19777000E+07	 2.17642275E-01	 4.89574322E-01
5.19899080E+07	 2.20746417E-01	 4.88166873E-01
5.20021161E+07	 2.23836980E-01	 4.86747013E-01
5.20143241E+07	 2.26918642E-01	 4.85281396E-01
5.20265321E+07	 2.30005974E-01	 4.83819198E-01
5.20387401E+07	 2.33068930E-01	 4.82337025E-01
5.20509482E+07	 2.36113118E-01	 4.80820836E-01
5.20631562E+07	 2.39169000E-01	 4.79297976E-01
5.20753642E+07	 2.42205916E-01	 4.77754447E-01
5.20875722E+07	 2.45236445E-01	 4.76192366E-01
5.20997803E+07	 2.48258830E-01	 4.74602358E-01
5.21119883E+07	 2.51265085E-01	 4.73001655E-01
5.21241963E+07	 2.54262894E-01	 4.71388288E-01
5.21364043E+07	 2.57254928E-01	 4.69738076E-01
5.21486124E+07	 2.60223592E-01	 4.68088603E-01
5.21608204E+07	 2.63196982E-01	 4.66398193E-01
5.21730284E+07	 2.66155427E-01	 4.64702265E-01
5.21852364E+07	 2.69103772E-01	 4.62979044E-01
5.21974445E+07	 2.72045111E-01	 4.61252681E-01
5.22096525E+07	 2.74968501E-01	 4.59481999E-01
5.22218605E+07	 2.77878295E-01	 4.57715281E-01
5.22340685E+07	 2.80794407E-01	 4.55921387E-01
5.22462766E+07	 2.83676880E-01	 4.54107099E-01
5.22584846E+07	 2.86560226E-01	 4.52271168E-01
5.22706926E+07	 2.89428549E-01	 4.50423403E-01
5.22829006E+07	 2.92297403E-01	 4.48565195E-01
5.22951087E+07	 2.95127769E-01	 4.46685338E-01
5.23073167E+07	 2.97969870E-01	 4.44786986E-01
5.23195247E+07	 3.00796011E-01	 4.42862926E-01
5.23317327E+07	 3.03603628E-01	 4.40917880E-01
5.23439408E+07	 3.06401616E-01	 4.38955211E-01
5.23561488E+07	 3.09185738E-01	 4.36988045E-01
5.23683568E+07	 3.11952969E-01	 4.34993794E-01
5.23805648E+07	 3.14722929E-01	 4.32993213E-01
5.23927728E+07	 3.17470061E-01	 4.30956987E-01
5.24049809E+07	 3.20202786E-01	 4.28909116E-01
5.24171889E+07	 3.22932407E-01	 4.26844926E-01
5.24293969E+07	 3.25646292E-01	 4.24766340E-01
5.24416049E+07	 3.28337420E-01	 4.22669127E-01
5.24538130E+07	 3.31027431E-01	 4.20560999E-01
5.24660210E+07	 3.33698561E-01	 4.18429355E-01
5.24782290E+07	 3.36360245E-01	 4.16286552E-01
5.24904370E+07	 3.39004662E-01	 4.14127474E-01
5.25026451E+07	 3.41636318E-01	 4.11941176E-01
5.25148531E+07	 3.44249097E-01	 4.09742840E-01
5.25270611E+07	 3.46852830E-01	 4.07526316E-01
5.25392691E+07	 3.49435696E-01	 4.05283994E-01
5.25514772E+07	 3.52014294E-01	 4.03032445E-01
5.25636852E+07	 3.54573247E-01	 4.00774027E-01
5.25758932E+07	 3.57133433E-01	 3.98489666E-01
5.25881012E+07	 3.59660014E-01	 3.96190668E-01
5.26003093E+07	 3.62186826E-01	 3.93875882E-01
5.26125173E+07	 3.64682723E-01	 3.91557053E-01
5.26247253E+07	 3.67179383E-01	 3.89198497E-01
5.26369333E+07	 3.69644486E-01	 3.86835978E-01
5.26491414E+07	 3.72111353E-01	 3.84464694E-01
5.26613494E+07	 3.74560400E-01	 3.82067975E-01
5.26735574E+07	 3.76985652E-01	 3.79648718E-01
5.26857654E+07	 3.79391809E-01	 3.77233648E-01
5.26979735E+07	 3.81797977E-01	 3.74787496E-01
5.27101815E+07	 3.84182214E-01	 3.72330970E-01
5.27223895E+07	 3.86546849E-01	 3.69856226E-01
5.27345975E+07	 3.88900015E-01	 3.67375478E-01
5.27468056E+07	 3.91236391E-01	 3.64874227E-01
5.27590136E+07	 3.93559026E-01	 3.62357295E-01
5.27712216E+07	 3.95861255E-01	 3.59817480E-01
5.27834296E+07	 3.98161873E-01	 3.57275837E-01
5.27956377E+07	 4.00434541E-01	 3.54713397E-01
5.28078457E+07	 4.02685325E-01	 3.52129648E-01
5.28200537E+07	 4.04927321E-01	 3.49545437E-01
5.28322617E+07	 4.07155069E-01	 3.46947065E-01
5.28444698E+07	 4.09360552E-01	 3.44323729E-01
5.28566778E+07	 4.11553910E-01	 3.41687681E-01
5.28688858E+07	 4.13720734E-01	 3.39046142E-01
5.28810938E+07	 4.15889940E-01	 3.36375828E-01
5.28933019E+07	 4.18034525E-01	 3.33703680E-01
5.29055099E+07	 4.20150696E-01	 3.31011423E-01
5.29177179E+07	 4.22256841E-01	 3.28303309E-01
5.29299259E+07	 4.24348409E-01	 3.25589811E-01
5.29421340E+07	 4.26427668E-01	 3.22869517E-01
5.29543420E+07	 4.28485942E-01	 3.20115509E-01
5.29665500E+07	 4.30521211E-01	 3.17359585E-01
5.29787580E+07	 4.32541354E-01	 3.14581006E-01
5.29909661E+07	 4.34544292E-01	 3.11799701E-01
5.30031741E+07	 4.36536599E-01	 3.09008846E-01
5.30153821E+07	 4.38505208E-01	 3.06197344E-01
5.30275901E+07	 4.40445048E-01	 3.03379316E-01
5.30397982E+07	 4.42391890E-01	 3.00544913E-01
5.30520062E+07	 4.44296344E-01	 2.97694849E-01
5.30642142E+07	 4.46194035E-01	 2.94835114E-01
5.30764222E+07	 4.48074787E-01	 2.91969553E-01
5.30886303E+07	 4.49939147E-01	 2.89082308E-01
5.31008383E+07	 4.51779338E-01	 2.86187310E-01
5.31130463E+07	 4.53598795E-01	 2.83278689E-01
5.31252543E+07	 4.55407229E-01	 2.80364749E-01
5.31374624E+07	 4.57198893E-01	 2.77434629E-01
5.31496704E+07	 4.58961349E-01	 2.74479216E-01
5.31618784E+07	 4.60708155E-01	 2.71531669E-01
5.31740864E+07	 4.62441616E-01	 2.68574343E-01
5.31862945E+07	 4.64153139E-01	 2.65594971E-01
5.31985025E+07	 4.65854861E-01	 2.62602080E-01
5.32107105E+07	 4.67526619E-01	 2.59611383E-01
5.32229185E+07	 4.69186503E-01	 2.56590783E-01
5.32351266E+07	 4.70815990E-01	 2.53579073E-01
5.32473346E+07	 4.72437767E-01	 2.50549095E-01
5.32595426E+07	 4.74027693E-01	 2.47500606E-01
5.32717506E+07	 4.75619299E-01	 2.44453678E-01
5.32839587E+07	 4.77173706E-01	 2.41392081E-01
5.32961667E+07	 4.78705083E-01	 2.38315639E-01
5.33083747E+07	 4.80224239E-01	 2.35231100E-01
5.33205827E+07	 4.81727406E-01	 2.32138395E-01
5.33327908E+07	 4.83214006E-01	 2.29038280E-01
5.33449988E+07	 4.84680022E-01	 2.25927751E-01
5.33572068E+07	 4.86114658E-01	 2.22803650E-01
5.33694148E+07	 4.87532299E-01	 2.19681043E-01
5.33816229E+07	 4.88930351E-01	 2.16541327E-01
5.33938309E+07	 4.90310787E-01	 2.13387426E-01
5.34060389E+07	 4.91669446E-01	 2.10234335E-01
5.34182469E+07	 4.93018286E-01	 2.07067747E-01
5.34304550E+07	 4.94341097E-01	 2.03891995E-01
5.34426630E+07	 4.95646916E-01	 2.00709460E-01
5.34548710E+07	 4.96911396E-01	 1.97507170E-01
5.34670790E+07	 4.98177228E-01	 1.94317166E-01
5.34792871E+07	 4.99428592E-01	 1.91108910E-01
5.34914951E+07	 5.00630802E-01	 1.87890953E-01
5.35037031E+07	 5.01842523E-01	 1.84656293E-01
5.35159111E+07	 5.03014410E-01	 1.81426479E-01
5.35281192E+07	 5.04167680E-01	 1.78182363E-01
5.35403272E+07	 5.05302023E-01	 1.74946244E-01
5.35525352E+07	 5.06421414E-01	 1.71688179E-01
5.35647432E+07	 5.07517731E-01	 1.68416685E-01
5.35769512E+07	 5.08603256E-01	 1.65148989E-01
5.35891593E+07	 5.09641571E-01	 1.61865194E-01
5.36013673E+07	 5.10688888E-01	 1.58595553E-01
5.36135753E+07	 5.11692555E-01	 1.55304252E-01
5.36257833E+07	 5.12681381E-01	 1.51997534E-01
5.36379914E+07	 5.13664966E-01	 1.48699256E-01
5.36501994E+07	 5.14608821E-01	 1.45384856E-01
5.36624074E+07	 5.15523391E-01	 1.42074118E-01
5.36746154E+07	 5.16438359E-01	 1.38756111E-01
5.36868235E+07	 5.17327292E-01	 1.35420624E-01
5.36990315E+07	 5.18176594E-01	 1.32092065E-01
5.37112395E+07	 5.19026845E-01	 1.28749073E-01
5.37234475E+07	 5.19847573E-01	 1.25400841E-01
5.37356556E+07	 5.20647641E-01	 1.22052889E-01
5.37478636E+07	 5.21423267E-01	 1.18686091E-01
5.37600716E+07	 5.22183464E-01	 1.15335941E-01
5.37722796E+07	 5.22914834E-01	 1.11957786E-01
5.37844877E+07	 5.23622491E-01	 1.08596557E-01
5.37966957E+07	 5.24322451E-01	 1.05211317E-01
5.38089037E+07	 5.24983009E-01	 1.01831669E-01
5.38211117E+07	 5.25643185E-01	 9.84595188E-02
5.38333198E+07	 5.26270090E-01	 9.50741598E-02
5.38455278E+07	 5.26862122E-01	 9.16741468E-02
5.38577358E+07	 5.27463034E-01	 8.82750507E-02
5.38699438E+07	 5.28020923E-01	 8.48719861E-02
5.38821519E+07	 5.28549689E-01	 8.14656386E-02
5.38943599E+07	 5.29062382E-01	 7.80591753E-02
5.39065679E+07	 5.29575020E-01	 7.46408790E-02
5.39187759E+07	 5.30042657E-01	 7.12278754E-02
5.39309840E+07	 5.30502115E-01	 6.78077585E-02
5.39431920E+07	 5.30938329E-01	 6.43831626E-02
5.39554000E+07	 5.31333337E-01	 6.09594792E-02
5.39676080E+07	 5.31731430E-01	 5.75312907E-02
5.39798161E+07	 5.32086028E-01	 5.41116173E-02
5.39920241E+07	 5.32433567E-01	 5.06701026E-02
5.40042321E+07	 5.32749278E-01	 4.72337606E-02
5.40164401E+07	 5.33054840E-01	 4.37930275E-02
5.40286482E+07	 5.33330901E-01	 4.03613602E-02
5.40408562E+07	 5.33578447E-01	 3.69212530E-02
5.40530642E+07	 5.33822852E-01	 3.34743902E-02
5.40652722E+07	 5.34029214E-01	 3.00263236E-02
5.40774803E+07	 5.34223873E-01	 2.65876159E-02
5.40896883E+07	 5.34381881E-01	 2.31346459E-02
5.41018963E+07	 5.34524099E-01	 1.96836910E-02
5.41141043E+07	 5.34654814E-01	 1.62367834E-02
5.41263124E+07	 5.34752552E-01	 1.27896100E-02
5.41385204E+07	 5.34829470E-01	 9.33454157E-03
5.41507284E+07	 5.34886143E-01	 5.88770062E-03
5.41629364E+07	 5.34915376E-01	 2.42736582E-03
5.41751445E+07	 5.34926123E-01	-1.02404513E-03
5.41873525E+07	 5.34923614E-01	-4.48047689E-03
5.41995605E+07	 5.34887316E-01	-7.93176496E-03
5.42117685E+07	 5.34833009E-01	-1.13864693E-02
5.42239766E+07	 5.34749830E-01	-1.48326233E-02
5.42361846E+07	 5.34657366E-01	-1.82876846E-02
5.42483926E+07	 5.34538043E-01	-2.17358950E-02
5.42606006E+07	 5.34386707E-01	-2.51912287E-02
5.42728087E+07	 5.34215098E-01	-2.86425361E-02
5.42850167E+07	 5.34024266E-01	-3.20958168E-02
5.42972247E+07	 5.33820341E-01	-3.55380459E-02
5.43094327E+07	 5.33584326E-01	-3.89913187E-02
5.43216408E+07	 5.33325249E-01	-4.24388927E-02
5.43338488E+07	 5.33042877E-01	-4.58825508E-02
5.43460568E+07	 5.32758327E-01	-4.93270917E-02
5.43582648E+07	 5.32432051E-01	-5.27692863E-02
5.43704729E+07	 5.32093479E-01	-5.62087220E-02
5.43826809E+07	 5.31724673E-01	-5.96362037E-02
5.43948889E+07	 5.31328310E-01	-6.30859060E-02
5.44070969E+07	 5.30924987E-01	-6.65052066E-02
5.44193050E+07	 5.30495562E-01	-6.99287103E-02
5.44315130E+07	 5.30035919E-01	-7.33705490E-02
5.44437210E+07	 5.29574371E-01	-7.67928772E-02
5.44559290E+07	 5.29072422E-01	-8.02110721E-02
5.44681371E+07	 5.28552377E-01	-8.36344347E-02
5.44803451E+07	 5.28007180E-01	-8.70516826E-02
5.44925531E+07	 5.27441790E-01	-9.04596405E-02
5.45047611E+07	 5.26850020E-01	-9.38719005E-02
5.45169692E+07	 5.26254795E-01	-9.72795982E-02
5.45291772E+07	 5.25613385E-01	-1.00667050E-01
5.45413852E+07	 5.24959637E-01	-1.04070376E-01
5.45535932E+07	 5.24283085E-01	-1.07452739E-01
5.45658013E+07	 5.23600442E-01	-1.10839936E-01
5.45780093E+07	 5.22875402E-01	-1.14235386E-01
5.45902173E+07	 5.22131461E-01	-1.17601563E-01
5.46024253E+07	 5.21366417E-01	-1.20974718E-01
5.46146334E+07	 5.20583836E-01	-1.24342633E-01
5.46268414E+07	 5.19787436E-01	-1.27706639E-01
5.46390494E+07	 5.18961523E-01	-1.31069289E-01
5.46512574E+07	 5.18112470E-01	-1.34425510E-01
5.46634655E+07	 5.17239868E-01	-1.37774975E-01
5.46756735E+07	 5.16346981E-01	-1.41111062E-01
5.46878815E+07	 5.15440075E-01	-1.44457507E-01
5.47000895E+07	 5.14497979E-01	-1.47790654E-01
5.47122976E+07	 5.13543802E-01	-1.51116344E-01
5.47245056E+07	 5.12560470E-01	-1.54424393E-01
5.47367136E+07	 5.11571867E-01	-1.57742255E-01
5.47489216E+07	 5.10551502E-01	-1.61058475E-01
5.47611296E+07	 5.09507424E-01	-1.64347563E-01
5.47733377E+07	 5.08439425E-01	-1.67640494E-01
5.47855457E+07	 5.07359555E-01	-1.70932253E-01
5.47977537E+07	 5.06251426E-01	-1.74210934E-01
5.48099617E+07	 5.05129687E-01	-1.77475449E-01
5.48221698E+07	 5.03970562E-01	-1.80753364E-01
5.48343778E+07	 5.02821095E-01	-1.84010616E-01
5.48465858E+07	 5.01625860E-01	-1.87254359E-01
5.48587938E+07	 5.00412743E-01	-1.90496916E-01
5.48710019E+07	 4.99178478E-01	-1.93732343E-01
5.48832099E+07	 4.97917769E-01	-1.96959367E-01
5.48954179E+07	 4.96645729E-01	-2.00182353E-01
5.49076259E+07	 4.95363597E-01	-2.03394398E-01
5.49198340E+07	 4.94051315E-01	-2.06594067E-01
5.49320420E+07	 4.92707684E-01	-2.09792058E-01
5.49442500E+07	 4.91337364E-01	-2.12978451E-01
5.49564580E+07	 4.89977996E-01	-2.16148514E-01
5.49686661E+07	 4.88582211E-01	-2.19324392E-01
5.49808741E+07	 4.87166021E-01	-2.22482552E-01
5.49930821E+07	 4.85718838E-01	-2.25622463E-01
5.50052901E+07	 4.84268184E-01	-2.28767727E-01
5.50174982E+07	 4.82787956E-01	-2.31902152E-01
5.50297062E+07	 4.81293252E-01	-2.35018680E-01
5.50419142E+07	 4.79775368E-01	-2.38122945E-01
5.50541222E+07	 4.78232138E-01	-2.41224306E-01
5.50663303E+07	 4.76667028E-01	-2.44314252E-01
5.50785383E+07	 4.75095329E-01	-2.47403234E-01
5.50907463E+07	 4.73492103E-01	-2.50468697E-01
5.51029543E+07	 4.71851908E-01	-2.53518927E-01
5.51151624E+07	 4.70237030E-01	-2.56578018E-01
5.51273704E+07	 4.68584590E-01	-2.59621564E-01
