! COPPER MOUNTAIN TECHNOLOGIES, PLANAR TR1300/1, 00071119, 20.2.2/1.0
! Date: 1/9/2024 7:33:01 PM
! Data: Format [Calibration Info]
! Freq          	S11: Re/Im F1                  
# HZ S RI R 50
5.00000000E+07	-4.67678237E-01	 6.66236282E-01
5.00122080E+07	-4.63489343E-01	 6.69115967E-01
5.00244160E+07	-4.59273968E-01	 6.71980598E-01
5.00366241E+07	-4.55055875E-01	 6.74812718E-01
5.00488321E+07	-4.50782111E-01	 6.77608486E-01
5.00610401E+07	-4.46552419E-01	 6.80413422E-01
5.00732481E+07	-4.42262770E-01	 6.83166598E-01
5.00854562E+07	-4.37944942E-01	 6.85874191E-01
5.00976642E+07	-4.33640227E-01	 6.88574819E-01
5.01098722E+07	-4.29295406E-01	 6.91231418E-01
5.01220802E+07	-4.24942169E-01	 6.93841743E-01
5.01342883E+07	-4.20586009E-01	 6.96500757E-01
5.01464963E+07	-4.16204212E-01	 6.99092947E-01
5.01587043E+07	-4.11817662E-01	 7.01647504E-01
5.01709123E+07	-4.07394984E-01	 7.04202316E-01
5.01831204E+07	-4.02970872E-01	 7.06700644E-01
5.01953284E+07	-3.98517986E-01	 7.09190569E-01
5.02075364E+07	-3.94055471E-01	 7.11598870E-01
5.02197444E+07	-3.89603262E-01	 7.14066751E-01
5.02319525E+07	-3.85102224E-01	 7.16456213E-01
5.02441605E+07	-3.80594235E-01	 7.18820622E-01
5.02563685E+07	-3.76077241E-01	 7.21177462E-01
5.02685765E+07	-3.71522288E-01	 7.23441406E-01
5.02807846E+07	-3.66992944E-01	 7.25776958E-01
5.02929926E+07	-3.62421882E-01	 7.28040354E-01
5.03052006E+07	-3.57861648E-01	 7.30268955E-01
5.03174086E+07	-3.53270340E-01	 7.32468466E-01
5.03296167E+07	-3.48653279E-01	 7.34645343E-01
5.03418247E+07	-3.44047880E-01	 7.36786650E-01
5.03540327E+07	-3.39427752E-01	 7.38902789E-01
5.03662407E+07	-3.34778843E-01	 7.40993699E-01
5.03784488E+07	-3.30116596E-01	 7.43036562E-01
5.03906568E+07	-3.25418939E-01	 7.45025230E-01
5.04028648E+07	-3.20763721E-01	 7.47063931E-01
5.04150728E+07	-3.16084905E-01	 7.49064811E-01
5.04272809E+07	-3.11364076E-01	 7.50991558E-01
5.04394889E+07	-3.06618947E-01	 7.52858168E-01
5.04516969E+07	-3.01907144E-01	 7.54783992E-01
5.04639049E+07	-2.97179688E-01	 7.56638636E-01
5.04761130E+07	-2.92418913E-01	 7.58460702E-01
5.04883210E+07	-2.87624031E-01	 7.60259865E-01
5.05005290E+07	-2.82867886E-01	 7.62031838E-01
5.05127370E+07	-2.78083714E-01	 7.63770980E-01
5.05249451E+07	-2.73283134E-01	 7.65464259E-01
5.05371531E+07	-2.68470802E-01	 7.67155664E-01
5.05493611E+07	-2.63654676E-01	 7.68792608E-01
5.05615691E+07	-2.58829176E-01	 7.70424530E-01
5.05737772E+07	-2.53971782E-01	 7.71998492E-01
5.05859852E+07	-2.49129780E-01	 7.73564286E-01
5.05981932E+07	-2.44274427E-01	 7.75082233E-01
5.06104012E+07	-2.39409700E-01	 7.76586396E-01
5.06226093E+07	-2.34522232E-01	 7.78057512E-01
5.06348173E+07	-2.29630881E-01	 7.79484212E-01
5.06470253E+07	-2.24726661E-01	 7.80893298E-01
5.06592333E+07	-2.19813975E-01	 7.82274574E-01
5.06714414E+07	-2.14908129E-01	 7.83619227E-01
5.06836494E+07	-2.09992579E-01	 7.84947183E-01
5.06958574E+07	-2.05048950E-01	 7.86211036E-01
5.07080654E+07	-2.00119728E-01	 7.87468133E-01
5.07202735E+07	-1.95151686E-01	 7.88700091E-01
5.07324815E+07	-1.90187562E-01	 7.89907938E-01
5.07446895E+07	-1.85245111E-01	 7.91047746E-01
5.07568975E+07	-1.80277942E-01	 7.92170928E-01
5.07691056E+07	-1.75284427E-01	 7.93291365E-01
5.07813136E+07	-1.70302497E-01	 7.94328542E-01
5.07935216E+07	-1.65304005E-01	 7.95379055E-01
5.08057296E+07	-1.60297965E-01	 7.96381650E-01
5.08179377E+07	-1.55291768E-01	 7.97345150E-01
5.08301457E+07	-1.50290051E-01	 7.98295615E-01
5.08423537E+07	-1.45276266E-01	 7.99216388E-01
5.08545617E+07	-1.40237721E-01	 8.00096320E-01
5.08667698E+07	-1.35220522E-01	 8.00940250E-01
5.08789778E+07	-1.30183675E-01	 8.01769914E-01
5.08911858E+07	-1.25145511E-01	 8.02565540E-01
5.09033938E+07	-1.20106123E-01	 8.03303298E-01
5.09156019E+07	-1.15040725E-01	 8.04040273E-01
5.09278099E+07	-1.09982615E-01	 8.04738198E-01
5.09400179E+07	-1.04939590E-01	 8.05409583E-01
5.09522259E+07	-9.98775181E-02	 8.06036203E-01
5.09644340E+07	-9.48090776E-02	 8.06637171E-01
5.09766420E+07	-8.97150230E-02	 8.07188194E-01
5.09888500E+07	-8.46573790E-02	 8.07733236E-01
5.10010580E+07	-7.95714226E-02	 8.08238557E-01
5.10132661E+07	-7.44929397E-02	 8.08710895E-01
5.10254741E+07	-6.93927830E-02	 8.09152500E-01
5.10376821E+07	-6.43176949E-02	 8.09557950E-01
5.10498901E+07	-5.92119275E-02	 8.09935883E-01
5.10620982E+07	-5.41200819E-02	 8.10282540E-01
5.10743062E+07	-4.90308704E-02	 8.10602304E-01
5.10865142E+07	-4.39215470E-02	 8.10862860E-01
5.10987222E+07	-3.88098321E-02	 8.11136719E-01
5.11109303E+07	-3.37279377E-02	 8.11344440E-01
5.11231383E+07	-2.86155576E-02	 8.11541326E-01
5.11353463E+07	-2.35125814E-02	 8.11685266E-01
5.11475543E+07	-1.83952624E-02	 8.11808881E-01
5.11597624E+07	-1.32941061E-02	 8.11913728E-01
5.11719704E+07	-8.16121844E-03	 8.11967075E-01
5.11841784E+07	-3.05341795E-03	 8.12008501E-01
5.11963864E+07	 2.05044623E-03	 8.11994437E-01
5.12085944E+07	 7.16448871E-03	 8.11947419E-01
5.12208025E+07	 1.22875286E-02	 8.11881565E-01
5.12330105E+07	 1.73935877E-02	 8.11802335E-01
5.12452185E+07	 2.25101805E-02	 8.11658656E-01
5.12574265E+07	 2.76196540E-02	 8.11513847E-01
5.12696346E+07	 3.27119334E-02	 8.11296730E-01
5.12818426E+07	 3.78281675E-02	 8.11067486E-01
5.12940506E+07	 4.29465214E-02	 8.10816664E-01
5.13062586E+07	 4.80517086E-02	 8.10513836E-01
5.13184667E+07	 5.31581253E-02	 8.10200159E-01
5.13306747E+07	 5.82636838E-02	 8.09852402E-01
5.13428827E+07	 6.33677968E-02	 8.09445604E-01
5.13550907E+07	 6.84749590E-02	 8.09027594E-01
5.13672988E+07	 7.35668093E-02	 8.08580520E-01
5.13795068E+07	 7.86661460E-02	 8.08090251E-01
5.13917148E+07	 8.37649440E-02	 8.07582328E-01
5.14039228E+07	 8.88495083E-02	 8.07022323E-01
5.14161309E+07	 9.39275306E-02	 8.06449021E-01
5.14283389E+07	 9.90118622E-02	 8.05834263E-01
5.14405469E+07	 1.04106171E-01	 8.05212419E-01
5.14527549E+07	 1.09186134E-01	 8.04524702E-01
5.14649630E+07	 1.14258494E-01	 8.03814518E-01
5.14771710E+07	 1.19319135E-01	 8.03102593E-01
5.14893790E+07	 1.24400792E-01	 8.02300251E-01
5.15015870E+07	 1.29468892E-01	 8.01509833E-01
5.15137951E+07	 1.34522471E-01	 8.00667035E-01
5.15260031E+07	 1.39568292E-01	 7.99807921E-01
5.15382111E+07	 1.44619069E-01	 7.98917775E-01
5.15504191E+07	 1.49638534E-01	 7.97982489E-01
5.15626272E+07	 1.54670124E-01	 7.97025850E-01
5.15748352E+07	 1.59712681E-01	 7.96030365E-01
5.15870432E+07	 1.64723443E-01	 7.95026351E-01
5.15992512E+07	 1.69744021E-01	 7.93960843E-01
5.16114593E+07	 1.74761494E-01	 7.92865910E-01
5.16236673E+07	 1.79773997E-01	 7.91738129E-01
5.16358753E+07	 1.84775055E-01	 7.90605377E-01
5.16480833E+07	 1.89768469E-01	 7.89427736E-01
5.16602914E+07	 1.94741219E-01	 7.88208958E-01
5.16724994E+07	 1.99736032E-01	 7.86943423E-01
5.16847074E+07	 2.04698568E-01	 7.85693624E-01
5.16969154E+07	 2.09664454E-01	 7.84375986E-01
5.17091235E+07	 2.14625624E-01	 7.83036574E-01
5.17213315E+07	 2.19576565E-01	 7.81654268E-01
5.17335395E+07	 2.24509540E-01	 7.80276009E-01
5.17457475E+07	 2.29452822E-01	 7.78830087E-01
5.17579556E+07	 2.34362564E-01	 7.77372097E-01
5.17701636E+07	 2.39288824E-01	 7.75894911E-01
5.17823716E+07	 2.44196853E-01	 7.74352946E-01
5.17945796E+07	 2.49074181E-01	 7.72809018E-01
5.18067877E+07	 2.53956631E-01	 7.71209120E-01
5.18189957E+07	 2.58842062E-01	 7.69596082E-01
5.18312037E+07	 2.63708298E-01	 7.67955214E-01
5.18434117E+07	 2.68571256E-01	 7.66268855E-01
5.18556198E+07	 2.73417920E-01	 7.64560522E-01
5.18678278E+07	 2.78247434E-01	 7.62831554E-01
5.18800358E+07	 2.83093940E-01	 7.61048424E-01
5.18922438E+07	 2.87903935E-01	 7.59251512E-01
5.19044519E+07	 2.92702733E-01	 7.57421382E-01
5.19166599E+07	 2.97503709E-01	 7.55550346E-01
5.19288679E+07	 3.02290878E-01	 7.53659189E-01
5.19410759E+07	 3.07058645E-01	 7.51737285E-01
5.19532840E+07	 3.11825242E-01	 7.49783931E-01
5.19654920E+07	 3.16577195E-01	 7.47794612E-01
5.19777000E+07	 3.21299658E-01	 7.45793148E-01
5.19899080E+07	 3.26025446E-01	 7.43746160E-01
5.20021161E+07	 3.30736080E-01	 7.41687924E-01
5.20143241E+07	 3.35437156E-01	 7.39561358E-01
5.20265321E+07	 3.40129662E-01	 7.37431444E-01
5.20387401E+07	 3.44800449E-01	 7.35269947E-01
5.20509482E+07	 3.49449097E-01	 7.33071906E-01
5.20631562E+07	 3.54099648E-01	 7.30853101E-01
5.20753642E+07	 3.58734634E-01	 7.28612186E-01
5.20875722E+07	 3.63356547E-01	 7.26322648E-01
5.20997803E+07	 3.67962736E-01	 7.24014238E-01
5.21119883E+07	 3.72548541E-01	 7.21678868E-01
5.21241963E+07	 3.77132813E-01	 7.19327305E-01
5.21364043E+07	 3.81693898E-01	 7.16919865E-01
5.21486124E+07	 3.86227730E-01	 7.14499625E-01
5.21608204E+07	 3.90771427E-01	 7.12036873E-01
5.21730284E+07	 3.95285299E-01	 7.09563206E-01
5.21852364E+07	 3.99795840E-01	 7.07044403E-01
5.21974445E+07	 4.04287461E-01	 7.04502847E-01
5.22096525E+07	 4.08749260E-01	 7.01930331E-01
5.22218605E+07	 4.13214364E-01	 6.99330617E-01
5.22340685E+07	 4.17654345E-01	 6.96707099E-01
5.22462766E+07	 4.22075265E-01	 6.94051445E-01
5.22584846E+07	 4.26479736E-01	 6.91359027E-01
5.22706926E+07	 4.30871057E-01	 6.88649626E-01
5.22829006E+07	 4.35256487E-01	 6.85912221E-01
5.22951087E+07	 4.39594584E-01	 6.83144025E-01
5.23073167E+07	 4.43957568E-01	 6.80348158E-01
5.23195247E+07	 4.48277328E-01	 6.77524131E-01
5.23317327E+07	 4.52592191E-01	 6.74665896E-01
5.23439408E+07	 4.56878875E-01	 6.71794266E-01
5.23561488E+07	 4.61138207E-01	 6.68892263E-01
5.23683568E+07	 4.65394510E-01	 6.65948207E-01
5.23805648E+07	 4.69635271E-01	 6.63001144E-01
5.23927728E+07	 4.73837164E-01	 6.60006341E-01
5.24049809E+07	 4.78043138E-01	 6.56983443E-01
5.24171889E+07	 4.82217386E-01	 6.53945667E-01
5.24293969E+07	 4.86393634E-01	 6.50880858E-01
5.24416049E+07	 4.90529483E-01	 6.47778146E-01
5.24538130E+07	 4.94663186E-01	 6.44655696E-01
5.24660210E+07	 4.98752381E-01	 6.41506106E-01
5.24782290E+07	 5.02851276E-01	 6.38338961E-01
5.24904370E+07	 5.06930928E-01	 6.35147450E-01
5.25026451E+07	 5.10954146E-01	 6.31932452E-01
5.25148531E+07	 5.14974245E-01	 6.28671264E-01
5.25270611E+07	 5.18984673E-01	 6.25398261E-01
5.25392691E+07	 5.22960310E-01	 6.22073188E-01
5.25514772E+07	 5.26927851E-01	 6.18749871E-01
5.25636852E+07	 5.30866317E-01	 6.15398293E-01
5.25758932E+07	 5.34805101E-01	 6.12011857E-01
5.25881012E+07	 5.38699082E-01	 6.08598708E-01
5.26003093E+07	 5.42587899E-01	 6.05171987E-01
5.26125173E+07	 5.46443188E-01	 6.01731190E-01
5.26247253E+07	 5.50272990E-01	 5.98232561E-01
5.26369333E+07	 5.54095059E-01	 5.94730967E-01
5.26491414E+07	 5.57890531E-01	 5.91203393E-01
5.26613494E+07	 5.61670025E-01	 5.87651171E-01
5.26735574E+07	 5.65402939E-01	 5.84059865E-01
5.26857654E+07	 5.69130730E-01	 5.80473066E-01
5.26979735E+07	 5.72847393E-01	 5.76841611E-01
5.27101815E+07	 5.76533398E-01	 5.73180985E-01
5.27223895E+07	 5.80185047E-01	 5.69498035E-01
5.27345975E+07	 5.83827995E-01	 5.65812075E-01
5.27468056E+07	 5.87436819E-01	 5.62092803E-01
5.27590136E+07	 5.91032963E-01	 5.58340710E-01
5.27712216E+07	 5.94593759E-01	 5.54572512E-01
5.27834296E+07	 5.98144358E-01	 5.50784186E-01
5.27956377E+07	 6.01666593E-01	 5.46963059E-01
5.28078457E+07	 6.05155918E-01	 5.43117925E-01
5.28200537E+07	 6.08633172E-01	 5.39272209E-01
5.28322617E+07	 6.12084751E-01	 5.35380221E-01
5.28444698E+07	 6.15509140E-01	 5.31466718E-01
5.28566778E+07	 6.18900771E-01	 5.27544509E-01
5.28688858E+07	 6.22272444E-01	 5.23592659E-01
5.28810938E+07	 6.25641675E-01	 5.19624647E-01
5.28933019E+07	 6.28965265E-01	 5.15635833E-01
5.29055099E+07	 6.32253353E-01	 5.11611990E-01
5.29177179E+07	 6.35517954E-01	 5.07576370E-01
5.29299259E+07	 6.38776814E-01	 5.03507463E-01
5.29421340E+07	 6.42016246E-01	 4.99445663E-01
5.29543420E+07	 6.45206347E-01	 4.95328861E-01
5.29665500E+07	 6.48372245E-01	 4.91212666E-01
5.29787580E+07	 6.51528047E-01	 4.87060237E-01
5.29909661E+07	 6.54636992E-01	 4.82899527E-01
5.30031741E+07	 6.57739844E-01	 4.78719117E-01
5.30153821E+07	 6.60818084E-01	 4.74509104E-01
5.30275901E+07	 6.63837352E-01	 4.70289032E-01
5.30397982E+07	 6.66867287E-01	 4.66047794E-01
5.30520062E+07	 6.69838014E-01	 4.61783901E-01
5.30642142E+07	 6.72808669E-01	 4.57498492E-01
5.30764222E+07	 6.75742886E-01	 4.53204546E-01
5.30886303E+07	 6.78652976E-01	 4.48882220E-01
5.31008383E+07	 6.81536294E-01	 4.44537951E-01
5.31130463E+07	 6.84380145E-01	 4.40166245E-01
5.31252543E+07	 6.87202872E-01	 4.35798018E-01
5.31374624E+07	 6.90007104E-01	 4.31419565E-01
5.31496704E+07	 6.92773001E-01	 4.26981259E-01
5.31618784E+07	 6.95505950E-01	 4.22549208E-01
5.31740864E+07	 6.98220089E-01	 4.18109700E-01
5.31862945E+07	 7.00906279E-01	 4.13638779E-01
5.31985025E+07	 7.03570978E-01	 4.09147122E-01
5.32107105E+07	 7.06187955E-01	 4.04646116E-01
5.32229185E+07	 7.08802533E-01	 4.00116695E-01
5.32351266E+07	 7.11365318E-01	 3.95592854E-01
5.32473346E+07	 7.13911221E-01	 3.91039639E-01
5.32595426E+07	 7.16424612E-01	 3.86462162E-01
5.32717506E+07	 7.18927933E-01	 3.81873577E-01
5.32839587E+07	 7.21368826E-01	 3.77265594E-01
5.32961667E+07	 7.23788880E-01	 3.72645074E-01
5.33083747E+07	 7.26183444E-01	 3.67985544E-01
5.33205827E+07	 7.28562248E-01	 3.63356345E-01
5.33327908E+07	 7.30907121E-01	 3.58670083E-01
5.33449988E+07	 7.33214207E-01	 3.53987887E-01
5.33572068E+07	 7.35487801E-01	 3.49285592E-01
5.33694148E+07	 7.37744394E-01	 3.44588068E-01
5.33816229E+07	 7.39946663E-01	 3.39856508E-01
5.33938309E+07	 7.42138368E-01	 3.35097812E-01
5.34060389E+07	 7.44293423E-01	 3.30340560E-01
5.34182469E+07	 7.46425983E-01	 3.25567389E-01
5.34304550E+07	 7.48534429E-01	 3.20782986E-01
5.34426630E+07	 7.50597489E-01	 3.15994674E-01
5.34548710E+07	 7.52616264E-01	 3.11159214E-01
5.34670790E+07	 7.54628063E-01	 3.06340988E-01
5.34792871E+07	 7.56618944E-01	 3.01510880E-01
5.34914951E+07	 7.58555187E-01	 2.96648270E-01
5.35037031E+07	 7.60473211E-01	 2.91764264E-01
5.35159111E+07	 7.62336772E-01	 2.86881894E-01
5.35281192E+07	 7.64209322E-01	 2.81990083E-01
5.35403272E+07	 7.66012760E-01	 2.77087022E-01
5.35525352E+07	 7.67813096E-01	 2.72168997E-01
5.35647432E+07	 7.69571883E-01	 2.67241917E-01
5.35769512E+07	 7.71307999E-01	 2.62307626E-01
5.35891593E+07	 7.72974918E-01	 2.57343668E-01
5.36013673E+07	 7.74660583E-01	 2.52380773E-01
5.36135753E+07	 7.76281420E-01	 2.47405997E-01
5.36257833E+07	 7.77887538E-01	 2.42417945E-01
5.36379914E+07	 7.79462230E-01	 2.37422753E-01
5.36501994E+07	 7.80998261E-01	 2.32413958E-01
5.36624074E+07	 7.82486134E-01	 2.27415883E-01
5.36746154E+07	 7.83965560E-01	 2.22377111E-01
5.36868235E+07	 7.85409877E-01	 2.17322322E-01
5.36990315E+07	 7.86803119E-01	 2.12286086E-01
5.37112395E+07	 7.88183157E-01	 2.07234469E-01
5.37234475E+07	 7.89528029E-01	 2.02156255E-01
5.37356556E+07	 7.90837007E-01	 1.97085003E-01
5.37478636E+07	 7.92105695E-01	 1.91982491E-01
5.37600716E+07	 7.93361732E-01	 1.86888264E-01
5.37722796E+07	 7.94571853E-01	 1.81789515E-01
5.37844877E+07	 7.95741659E-01	 1.76672560E-01
5.37966957E+07	 7.96890327E-01	 1.71558884E-01
5.38089037E+07	 7.97992023E-01	 1.66437747E-01
5.38211117E+07	 7.99085650E-01	 1.61318697E-01
5.38333198E+07	 8.00138978E-01	 1.56170843E-01
5.38455278E+07	 8.01143073E-01	 1.51028084E-01
5.38577358E+07	 8.02123818E-01	 1.45865663E-01
5.38699438E+07	 8.03078654E-01	 1.40706184E-01
5.38821519E+07	 8.03988097E-01	 1.35517938E-01
5.38943599E+07	 8.04865174E-01	 1.30347699E-01
5.39065679E+07	 8.05737962E-01	 1.25168721E-01
5.39187759E+07	 8.06533116E-01	 1.19986926E-01
5.39309840E+07	 8.07325185E-01	 1.14786702E-01
5.39431920E+07	 8.08080267E-01	 1.09587100E-01
5.39554000E+07	 8.08775594E-01	 1.04385986E-01
5.39676080E+07	 8.09473603E-01	 9.91813263E-02
5.39798161E+07	 8.10114886E-01	 9.39678719E-02
5.39920241E+07	 8.10722316E-01	 8.87511364E-02
5.40042321E+07	 8.11305699E-01	 8.35211335E-02
5.40164401E+07	 8.11856123E-01	 7.82930620E-02
5.40286482E+07	 8.12372910E-01	 7.30616297E-02
5.40408562E+07	 8.12850996E-01	 6.78369327E-02
5.40530642E+07	 8.13310876E-01	 6.25919111E-02
5.40652722E+07	 8.13719554E-01	 5.73417739E-02
5.40774803E+07	 8.14105431E-01	 5.21051781E-02
5.40896883E+07	 8.14435885E-01	 4.68580023E-02
5.41018963E+07	 8.14745101E-01	 4.16065524E-02
5.41141043E+07	 8.15030664E-01	 3.63523554E-02
5.41263124E+07	 8.15276834E-01	 3.11006427E-02
5.41385204E+07	 8.15479112E-01	 2.58410841E-02
5.41507284E+07	 8.15659324E-01	 2.05767454E-02
5.41629364E+07	 8.15799578E-01	 1.53267382E-02
5.41751445E+07	 8.15910917E-01	 1.00524200E-02
5.41873525E+07	 8.15995291E-01	 4.79604832E-03
5.41995605E+07	 8.16022703E-01	-4.73567337E-04
5.42117685E+07	 8.16030493E-01	-5.73174412E-03
5.42239766E+07	 8.16000657E-01	-1.10015498E-02
5.42361846E+07	 8.15946464E-01	-1.62596301E-02
5.42483926E+07	 8.15847506E-01	-2.15294897E-02
5.42606006E+07	 8.15722308E-01	-2.67920358E-02
5.42728087E+07	 8.15547084E-01	-3.20694040E-02
5.42850167E+07	 8.15355315E-01	-3.73177420E-02
5.42972247E+07	 8.15122284E-01	-4.25874540E-02
5.43094327E+07	 8.14844199E-01	-4.78488415E-02
5.43216408E+07	 8.14546781E-01	-5.31134212E-02
5.43338488E+07	 8.14208234E-01	-5.83687446E-02
5.43460568E+07	 8.13859839E-01	-6.36184236E-02
5.43582648E+07	 8.13455804E-01	-6.88854113E-02
5.43704729E+07	 8.13011741E-01	-7.41374618E-02
5.43826809E+07	 8.12556411E-01	-7.93756558E-02
5.43948889E+07	 8.12033437E-01	-8.46392272E-02
5.44070969E+07	 8.11501186E-01	-8.98679024E-02
5.44193050E+07	 8.10932108E-01	-9.51052086E-02
5.44315130E+07	 8.10326014E-01	-1.00361257E-01
5.44437210E+07	 8.09685311E-01	-1.05586377E-01
5.44559290E+07	 8.09017942E-01	-1.10811693E-01
5.44681371E+07	 8.08300826E-01	-1.16043995E-01
5.44803451E+07	 8.07562932E-01	-1.21276548E-01
5.44925531E+07	 8.06783287E-01	-1.26496375E-01
5.45047611E+07	 8.05965494E-01	-1.31713238E-01
5.45169692E+07	 8.05134797E-01	-1.36934143E-01
5.45291772E+07	 8.04248300E-01	-1.42117660E-01
5.45413852E+07	 8.03327990E-01	-1.47309120E-01
5.45535932E+07	 8.02395947E-01	-1.52494190E-01
5.45658013E+07	 8.01417433E-01	-1.57688451E-01
5.45780093E+07	 8.00398201E-01	-1.62881696E-01
5.45902173E+07	 7.99345687E-01	-1.68022775E-01
5.46024253E+07	 7.98266346E-01	-1.73197246E-01
5.46146334E+07	 7.97160312E-01	-1.78358947E-01
5.46268414E+07	 7.96013317E-01	-1.83511081E-01
5.46390494E+07	 7.94830620E-01	-1.88662444E-01
5.46512574E+07	 7.93629238E-01	-1.93804012E-01
5.46634655E+07	 7.92367997E-01	-1.98929786E-01
5.46756735E+07	 7.91082465E-01	-2.04057016E-01
5.46878815E+07	 7.89784404E-01	-2.09182043E-01
5.47000895E+07	 7.88434235E-01	-2.14290502E-01
5.47122976E+07	 7.87051316E-01	-2.19382924E-01
5.47245056E+07	 7.85629692E-01	-2.24465235E-01
5.47367136E+07	 7.84194360E-01	-2.29544210E-01
5.47489216E+07	 7.82715015E-01	-2.34627394E-01
5.47611296E+07	 7.81207714E-01	-2.39678967E-01
5.47733377E+07	 7.79647115E-01	-2.44740390E-01
5.47855457E+07	 7.78063873E-01	-2.49788366E-01
5.47977537E+07	 7.76455349E-01	-2.54808192E-01
5.48099617E+07	 7.74818468E-01	-2.59819907E-01
5.48221698E+07	 7.73124863E-01	-2.64847017E-01
5.48343778E+07	 7.71438643E-01	-2.69845816E-01
5.48465858E+07	 7.69698477E-01	-2.74816211E-01
5.48587938E+07	 7.67925227E-01	-2.79820197E-01
5.48710019E+07	 7.66123155E-01	-2.84774482E-01
5.48832099E+07	 7.64261724E-01	-2.89733844E-01
5.48954179E+07	 7.62387371E-01	-2.94690456E-01
5.49076259E+07	 7.60483080E-01	-2.99609605E-01
5.49198340E+07	 7.58573896E-01	-3.04536111E-01
5.49320420E+07	 7.56595409E-01	-3.09440013E-01
5.49442500E+07	 7.54568391E-01	-3.14339188E-01
5.49564580E+07	 7.52549969E-01	-3.19222849E-01
5.49686661E+07	 7.50494116E-01	-3.24093703E-01
5.49808741E+07	 7.48406568E-01	-3.28944774E-01
5.49930821E+07	 7.46258377E-01	-3.33776604E-01
5.50052901E+07	 7.44111435E-01	-3.38609648E-01
5.50174982E+07	 7.41910924E-01	-3.43434090E-01
5.50297062E+07	 7.39703873E-01	-3.48217259E-01
5.50419142E+07	 7.37459658E-01	-3.52999709E-01
5.50541222E+07	 7.35162186E-01	-3.57768088E-01
5.50663303E+07	 7.32838685E-01	-3.62521886E-01
5.50785383E+07	 7.30513648E-01	-3.67264650E-01
5.50907463E+07	 7.28125690E-01	-3.71996561E-01
5.51029543E+07	 7.25679150E-01	-3.76675984E-01
5.51151624E+07	 7.23276738E-01	-3.81368595E-01
5.51273704E+07	 7.20800450E-01	-3.86064613E-01
