! COPPER MOUNTAIN TECHNOLOGIES, PLANAR TR1300/1, 00071119, 20.2.2/1.0
! Date: 1/9/2024 7:30:26 PM
! Data: Format [Calibration Info]
! Freq          	S11: Re/Im F1                  
# HZ S RI R 50
5.00000000E+07	-2.77724373E-01	-1.38748617E-02
5.00122080E+07	-2.77743658E-01	-1.34603864E-02
5.00244160E+07	-2.77763683E-01	-1.30460558E-02
5.00366241E+07	-2.77778024E-01	-1.26382075E-02
5.00488321E+07	-2.77799873E-01	-1.22307993E-02
5.00610401E+07	-2.77808444E-01	-1.18198103E-02
5.00732481E+07	-2.77830505E-01	-1.14062264E-02
5.00854562E+07	-2.77848282E-01	-1.09969421E-02
5.00976642E+07	-2.77858372E-01	-1.05848920E-02
5.01098722E+07	-2.77874283E-01	-1.01668594E-02
5.01220802E+07	-2.77881490E-01	-9.76196618E-03
5.01342883E+07	-2.77899377E-01	-9.35810900E-03
5.01464963E+07	-2.77913776E-01	-8.94938510E-03
5.01587043E+07	-2.77925920E-01	-8.53695629E-03
5.01709123E+07	-2.77930345E-01	-8.11711874E-03
5.01831204E+07	-2.77944283E-01	-7.71236726E-03
5.01953284E+07	-2.77957450E-01	-7.30023989E-03
5.02075364E+07	-2.77962206E-01	-6.89130496E-03
5.02197444E+07	-2.77976187E-01	-6.47877808E-03
5.02319525E+07	-2.77977042E-01	-6.06759000E-03
5.02441605E+07	-2.77988893E-01	-5.65937645E-03
5.02563685E+07	-2.77996447E-01	-5.24267123E-03
5.02685765E+07	-2.77998483E-01	-4.83655253E-03
5.02807846E+07	-2.78009224E-01	-4.42179954E-03
5.02929926E+07	-2.78013861E-01	-4.01393772E-03
5.03052006E+07	-2.78019319E-01	-3.60422114E-03
5.03174086E+07	-2.78022818E-01	-3.19577421E-03
5.03296167E+07	-2.78017448E-01	-2.78209294E-03
5.03418247E+07	-2.78021790E-01	-2.36871743E-03
5.03540327E+07	-2.78027232E-01	-1.95760152E-03
5.03662407E+07	-2.78028560E-01	-1.55038672E-03
5.03784488E+07	-2.78031169E-01	-1.14019190E-03
5.03906568E+07	-2.78023964E-01	-7.28545772E-04
5.04028648E+07	-2.78024014E-01	-3.18549866E-04
5.04150728E+07	-2.78032993E-01	 8.85046397E-05
5.04272809E+07	-2.78024023E-01	 4.99395243E-04
5.04394889E+07	-2.78013264E-01	 9.07275808E-04
5.04516969E+07	-2.78022089E-01	 1.32456580E-03
5.04639049E+07	-2.78017599E-01	 1.73628854E-03
5.04761130E+07	-2.78013407E-01	 2.14073724E-03
5.04883210E+07	-2.78009046E-01	 2.56630219E-03
5.05005290E+07	-2.77997277E-01	 2.96955619E-03
5.05127370E+07	-2.77996879E-01	 3.37917336E-03
5.05249451E+07	-2.77991387E-01	 3.78963185E-03
5.05371531E+07	-2.77985769E-01	 4.20376808E-03
5.05493611E+07	-2.77978581E-01	 4.60873313E-03
5.05615691E+07	-2.77969794E-01	 5.01868542E-03
5.05737772E+07	-2.77960028E-01	 5.42742536E-03
5.05859852E+07	-2.77947685E-01	 5.84537744E-03
5.05981932E+07	-2.77935199E-01	 6.25438734E-03
5.06104012E+07	-2.77929502E-01	 6.66068802E-03
5.06226093E+07	-2.77916257E-01	 7.07316762E-03
5.06348173E+07	-2.77904457E-01	 7.48186354E-03
5.06470253E+07	-2.77893485E-01	 7.89679009E-03
5.06592333E+07	-2.77877265E-01	 8.30543406E-03
5.06714414E+07	-2.77857749E-01	 8.71543090E-03
5.06836494E+07	-2.77848378E-01	 9.12597887E-03
5.06958574E+07	-2.77824485E-01	 9.53605160E-03
5.07080654E+07	-2.77817524E-01	 9.94947284E-03
5.07202735E+07	-2.77800679E-01	 1.03571250E-02
5.07324815E+07	-2.77787685E-01	 1.07708877E-02
5.07446895E+07	-2.77766234E-01	 1.11738953E-02
5.07568975E+07	-2.77750833E-01	 1.15851594E-02
5.07691056E+07	-2.77733877E-01	 1.20049507E-02
5.07813136E+07	-2.77712440E-01	 1.24027770E-02
5.07935216E+07	-2.77685357E-01	 1.28193890E-02
5.08057296E+07	-2.77654676E-01	 1.32300435E-02
5.08179377E+07	-2.77642199E-01	 1.36383745E-02
5.08301457E+07	-2.77620607E-01	 1.40527598E-02
5.08423537E+07	-2.77601600E-01	 1.44619836E-02
5.08545617E+07	-2.77577056E-01	 1.48670542E-02
5.08667698E+07	-2.77554725E-01	 1.52754295E-02
5.08789778E+07	-2.77524853E-01	 1.56904976E-02
5.08911858E+07	-2.77498076E-01	 1.60989868E-02
5.09033938E+07	-2.77477115E-01	 1.65068328E-02
5.09156019E+07	-2.77447400E-01	 1.69089956E-02
5.09278099E+07	-2.77425751E-01	 1.73230724E-02
5.09400179E+07	-2.77393421E-01	 1.77335792E-02
5.09522259E+07	-2.77360489E-01	 1.81464227E-02
5.09644340E+07	-2.77335651E-01	 1.85550863E-02
5.09766420E+07	-2.77310828E-01	 1.89628532E-02
5.09888500E+07	-2.77276420E-01	 1.93734119E-02
5.10010580E+07	-2.77248801E-01	 1.97837113E-02
5.10132661E+07	-2.77217711E-01	 2.01881557E-02
5.10254741E+07	-2.77178052E-01	 2.05990472E-02
5.10376821E+07	-2.77152896E-01	 2.10072228E-02
5.10498901E+07	-2.77106498E-01	 2.14126106E-02
5.10620982E+07	-2.77077534E-01	 2.18258555E-02
5.10743062E+07	-2.77048545E-01	 2.22364369E-02
5.10865142E+07	-2.77010320E-01	 2.26415612E-02
5.10987222E+07	-2.76968472E-01	 2.30463406E-02
5.11109303E+07	-2.76940690E-01	 2.34663181E-02
5.11231383E+07	-2.76905388E-01	 2.38682167E-02
5.11353463E+07	-2.76855649E-01	 2.42717235E-02
5.11475543E+07	-2.76828004E-01	 2.46876787E-02
5.11597624E+07	-2.76784634E-01	 2.50805052E-02
5.11719704E+07	-2.76749326E-01	 2.55005345E-02
5.11841784E+07	-2.76704442E-01	 2.59064452E-02
5.11963864E+07	-2.76661966E-01	 2.63194459E-02
5.12085944E+07	-2.76622913E-01	 2.67235363E-02
5.12208025E+07	-2.76573203E-01	 2.71348229E-02
5.12330105E+07	-2.76537801E-01	 2.75405348E-02
5.12452185E+07	-2.76495052E-01	 2.79555015E-02
5.12574265E+07	-2.76454225E-01	 2.83605863E-02
5.12696346E+07	-2.76408254E-01	 2.87609052E-02
5.12818426E+07	-2.76365503E-01	 2.91718908E-02
5.12940506E+07	-2.76314365E-01	 2.95712376E-02
5.13062586E+07	-2.76268925E-01	 2.99867136E-02
5.13184667E+07	-2.76224628E-01	 3.03903833E-02
5.13306747E+07	-2.76176353E-01	 3.08002242E-02
5.13428827E+07	-2.76124748E-01	 3.12044747E-02
5.13550907E+07	-2.76076892E-01	 3.16139164E-02
5.13672988E+07	-2.76032417E-01	 3.20171640E-02
5.13795068E+07	-2.75976231E-01	 3.24270655E-02
5.13917148E+07	-2.75931077E-01	 3.28386840E-02
5.14039228E+07	-2.75878549E-01	 3.32358953E-02
5.14161309E+07	-2.75823295E-01	 3.36507487E-02
5.14283389E+07	-2.75775755E-01	 3.40519573E-02
5.14405469E+07	-2.75720197E-01	 3.44632657E-02
5.14527549E+07	-2.75660544E-01	 3.48655356E-02
5.14649630E+07	-2.75606894E-01	 3.52694606E-02
5.14771710E+07	-2.75560402E-01	 3.56800766E-02
5.14893790E+07	-2.75499698E-01	 3.60819281E-02
5.15015870E+07	-2.75443835E-01	 3.64942527E-02
5.15137951E+07	-2.75390530E-01	 3.68956227E-02
5.15260031E+07	-2.75333024E-01	 3.73055204E-02
5.15382111E+07	-2.75276436E-01	 3.77118291E-02
5.15504191E+07	-2.75212282E-01	 3.81157166E-02
5.15626272E+07	-2.75158570E-01	 3.85214797E-02
5.15748352E+07	-2.75097929E-01	 3.89271838E-02
5.15870432E+07	-2.75040527E-01	 3.93299633E-02
5.15992512E+07	-2.74973098E-01	 3.97377264E-02
5.16114593E+07	-2.74917915E-01	 4.01446470E-02
5.16236673E+07	-2.74845133E-01	 4.05420843E-02
5.16358753E+07	-2.74787242E-01	 4.09509440E-02
5.16480833E+07	-2.74718875E-01	 4.13584190E-02
5.16602914E+07	-2.74664177E-01	 4.17569282E-02
5.16724994E+07	-2.74592690E-01	 4.21708217E-02
5.16847074E+07	-2.74535776E-01	 4.25728953E-02
5.16969154E+07	-2.74466295E-01	 4.29696157E-02
5.17091235E+07	-2.74397383E-01	 4.33785077E-02
5.17213315E+07	-2.74329430E-01	 4.37849933E-02
5.17335395E+07	-2.74262003E-01	 4.41848086E-02
5.17457475E+07	-2.74198013E-01	 4.45826911E-02
5.17579556E+07	-2.74127277E-01	 4.49941031E-02
5.17701636E+07	-2.74057784E-01	 4.54038614E-02
5.17823716E+07	-2.73992093E-01	 4.57999544E-02
5.17945796E+07	-2.73918219E-01	 4.62053094E-02
5.18067877E+07	-2.73848013E-01	 4.66118122E-02
5.18189957E+07	-2.73780065E-01	 4.70130355E-02
5.18312037E+07	-2.73697955E-01	 4.74179174E-02
5.18434117E+07	-2.73627681E-01	 4.78245902E-02
5.18556198E+07	-2.73555211E-01	 4.82241325E-02
5.18678278E+07	-2.73479824E-01	 4.86231970E-02
5.18800358E+07	-2.73404049E-01	 4.90346920E-02
5.18922438E+07	-2.73330364E-01	 4.94314964E-02
5.19044519E+07	-2.73261754E-01	 4.98293035E-02
5.19166599E+07	-2.73175860E-01	 5.02392873E-02
5.19288679E+07	-2.73095482E-01	 5.06459256E-02
5.19410759E+07	-2.73020179E-01	 5.10469219E-02
5.19532840E+07	-2.72940323E-01	 5.14387904E-02
5.19654920E+07	-2.72865383E-01	 5.18511699E-02
5.19777000E+07	-2.72782175E-01	 5.22453884E-02
5.19899080E+07	-2.72702501E-01	 5.26502443E-02
5.20021161E+07	-2.72625624E-01	 5.30464318E-02
5.20143241E+07	-2.72543088E-01	 5.34526289E-02
5.20265321E+07	-2.72459172E-01	 5.38536888E-02
5.20387401E+07	-2.72373621E-01	 5.42611077E-02
5.20509482E+07	-2.72290718E-01	 5.46564011E-02
5.20631562E+07	-2.72211006E-01	 5.50630589E-02
5.20753642E+07	-2.72125065E-01	 5.54589553E-02
5.20875722E+07	-2.72036514E-01	 5.58618036E-02
5.20997803E+07	-2.71951854E-01	 5.62592473E-02
5.21119883E+07	-2.71868438E-01	 5.66629271E-02
5.21241963E+07	-2.71783589E-01	 5.70580108E-02
5.21364043E+07	-2.71697609E-01	 5.74612804E-02
5.21486124E+07	-2.71603692E-01	 5.78575399E-02
5.21608204E+07	-2.71513592E-01	 5.82657730E-02
5.21730284E+07	-2.71425704E-01	 5.86642619E-02
5.21852364E+07	-2.71341320E-01	 5.90610304E-02
5.21974445E+07	-2.71244039E-01	 5.94605015E-02
5.22096525E+07	-2.71159047E-01	 5.98586501E-02
5.22218605E+07	-2.71064001E-01	 6.02557296E-02
5.22340685E+07	-2.70967636E-01	 6.06575305E-02
5.22462766E+07	-2.70880789E-01	 6.10522008E-02
5.22584846E+07	-2.70785637E-01	 6.14554403E-02
5.22706926E+07	-2.70696391E-01	 6.18463284E-02
5.22829006E+07	-2.70599365E-01	 6.22442408E-02
5.22951087E+07	-2.70504995E-01	 6.26477550E-02
5.23073167E+07	-2.70404350E-01	 6.30511196E-02
5.23195247E+07	-2.70312909E-01	 6.34449817E-02
5.23317327E+07	-2.70213951E-01	 6.38476477E-02
5.23439408E+07	-2.70113924E-01	 6.42451203E-02
5.23561488E+07	-2.70016705E-01	 6.46419764E-02
5.23683568E+07	-2.69920756E-01	 6.50311352E-02
5.23805648E+07	-2.69823768E-01	 6.54362304E-02
5.23927728E+07	-2.69726460E-01	 6.58298282E-02
5.24049809E+07	-2.69620356E-01	 6.62358773E-02
5.24171889E+07	-2.69526911E-01	 6.66297237E-02
5.24293969E+07	-2.69417616E-01	 6.70227461E-02
5.24416049E+07	-2.69311129E-01	 6.74170962E-02
5.24538130E+07	-2.69216670E-01	 6.78116127E-02
5.24660210E+07	-2.69119783E-01	 6.82149509E-02
5.24782290E+07	-2.69002405E-01	 6.86097160E-02
5.24904370E+07	-2.68911431E-01	 6.90088574E-02
5.25026451E+07	-2.68801813E-01	 6.93985950E-02
5.25148531E+07	-2.68694065E-01	 6.97921074E-02
5.25270611E+07	-2.68586869E-01	 7.01916515E-02
5.25392691E+07	-2.68478681E-01	 7.05844797E-02
5.25514772E+07	-2.68374791E-01	 7.09765138E-02
5.25636852E+07	-2.68265552E-01	 7.13722949E-02
5.25758932E+07	-2.68156224E-01	 7.17672943E-02
5.25881012E+07	-2.68048864E-01	 7.21615848E-02
5.26003093E+07	-2.67935468E-01	 7.25620448E-02
5.26125173E+07	-2.67829876E-01	 7.29547555E-02
5.26247253E+07	-2.67721288E-01	 7.33447286E-02
5.26369333E+07	-2.67605788E-01	 7.37362651E-02
5.26491414E+07	-2.67493112E-01	 7.41297808E-02
5.26613494E+07	-2.67380087E-01	 7.45270086E-02
5.26735574E+07	-2.67270690E-01	 7.49146687E-02
5.26857654E+07	-2.67152575E-01	 7.53067677E-02
5.26979735E+07	-2.67038015E-01	 7.57017463E-02
5.27101815E+07	-2.66921685E-01	 7.60955581E-02
5.27223895E+07	-2.66804355E-01	 7.64870707E-02
5.27345975E+07	-2.66697149E-01	 7.68811786E-02
5.27468056E+07	-2.66577138E-01	 7.72725100E-02
5.27590136E+07	-2.66461681E-01	 7.76666550E-02
5.27712216E+07	-2.66342545E-01	 7.80592826E-02
5.27834296E+07	-2.66221277E-01	 7.84495925E-02
5.27956377E+07	-2.66102889E-01	 7.88440005E-02
5.28078457E+07	-2.65984115E-01	 7.92364080E-02
5.28200537E+07	-2.65864278E-01	 7.96228671E-02
5.28322617E+07	-2.65742861E-01	 8.00158509E-02
5.28444698E+07	-2.65624345E-01	 8.04073202E-02
5.28566778E+07	-2.65496699E-01	 8.07944859E-02
5.28688858E+07	-2.65377520E-01	 8.11904504E-02
5.28810938E+07	-2.65252120E-01	 8.15784033E-02
5.28933019E+07	-2.65128323E-01	 8.19677544E-02
5.29055099E+07	-2.65000512E-01	 8.23625384E-02
5.29177179E+07	-2.64881654E-01	 8.27517638E-02
5.29299259E+07	-2.64748480E-01	 8.31328051E-02
5.29421340E+07	-2.64625117E-01	 8.35245683E-02
5.29543420E+07	-2.64499949E-01	 8.39137457E-02
5.29665500E+07	-2.64371880E-01	 8.43037230E-02
5.29787580E+07	-2.64246045E-01	 8.46969161E-02
5.29909661E+07	-2.64114121E-01	 8.50762928E-02
5.30031741E+07	-2.63984364E-01	 8.54699504E-02
5.30153821E+07	-2.63853235E-01	 8.58610921E-02
5.30275901E+07	-2.63728648E-01	 8.62467138E-02
5.30397982E+07	-2.63598951E-01	 8.66344022E-02
5.30520062E+07	-2.63465317E-01	 8.70177658E-02
5.30642142E+07	-2.63332620E-01	 8.74034884E-02
5.30764222E+07	-2.63204272E-01	 8.77951252E-02
5.30886303E+07	-2.63066121E-01	 8.81829888E-02
5.31008383E+07	-2.62937429E-01	 8.85716178E-02
5.31130463E+07	-2.62799473E-01	 8.89523966E-02
5.31252543E+07	-2.62668081E-01	 8.93393895E-02
5.31374624E+07	-2.62539358E-01	 8.97243482E-02
5.31496704E+07	-2.62389088E-01	 9.01088538E-02
5.31618784E+07	-2.62260182E-01	 9.04991019E-02
5.31740864E+07	-2.62119293E-01	 9.08794257E-02
5.31862945E+07	-2.61981143E-01	 9.12675795E-02
5.31985025E+07	-2.61842055E-01	 9.16514458E-02
5.32107105E+07	-2.61706288E-01	 9.20392148E-02
5.32229185E+07	-2.61566493E-01	 9.24220733E-02
5.32351266E+07	-2.61424089E-01	 9.28047264E-02
5.32473346E+07	-2.61286639E-01	 9.31919278E-02
5.32595426E+07	-2.61142712E-01	 9.35682718E-02
5.32717506E+07	-2.61003279E-01	 9.39584705E-02
5.32839587E+07	-2.60860844E-01	 9.43493732E-02
5.32961667E+07	-2.60716378E-01	 9.47233736E-02
5.33083747E+07	-2.60573788E-01	 9.51130783E-02
5.33205827E+07	-2.60431181E-01	 9.54920793E-02
5.33327908E+07	-2.60284475E-01	 9.58754407E-02
5.33449988E+07	-2.60140022E-01	 9.62582871E-02
5.33572068E+07	-2.59990052E-01	 9.66349089E-02
5.33694148E+07	-2.59850673E-01	 9.70160032E-02
5.33816229E+07	-2.59701281E-01	 9.74018139E-02
5.33938309E+07	-2.59557670E-01	 9.77849917E-02
5.34060389E+07	-2.59408588E-01	 9.81676917E-02
5.34182469E+07	-2.59257253E-01	 9.85417186E-02
5.34304550E+07	-2.59110367E-01	 9.89315038E-02
5.34426630E+07	-2.58959452E-01	 9.93108894E-02
5.34548710E+07	-2.58806415E-01	 9.96889253E-02
5.34670790E+07	-2.58660291E-01	 1.00065532E-01
5.34792871E+07	-2.58511715E-01	 1.00445629E-01
5.34914951E+07	-2.58358593E-01	 1.00827829E-01
5.35037031E+07	-2.58203662E-01	 1.01206964E-01
5.35159111E+07	-2.58047703E-01	 1.01588686E-01
5.35281192E+07	-2.57894358E-01	 1.01969206E-01
5.35403272E+07	-2.57745739E-01	 1.02345946E-01
5.35525352E+07	-2.57584275E-01	 1.02723899E-01
5.35647432E+07	-2.57428528E-01	 1.03099482E-01
5.35769512E+07	-2.57277005E-01	 1.03475484E-01
5.35891593E+07	-2.57116294E-01	 1.03852365E-01
5.36013673E+07	-2.56965238E-01	 1.04233409E-01
5.36135753E+07	-2.56809995E-01	 1.04603368E-01
5.36257833E+07	-2.56644060E-01	 1.04991757E-01
5.36379914E+07	-2.56484703E-01	 1.05368684E-01
5.36501994E+07	-2.56327376E-01	 1.05741904E-01
5.36624074E+07	-2.56166022E-01	 1.06110759E-01
5.36746154E+07	-2.56011735E-01	 1.06494977E-01
5.36868235E+07	-2.55842348E-01	 1.06863923E-01
5.36990315E+07	-2.55686514E-01	 1.07243278E-01
5.37112395E+07	-2.55524234E-01	 1.07614689E-01
5.37234475E+07	-2.55361055E-01	 1.07994720E-01
5.37356556E+07	-2.55200890E-01	 1.08371636E-01
5.37478636E+07	-2.55034568E-01	 1.08745488E-01
5.37600716E+07	-2.54867606E-01	 1.09120606E-01
5.37722796E+07	-2.54706945E-01	 1.09490988E-01
5.37844877E+07	-2.54537858E-01	 1.09863213E-01
5.37966957E+07	-2.54368327E-01	 1.10241013E-01
5.38089037E+07	-2.54205941E-01	 1.10608089E-01
5.38211117E+07	-2.54040384E-01	 1.10980894E-01
5.38333198E+07	-2.53873951E-01	 1.11358654E-01
5.38455278E+07	-2.53706835E-01	 1.11729614E-01
5.38577358E+07	-2.53539213E-01	 1.12097442E-01
5.38699438E+07	-2.53366055E-01	 1.12470723E-01
5.38821519E+07	-2.53203873E-01	 1.12846284E-01
5.38943599E+07	-2.53026399E-01	 1.13213154E-01
5.39065679E+07	-2.52852917E-01	 1.13588031E-01
5.39187759E+07	-2.52681533E-01	 1.13952591E-01
5.39309840E+07	-2.52516145E-01	 1.14331485E-01
5.39431920E+07	-2.52337659E-01	 1.14694976E-01
5.39554000E+07	-2.52176414E-01	 1.15081758E-01
5.39676080E+07	-2.51995865E-01	 1.15437512E-01
5.39798161E+07	-2.51818940E-01	 1.15805687E-01
5.39920241E+07	-2.51644332E-01	 1.16179983E-01
5.40042321E+07	-2.51470330E-01	 1.16556151E-01
5.40164401E+07	-2.51294792E-01	 1.16915889E-01
5.40286482E+07	-2.51124025E-01	 1.17283646E-01
5.40408562E+07	-2.50944600E-01	 1.17647437E-01
5.40530642E+07	-2.50765791E-01	 1.18022009E-01
5.40652722E+07	-2.50590281E-01	 1.18381280E-01
5.40774803E+07	-2.50406571E-01	 1.18754861E-01
5.40896883E+07	-2.50232563E-01	 1.19126709E-01
5.41018963E+07	-2.50054142E-01	 1.19487042E-01
5.41141043E+07	-2.49873308E-01	 1.19853660E-01
5.41263124E+07	-2.49691130E-01	 1.20223997E-01
5.41385204E+07	-2.49513731E-01	 1.20586862E-01
5.41507284E+07	-2.49324848E-01	 1.20958369E-01
5.41629364E+07	-2.49142822E-01	 1.21319139E-01
5.41751445E+07	-2.48963074E-01	 1.21690123E-01
5.41873525E+07	-2.48777202E-01	 1.22048323E-01
5.41995605E+07	-2.48595833E-01	 1.22415823E-01
5.42117685E+07	-2.48405590E-01	 1.22782544E-01
5.42239766E+07	-2.48218518E-01	 1.23145713E-01
5.42361846E+07	-2.48038169E-01	 1.23509540E-01
5.42483926E+07	-2.47849473E-01	 1.23869745E-01
5.42606006E+07	-2.47661190E-01	 1.24236885E-01
5.42728087E+07	-2.47475481E-01	 1.24597893E-01
5.42850167E+07	-2.47288922E-01	 1.24954453E-01
5.42972247E+07	-2.47100711E-01	 1.25324537E-01
5.43094327E+07	-2.46915498E-01	 1.25689615E-01
5.43216408E+07	-2.46714133E-01	 1.26048952E-01
5.43338488E+07	-2.46530965E-01	 1.26401426E-01
5.43460568E+07	-2.46345355E-01	 1.26771359E-01
5.43582648E+07	-2.46150361E-01	 1.27131335E-01
5.43704729E+07	-2.45957902E-01	 1.27499488E-01
5.43826809E+07	-2.45766969E-01	 1.27858699E-01
5.43948889E+07	-2.45574486E-01	 1.28205310E-01
5.44070969E+07	-2.45380063E-01	 1.28572380E-01
5.44193050E+07	-2.45186524E-01	 1.28936491E-01
5.44315130E+07	-2.44997733E-01	 1.29288582E-01
5.44437210E+07	-2.44800740E-01	 1.29647702E-01
5.44559290E+07	-2.44599794E-01	 1.30005372E-01
5.44681371E+07	-2.44403304E-01	 1.30365246E-01
5.44803451E+07	-2.44209651E-01	 1.30729860E-01
5.44925531E+07	-2.44012407E-01	 1.31082660E-01
5.45047611E+07	-2.43814561E-01	 1.31438153E-01
5.45169692E+07	-2.43616751E-01	 1.31803821E-01
5.45291772E+07	-2.43410666E-01	 1.32161322E-01
5.45413852E+07	-2.43219891E-01	 1.32504815E-01
5.45535932E+07	-2.43018826E-01	 1.32870650E-01
5.45658013E+07	-2.42814888E-01	 1.33224070E-01
5.45780093E+07	-2.42620118E-01	 1.33575180E-01
5.45902173E+07	-2.42416184E-01	 1.33935976E-01
5.46024253E+07	-2.42213601E-01	 1.34287841E-01
5.46146334E+07	-2.42013236E-01	 1.34643560E-01
5.46268414E+07	-2.41807984E-01	 1.34997126E-01
5.46390494E+07	-2.41608671E-01	 1.35350212E-01
5.46512574E+07	-2.41414923E-01	 1.35709825E-01
5.46634655E+07	-2.41200083E-01	 1.36062507E-01
5.46756735E+07	-2.40989201E-01	 1.36414394E-01
5.46878815E+07	-2.40784894E-01	 1.36758991E-01
5.47000895E+07	-2.40580962E-01	 1.37122034E-01
5.47122976E+07	-2.40371098E-01	 1.37475573E-01
5.47245056E+07	-2.40166467E-01	 1.37812975E-01
5.47367136E+07	-2.39965303E-01	 1.38169319E-01
5.47489216E+07	-2.39756488E-01	 1.38524102E-01
5.47611296E+07	-2.39544027E-01	 1.38868788E-01
5.47733377E+07	-2.39335514E-01	 1.39227477E-01
5.47855457E+07	-2.39123734E-01	 1.39577217E-01
5.47977537E+07	-2.38914033E-01	 1.39922467E-01
5.48099617E+07	-2.38709287E-01	 1.40272481E-01
5.48221698E+07	-2.38489183E-01	 1.40625760E-01
5.48343778E+07	-2.38279342E-01	 1.40971097E-01
5.48465858E+07	-2.38071463E-01	 1.41321158E-01
5.48587938E+07	-2.37857305E-01	 1.41676139E-01
5.48710019E+07	-2.37643923E-01	 1.42020894E-01
5.48832099E+07	-2.37429244E-01	 1.42371263E-01
5.48954179E+07	-2.37210804E-01	 1.42726524E-01
5.49076259E+07	-2.37000270E-01	 1.43063315E-01
5.49198340E+07	-2.36787636E-01	 1.43405757E-01
5.49320420E+07	-2.36568612E-01	 1.43754499E-01
5.49442500E+07	-2.36346369E-01	 1.44106410E-01
5.49564580E+07	-2.36133875E-01	 1.44446423E-01
5.49686661E+07	-2.35919675E-01	 1.44794118E-01
5.49808741E+07	-2.35700650E-01	 1.45143230E-01
5.49930821E+07	-2.35485363E-01	 1.45481473E-01
5.50052901E+07	-2.35255892E-01	 1.45825083E-01
5.50174982E+07	-2.35041850E-01	 1.46169966E-01
5.50297062E+07	-2.34831785E-01	 1.46508276E-01
5.50419142E+07	-2.34605621E-01	 1.46861582E-01
5.50541222E+07	-2.34376578E-01	 1.47201815E-01
5.50663303E+07	-2.34158965E-01	 1.47545313E-01
5.50785383E+07	-2.33942096E-01	 1.47889575E-01
5.50907463E+07	-2.33718563E-01	 1.48227881E-01
5.51029543E+07	-2.33488751E-01	 1.48562282E-01
5.51151624E+07	-2.33274409E-01	 1.48908980E-01
5.51273704E+07	-2.33048747E-01	 1.49251068E-01
