! COPPER MOUNTAIN TECHNOLOGIES, PLANAR TR1300/1, 00071119, 20.2.2/1.0
! Date: 1/9/2024 7:20:04 PM
! Data: Format [Calibration Info]
! Freq          	S11: Re/Im F1                  
# HZ S RI R 50
5.00000000E+07	-1.44300840E-01	-2.72265059E-03
5.00122080E+07	-1.44305049E-01	-2.51056420E-03
5.00244160E+07	-1.44313363E-01	-2.29387983E-03
5.00366241E+07	-1.44313121E-01	-2.08785870E-03
5.00488321E+07	-1.44320210E-01	-1.87629937E-03
5.00610401E+07	-1.44323553E-01	-1.66827712E-03
5.00732481E+07	-1.44326597E-01	-1.45457250E-03
5.00854562E+07	-1.44325996E-01	-1.24773863E-03
5.00976642E+07	-1.44329265E-01	-1.03555768E-03
5.01098722E+07	-1.44332251E-01	-8.19234367E-04
5.01220802E+07	-1.44331805E-01	-6.12060539E-04
5.01342883E+07	-1.44334553E-01	-4.07988217E-04
5.01464963E+07	-1.44331541E-01	-1.96506775E-04
5.01587043E+07	-1.44335539E-01	 1.59738306E-05
5.01709123E+07	-1.44330790E-01	 2.29716611E-04
5.01831204E+07	-1.44332677E-01	 4.33364131E-04
5.01953284E+07	-1.44332777E-01	 6.40234142E-04
5.02075364E+07	-1.44336659E-01	 8.52774673E-04
5.02197444E+07	-1.44334760E-01	 1.06665046E-03
5.02319525E+07	-1.44332030E-01	 1.27464868E-03
5.02441605E+07	-1.44332504E-01	 1.47916926E-03
5.02563685E+07	-1.44325341E-01	 1.69892636E-03
5.02685765E+07	-1.44323527E-01	 1.90667427E-03
5.02807846E+07	-1.44322096E-01	 2.11483719E-03
5.02929926E+07	-1.44320648E-01	 2.32165773E-03
5.03052006E+07	-1.44312618E-01	 2.53830849E-03
5.03174086E+07	-1.44309909E-01	 2.74465044E-03
5.03296167E+07	-1.44307967E-01	 2.95564441E-03
5.03418247E+07	-1.44303862E-01	 3.16732483E-03
5.03540327E+07	-1.44304182E-01	 3.37474812E-03
5.03662407E+07	-1.44298976E-01	 3.58575310E-03
5.03784488E+07	-1.44289924E-01	 3.79660579E-03
5.03906568E+07	-1.44278700E-01	 4.01017419E-03
5.04028648E+07	-1.44274695E-01	 4.21535277E-03
5.04150728E+07	-1.44276977E-01	 4.42154121E-03
5.04272809E+07	-1.44264422E-01	 4.63988410E-03
5.04394889E+07	-1.44252589E-01	 4.84021062E-03
5.04516969E+07	-1.44250025E-01	 5.05446158E-03
5.04639049E+07	-1.44244170E-01	 5.26836667E-03
5.04761130E+07	-1.44234425E-01	 5.47223488E-03
5.04883210E+07	-1.44231229E-01	 5.68779558E-03
5.05005290E+07	-1.44214326E-01	 5.89627181E-03
5.05127370E+07	-1.44214728E-01	 6.10913351E-03
5.05249451E+07	-1.44204879E-01	 6.31624953E-03
5.05371531E+07	-1.44192883E-01	 6.52671906E-03
5.05493611E+07	-1.44189319E-01	 6.73411208E-03
5.05615691E+07	-1.44177868E-01	 6.94962014E-03
5.05737772E+07	-1.44161830E-01	 7.15551311E-03
5.05859852E+07	-1.44149646E-01	 7.36947440E-03
5.05981932E+07	-1.44140966E-01	 7.57536898E-03
5.06104012E+07	-1.44137331E-01	 7.78564539E-03
5.06226093E+07	-1.44122282E-01	 7.99387491E-03
5.06348173E+07	-1.44106830E-01	 8.19938515E-03
5.06470253E+07	-1.44095913E-01	 8.41408713E-03
5.06592333E+07	-1.44085599E-01	 8.62474538E-03
5.06714414E+07	-1.44069149E-01	 8.83076328E-03
5.06836494E+07	-1.44057889E-01	 9.04754941E-03
5.06958574E+07	-1.44039891E-01	 9.25191202E-03
5.07080654E+07	-1.44032460E-01	 9.46293475E-03
5.07202735E+07	-1.44012415E-01	 9.67280924E-03
5.07324815E+07	-1.44002992E-01	 9.88008455E-03
5.07446895E+07	-1.43986844E-01	 1.00875288E-02
5.07568975E+07	-1.43969062E-01	 1.02990217E-02
5.07691056E+07	-1.43959028E-01	 1.05126632E-02
5.07813136E+07	-1.43944902E-01	 1.07188408E-02
5.07935216E+07	-1.43924848E-01	 1.09279056E-02
5.08057296E+07	-1.43906842E-01	 1.11384388E-02
5.08179377E+07	-1.43892557E-01	 1.13485645E-02
5.08301457E+07	-1.43874635E-01	 1.15563923E-02
5.08423537E+07	-1.43859943E-01	 1.17680066E-02
5.08545617E+07	-1.43843347E-01	 1.19784292E-02
5.08667698E+07	-1.43826589E-01	 1.21894320E-02
5.08789778E+07	-1.43802918E-01	 1.23935285E-02
5.08911858E+07	-1.43787215E-01	 1.26053662E-02
5.09033938E+07	-1.43771310E-01	 1.28107623E-02
5.09156019E+07	-1.43747216E-01	 1.30207475E-02
5.09278099E+07	-1.43726538E-01	 1.32372128E-02
5.09400179E+07	-1.43714472E-01	 1.34431748E-02
5.09522259E+07	-1.43687390E-01	 1.36525057E-02
5.09644340E+07	-1.43673486E-01	 1.38610863E-02
5.09766420E+07	-1.43654007E-01	 1.40655570E-02
5.09888500E+07	-1.43629698E-01	 1.42769525E-02
5.10010580E+07	-1.43609483E-01	 1.44827722E-02
5.10132661E+07	-1.43589327E-01	 1.46902378E-02
5.10254741E+07	-1.43562439E-01	 1.49013810E-02
5.10376821E+07	-1.43541593E-01	 1.51105077E-02
5.10498901E+07	-1.43512438E-01	 1.53173749E-02
5.10620982E+07	-1.43492948E-01	 1.55296431E-02
5.10743062E+07	-1.43475443E-01	 1.57341924E-02
5.10865142E+07	-1.43449804E-01	 1.59436360E-02
5.10987222E+07	-1.43418162E-01	 1.61580979E-02
5.11109303E+07	-1.43394938E-01	 1.63668820E-02
5.11231383E+07	-1.43373177E-01	 1.65712277E-02
5.11353463E+07	-1.43348196E-01	 1.67798709E-02
5.11475543E+07	-1.43324619E-01	 1.69857524E-02
5.11597624E+07	-1.43297404E-01	 1.71912433E-02
5.11719704E+07	-1.43267894E-01	 1.74010621E-02
5.11841784E+07	-1.43246530E-01	 1.76150288E-02
5.11963864E+07	-1.43217485E-01	 1.78165297E-02
5.12085944E+07	-1.43195886E-01	 1.80238052E-02
5.12208025E+07	-1.43160740E-01	 1.82369787E-02
5.12330105E+07	-1.43135233E-01	 1.84482640E-02
5.12452185E+07	-1.43107241E-01	 1.86531834E-02
5.12574265E+07	-1.43080094E-01	 1.88612063E-02
5.12696346E+07	-1.43055005E-01	 1.90671527E-02
5.12818426E+07	-1.43025896E-01	 1.92760921E-02
5.12940506E+07	-1.42992607E-01	 1.94857499E-02
5.13062586E+07	-1.42963087E-01	 1.96927989E-02
5.13184667E+07	-1.42930594E-01	 1.98975086E-02
5.13306747E+07	-1.42901999E-01	 2.01089886E-02
5.13428827E+07	-1.42874145E-01	 2.03115814E-02
5.13550907E+07	-1.42841718E-01	 2.05221611E-02
5.13672988E+07	-1.42810454E-01	 2.07283796E-02
5.13795068E+07	-1.42778355E-01	 2.09379730E-02
5.13917148E+07	-1.42746061E-01	 2.11459623E-02
5.14039228E+07	-1.42716728E-01	 2.13464323E-02
5.14161309E+07	-1.42687146E-01	 2.15637832E-02
5.14283389E+07	-1.42651604E-01	 2.17629884E-02
5.14405469E+07	-1.42617904E-01	 2.19727352E-02
5.14527549E+07	-1.42585813E-01	 2.21802187E-02
5.14649630E+07	-1.42549400E-01	 2.23862766E-02
5.14771710E+07	-1.42514736E-01	 2.25955856E-02
5.14893790E+07	-1.42476066E-01	 2.27976014E-02
5.15015870E+07	-1.42444568E-01	 2.30117556E-02
5.15137951E+07	-1.42414205E-01	 2.32171707E-02
5.15260031E+07	-1.42378372E-01	 2.34250080E-02
5.15382111E+07	-1.42342574E-01	 2.36296675E-02
5.15504191E+07	-1.42306829E-01	 2.38380360E-02
5.15626272E+07	-1.42269349E-01	 2.40436564E-02
5.15748352E+07	-1.42234654E-01	 2.42484147E-02
5.15870432E+07	-1.42206363E-01	 2.44557368E-02
5.15992512E+07	-1.42165628E-01	 2.46611247E-02
5.16114593E+07	-1.42127797E-01	 2.48720569E-02
5.16236673E+07	-1.42081618E-01	 2.50732298E-02
5.16358753E+07	-1.42046084E-01	 2.52804354E-02
5.16480833E+07	-1.42006789E-01	 2.54898139E-02
5.16602914E+07	-1.41978066E-01	 2.56934774E-02
5.16724994E+07	-1.41934926E-01	 2.58988717E-02
5.16847074E+07	-1.41900531E-01	 2.61059479E-02
5.16969154E+07	-1.41853190E-01	 2.63081398E-02
5.17091235E+07	-1.41816066E-01	 2.65148138E-02
5.17213315E+07	-1.41773232E-01	 2.67220915E-02
5.17335395E+07	-1.41734559E-01	 2.69246723E-02
5.17457475E+07	-1.41694966E-01	 2.71323216E-02
5.17579556E+07	-1.41646277E-01	 2.73397720E-02
5.17701636E+07	-1.41613227E-01	 2.75494126E-02
5.17823716E+07	-1.41571978E-01	 2.77525363E-02
5.17945796E+07	-1.41530485E-01	 2.79566985E-02
5.18067877E+07	-1.41490165E-01	 2.81597870E-02
5.18189957E+07	-1.41445101E-01	 2.83698922E-02
5.18312037E+07	-1.41399210E-01	 2.85720299E-02
5.18434117E+07	-1.41357028E-01	 2.87794634E-02
5.18556198E+07	-1.41317722E-01	 2.89798399E-02
5.18678278E+07	-1.41271829E-01	 2.91859622E-02
5.18800358E+07	-1.41225850E-01	 2.93959262E-02
5.18922438E+07	-1.41183317E-01	 2.96001517E-02
5.19044519E+07	-1.41139691E-01	 2.97966523E-02
5.19166599E+07	-1.41091766E-01	 3.00069007E-02
5.19288679E+07	-1.41044314E-01	 3.02131971E-02
5.19410759E+07	-1.41003616E-01	 3.04181391E-02
5.19532840E+07	-1.40955372E-01	 3.06239263E-02
5.19654920E+07	-1.40909136E-01	 3.08245594E-02
5.19777000E+07	-1.40860480E-01	 3.10327373E-02
5.19899080E+07	-1.40815997E-01	 3.12349374E-02
5.20021161E+07	-1.40771611E-01	 3.14366770E-02
5.20143241E+07	-1.40725479E-01	 3.16388021E-02
5.20265321E+07	-1.40675151E-01	 3.18434939E-02
5.20387401E+07	-1.40626181E-01	 3.20572309E-02
5.20509482E+07	-1.40581281E-01	 3.22552614E-02
5.20631562E+07	-1.40531080E-01	 3.24605814E-02
5.20753642E+07	-1.40482180E-01	 3.26673525E-02
5.20875722E+07	-1.40432835E-01	 3.28662899E-02
5.20997803E+07	-1.40377135E-01	 3.30673329E-02
5.21119883E+07	-1.40330659E-01	 3.32786847E-02
5.21241963E+07	-1.40284596E-01	 3.34767657E-02
5.21364043E+07	-1.40232161E-01	 3.36790369E-02
5.21486124E+07	-1.40190772E-01	 3.38859897E-02
5.21608204E+07	-1.40129598E-01	 3.40895714E-02
5.21730284E+07	-1.40081797E-01	 3.42929900E-02
5.21852364E+07	-1.40032566E-01	 3.44936318E-02
5.21974445E+07	-1.39974540E-01	 3.47006991E-02
5.22096525E+07	-1.39923601E-01	 3.49066523E-02
5.22218605E+07	-1.39873770E-01	 3.51050298E-02
5.22340685E+07	-1.39818086E-01	 3.53087180E-02
5.22462766E+07	-1.39766294E-01	 3.55108793E-02
5.22584846E+07	-1.39718387E-01	 3.57168529E-02
5.22706926E+07	-1.39661300E-01	 3.59153054E-02
5.22829006E+07	-1.39606429E-01	 3.61181338E-02
5.22951087E+07	-1.39552480E-01	 3.63233017E-02
5.23073167E+07	-1.39494871E-01	 3.65254050E-02
5.23195247E+07	-1.39440850E-01	 3.67268419E-02
5.23317327E+07	-1.39384236E-01	 3.69294394E-02
5.23439408E+07	-1.39330970E-01	 3.71351081E-02
5.23561488E+07	-1.39276730E-01	 3.73337913E-02
5.23683568E+07	-1.39222246E-01	 3.75371944E-02
5.23805648E+07	-1.39164806E-01	 3.77322177E-02
5.23927728E+07	-1.39110524E-01	 3.79412245E-02
5.24049809E+07	-1.39052345E-01	 3.81405619E-02
5.24171889E+07	-1.38994193E-01	 3.83434024E-02
5.24293969E+07	-1.38937390E-01	 3.85453698E-02
5.24416049E+07	-1.38875192E-01	 3.87444699E-02
5.24538130E+07	-1.38819824E-01	 3.89462874E-02
5.24660210E+07	-1.38764733E-01	 3.91531148E-02
5.24782290E+07	-1.38698146E-01	 3.93543939E-02
5.24904370E+07	-1.38644965E-01	 3.95483081E-02
5.25026451E+07	-1.38582121E-01	 3.97529801E-02
5.25148531E+07	-1.38526286E-01	 3.99519547E-02
5.25270611E+07	-1.38462717E-01	 4.01576768E-02
5.25392691E+07	-1.38404140E-01	 4.03553235E-02
5.25514772E+07	-1.38348746E-01	 4.05507885E-02
5.25636852E+07	-1.38283559E-01	 4.07499170E-02
5.25758932E+07	-1.38224918E-01	 4.09569876E-02
5.25881012E+07	-1.38164135E-01	 4.11578479E-02
5.26003093E+07	-1.38099946E-01	 4.13576131E-02
5.26125173E+07	-1.38038424E-01	 4.15549981E-02
5.26247253E+07	-1.37974983E-01	 4.17538845E-02
5.26369333E+07	-1.37913336E-01	 4.19519529E-02
5.26491414E+07	-1.37851465E-01	 4.21546598E-02
5.26613494E+07	-1.37787967E-01	 4.23598613E-02
5.26735574E+07	-1.37728298E-01	 4.25538329E-02
5.26857654E+07	-1.37662058E-01	 4.27523180E-02
5.26979735E+07	-1.37593630E-01	 4.29550126E-02
5.27101815E+07	-1.37531215E-01	 4.31527137E-02
5.27223895E+07	-1.37464441E-01	 4.33499669E-02
5.27345975E+07	-1.37402166E-01	 4.35539950E-02
5.27468056E+07	-1.37334746E-01	 4.37526812E-02
5.27590136E+07	-1.37270444E-01	 4.39525702E-02
5.27712216E+07	-1.37202944E-01	 4.41553716E-02
5.27834296E+07	-1.37137975E-01	 4.43484694E-02
5.27956377E+07	-1.37070747E-01	 4.45494588E-02
5.28078457E+07	-1.37008062E-01	 4.47471785E-02
5.28200537E+07	-1.36939636E-01	 4.49459147E-02
5.28322617E+07	-1.36868329E-01	 4.51424292E-02
5.28444698E+07	-1.36808110E-01	 4.53393845E-02
5.28566778E+07	-1.36730109E-01	 4.55397225E-02
5.28688858E+07	-1.36669350E-01	 4.57360735E-02
5.28810938E+07	-1.36600344E-01	 4.59347946E-02
5.28933019E+07	-1.36533238E-01	 4.61327691E-02
5.29055099E+07	-1.36460111E-01	 4.63354089E-02
5.29177179E+07	-1.36395671E-01	 4.65271409E-02
5.29299259E+07	-1.36319725E-01	 4.67227032E-02
5.29421340E+07	-1.36251274E-01	 4.69280097E-02
5.29543420E+07	-1.36180539E-01	 4.71187024E-02
5.29665500E+07	-1.36108527E-01	 4.73210440E-02
5.29787580E+07	-1.36038307E-01	 4.75166993E-02
5.29909661E+07	-1.35965565E-01	 4.77101754E-02
5.30031741E+07	-1.35898092E-01	 4.79097132E-02
5.30153821E+07	-1.35824178E-01	 4.81091738E-02
5.30275901E+07	-1.35749861E-01	 4.83044932E-02
5.30397982E+07	-1.35672998E-01	 4.84995061E-02
5.30520062E+07	-1.35606112E-01	 4.86983035E-02
5.30642142E+07	-1.35532092E-01	 4.88871061E-02
5.30764222E+07	-1.35465855E-01	 4.90885300E-02
5.30886303E+07	-1.35380304E-01	 4.92828664E-02
5.31008383E+07	-1.35315738E-01	 4.94827562E-02
5.31130463E+07	-1.35235545E-01	 4.96742246E-02
5.31252543E+07	-1.35168973E-01	 4.98716673E-02
5.31374624E+07	-1.35094431E-01	 5.00670862E-02
5.31496704E+07	-1.35012159E-01	 5.02621240E-02
5.31618784E+07	-1.34941907E-01	 5.04574193E-02
5.31740864E+07	-1.34859916E-01	 5.06527518E-02
5.31862945E+07	-1.34784390E-01	 5.08459574E-02
5.31985025E+07	-1.34711274E-01	 5.10447005E-02
5.32107105E+07	-1.34637961E-01	 5.12371395E-02
5.32229185E+07	-1.34557829E-01	 5.14349718E-02
5.32351266E+07	-1.34482846E-01	 5.16261046E-02
5.32473346E+07	-1.34405284E-01	 5.18232021E-02
5.32595426E+07	-1.34327987E-01	 5.20110911E-02
5.32717506E+07	-1.34248804E-01	 5.22099437E-02
5.32839587E+07	-1.34174245E-01	 5.24107297E-02
5.32961667E+07	-1.34088880E-01	 5.25974125E-02
5.33083747E+07	-1.34015235E-01	 5.27939722E-02
5.33205827E+07	-1.33931928E-01	 5.29867370E-02
5.33327908E+07	-1.33857232E-01	 5.31830106E-02
5.33449988E+07	-1.33773963E-01	 5.33755354E-02
5.33572068E+07	-1.33692679E-01	 5.35655883E-02
5.33694148E+07	-1.33615692E-01	 5.37620005E-02
5.33816229E+07	-1.33531173E-01	 5.39571321E-02
5.33938309E+07	-1.33456427E-01	 5.41465073E-02
5.34060389E+07	-1.33374144E-01	 5.43420203E-02
5.34182469E+07	-1.33287418E-01	 5.45304015E-02
5.34304550E+07	-1.33207301E-01	 5.47296031E-02
5.34426630E+07	-1.33125201E-01	 5.49204897E-02
5.34548710E+07	-1.33043384E-01	 5.51116731E-02
5.34670790E+07	-1.32963668E-01	 5.53071228E-02
5.34792871E+07	-1.32882783E-01	 5.54992863E-02
5.34914951E+07	-1.32801303E-01	 5.56878691E-02
5.35037031E+07	-1.32711030E-01	 5.58794599E-02
5.35159111E+07	-1.32631823E-01	 5.60722849E-02
5.35281192E+07	-1.32540804E-01	 5.62646165E-02
5.35403272E+07	-1.32462688E-01	 5.64528634E-02
5.35525352E+07	-1.32376331E-01	 5.66469933E-02
5.35647432E+07	-1.32290096E-01	 5.68372866E-02
5.35769512E+07	-1.32203947E-01	 5.70270944E-02
5.35891593E+07	-1.32115394E-01	 5.72188080E-02
5.36013673E+07	-1.32032269E-01	 5.74159594E-02
5.36135753E+07	-1.31946318E-01	 5.76023816E-02
5.36257833E+07	-1.31858240E-01	 5.77921231E-02
5.36379914E+07	-1.31772445E-01	 5.79814739E-02
5.36501994E+07	-1.31685425E-01	 5.81734518E-02
5.36624074E+07	-1.31598485E-01	 5.83601327E-02
5.36746154E+07	-1.31511386E-01	 5.85532998E-02
5.36868235E+07	-1.31422365E-01	 5.87400696E-02
5.36990315E+07	-1.31337247E-01	 5.89358934E-02
5.37112395E+07	-1.31244060E-01	 5.91231448E-02
5.37234475E+07	-1.31161379E-01	 5.93131752E-02
5.37356556E+07	-1.31076206E-01	 5.95089237E-02
5.37478636E+07	-1.30977993E-01	 5.96936162E-02
5.37600716E+07	-1.30890561E-01	 5.98813012E-02
5.37722796E+07	-1.30798654E-01	 6.00677885E-02
5.37844877E+07	-1.30708882E-01	 6.02585220E-02
5.37966957E+07	-1.30616625E-01	 6.04506200E-02
5.38089037E+07	-1.30529313E-01	 6.06363515E-02
5.38211117E+07	-1.30443696E-01	 6.08260556E-02
5.38333198E+07	-1.30351855E-01	 6.10138144E-02
5.38455278E+07	-1.30257795E-01	 6.12044467E-02
5.38577358E+07	-1.30164985E-01	 6.13877549E-02
5.38699438E+07	-1.30069297E-01	 6.15743728E-02
5.38821519E+07	-1.29985565E-01	 6.17704960E-02
5.38943599E+07	-1.29889490E-01	 6.19538411E-02
5.39065679E+07	-1.29795554E-01	 6.21430159E-02
5.39187759E+07	-1.29701789E-01	 6.23253060E-02
5.39309840E+07	-1.29609718E-01	 6.25180049E-02
5.39431920E+07	-1.29509846E-01	 6.26986710E-02
5.39554000E+07	-1.29425485E-01	 6.28966897E-02
5.39676080E+07	-1.29325196E-01	 6.30763811E-02
5.39798161E+07	-1.29225913E-01	 6.32605560E-02
5.39920241E+07	-1.29136469E-01	 6.34480783E-02
5.40042321E+07	-1.29044989E-01	 6.36421342E-02
5.40164401E+07	-1.28947897E-01	 6.38227397E-02
5.40286482E+07	-1.28851016E-01	 6.40066929E-02
5.40408562E+07	-1.28755964E-01	 6.41909630E-02
5.40530642E+07	-1.28659794E-01	 6.43804628E-02
5.40652722E+07	-1.28563802E-01	 6.45623343E-02
5.40774803E+07	-1.28465875E-01	 6.47496107E-02
5.40896883E+07	-1.28373005E-01	 6.49359292E-02
5.41018963E+07	-1.28276369E-01	 6.51159052E-02
5.41141043E+07	-1.28181904E-01	 6.53034127E-02
5.41263124E+07	-1.28081338E-01	 6.54921544E-02
5.41385204E+07	-1.27979828E-01	 6.56722875E-02
5.41507284E+07	-1.27880148E-01	 6.58660061E-02
5.41629364E+07	-1.27785263E-01	 6.60468603E-02
5.41751445E+07	-1.27686342E-01	 6.62371396E-02
5.41873525E+07	-1.27586631E-01	 6.64129523E-02
5.41995605E+07	-1.27485951E-01	 6.66003063E-02
5.42117685E+07	-1.27383306E-01	 6.67830873E-02
5.42239766E+07	-1.27285049E-01	 6.69682871E-02
5.42361846E+07	-1.27189418E-01	 6.71500110E-02
5.42483926E+07	-1.27083477E-01	 6.73326923E-02
5.42606006E+07	-1.26984321E-01	 6.75173212E-02
5.42728087E+07	-1.26881017E-01	 6.77018461E-02
5.42850167E+07	-1.26780445E-01	 6.78819796E-02
5.42972247E+07	-1.26684084E-01	 6.80663828E-02
5.43094327E+07	-1.26578158E-01	 6.82525015E-02
5.43216408E+07	-1.26472878E-01	 6.84318313E-02
5.43338488E+07	-1.26373634E-01	 6.86120979E-02
5.43460568E+07	-1.26270884E-01	 6.87974252E-02
5.43582648E+07	-1.26166374E-01	 6.89747969E-02
5.43704729E+07	-1.26062285E-01	 6.91608971E-02
5.43826809E+07	-1.25962367E-01	 6.93433938E-02
5.43948889E+07	-1.25857101E-01	 6.95158613E-02
5.44070969E+07	-1.25750554E-01	 6.97055806E-02
5.44193050E+07	-1.25648802E-01	 6.98893897E-02
5.44315130E+07	-1.25544480E-01	 7.00593624E-02
5.44437210E+07	-1.25441385E-01	 7.02457097E-02
5.44559290E+07	-1.25334616E-01	 7.04266728E-02
5.44681371E+07	-1.25228857E-01	 7.06037103E-02
5.44803451E+07	-1.25117518E-01	 7.07924560E-02
5.44925531E+07	-1.25016103E-01	 7.09708665E-02
5.45047611E+07	-1.24911801E-01	 7.11482604E-02
5.45169692E+07	-1.24804105E-01	 7.13323579E-02
5.45291772E+07	-1.24689336E-01	 7.15146295E-02
5.45413852E+07	-1.24591674E-01	 7.16850310E-02
5.45535932E+07	-1.24479291E-01	 7.18709024E-02
5.45658013E+07	-1.24370808E-01	 7.20433437E-02
5.45780093E+07	-1.24267188E-01	 7.22209893E-02
5.45902173E+07	-1.24157359E-01	 7.24044447E-02
5.46024253E+07	-1.24050853E-01	 7.25827323E-02
5.46146334E+07	-1.23939405E-01	 7.27651864E-02
5.46268414E+07	-1.23831214E-01	 7.29350644E-02
5.46390494E+07	-1.23723484E-01	 7.31162431E-02
5.46512574E+07	-1.23622398E-01	 7.32951036E-02
5.46634655E+07	-1.23504782E-01	 7.34796043E-02
5.46756735E+07	-1.23392804E-01	 7.36529168E-02
5.46878815E+07	-1.23282731E-01	 7.38300724E-02
5.47000895E+07	-1.23176335E-01	 7.40056344E-02
5.47122976E+07	-1.23062374E-01	 7.41853715E-02
5.47245056E+07	-1.22952967E-01	 7.43602377E-02
5.47367136E+07	-1.22843804E-01	 7.45356325E-02
5.47489216E+07	-1.22731364E-01	 7.47129911E-02
5.47611296E+07	-1.22618397E-01	 7.48914910E-02
5.47733377E+07	-1.22511125E-01	 7.50713668E-02
5.47855457E+07	-1.22395023E-01	 7.52466923E-02
5.47977537E+07	-1.22281056E-01	 7.54190936E-02
5.48099617E+07	-1.22170872E-01	 7.55966767E-02
5.48221698E+07	-1.22055025E-01	 7.57733238E-02
5.48343778E+07	-1.21940142E-01	 7.59444572E-02
5.48465858E+07	-1.21831388E-01	 7.61227012E-02
5.48587938E+07	-1.21713994E-01	 7.62989398E-02
5.48710019E+07	-1.21599145E-01	 7.64741863E-02
5.48832099E+07	-1.21486299E-01	 7.66556603E-02
5.48954179E+07	-1.21369230E-01	 7.68287381E-02
5.49076259E+07	-1.21257102E-01	 7.70033623E-02
5.49198340E+07	-1.21144706E-01	 7.71683817E-02
5.49320420E+07	-1.21022365E-01	 7.73463129E-02
5.49442500E+07	-1.20909639E-01	 7.75228232E-02
5.49564580E+07	-1.20790677E-01	 7.76928022E-02
5.49686661E+07	-1.20676027E-01	 7.78675917E-02
5.49808741E+07	-1.20560521E-01	 7.80420576E-02
5.49930821E+07	-1.20443506E-01	 7.82195715E-02
5.50052901E+07	-1.20323489E-01	 7.83880867E-02
5.50174982E+07	-1.20208128E-01	 7.85604232E-02
5.50297062E+07	-1.20093111E-01	 7.87252888E-02
5.50419142E+07	-1.19972318E-01	 7.89109200E-02
5.50541222E+07	-1.19851235E-01	 7.90808958E-02
5.50663303E+07	-1.19738276E-01	 7.92502768E-02
5.50785383E+07	-1.19616343E-01	 7.94266456E-02
5.50907463E+07	-1.19493400E-01	 7.95927958E-02
5.51029543E+07	-1.19375942E-01	 7.97620691E-02
5.51151624E+07	-1.19260882E-01	 7.99352768E-02
5.51273704E+07	-1.19139337E-01	 8.01071045E-02
