! COPPER MOUNTAIN TECHNOLOGIES, PLANAR TR1300/1, 00071119, 20.2.2/1.0
! Date: 1/9/2024 7:25:15 PM
! Data: Format [Calibration Info]
! Freq          	S11: Re/Im F1                  
# HZ S RI R 50
5.00000000E+07	 1.54253010E-01	 2.55576950E-02
5.00122080E+07	 1.54290838E-01	 2.53208007E-02
5.00244160E+07	 1.54318606E-01	 2.50817582E-02
5.00366241E+07	 1.54357696E-01	 2.48416163E-02
5.00488321E+07	 1.54391813E-01	 2.45977992E-02
5.00610401E+07	 1.54428537E-01	 2.43618067E-02
5.00732481E+07	 1.54465512E-01	 2.41256757E-02
5.00854562E+07	 1.54495936E-01	 2.38755998E-02
5.00976642E+07	 1.54527806E-01	 2.36397953E-02
5.01098722E+07	 1.54562144E-01	 2.34026235E-02
5.01220802E+07	 1.54593172E-01	 2.31660189E-02
5.01342883E+07	 1.54623400E-01	 2.29138611E-02
5.01464963E+07	 1.54653209E-01	 2.26811185E-02
5.01587043E+07	 1.54690729E-01	 2.24405288E-02
5.01709123E+07	 1.54725316E-01	 2.22034100E-02
5.01831204E+07	 1.54754459E-01	 2.19577320E-02
5.01953284E+07	 1.54784763E-01	 2.17182654E-02
5.02075364E+07	 1.54806441E-01	 2.14783128E-02
5.02197444E+07	 1.54845083E-01	 2.12383913E-02
5.02319525E+07	 1.54870432E-01	 2.10035649E-02
5.02441605E+07	 1.54898340E-01	 2.07529645E-02
5.02563685E+07	 1.54928302E-01	 2.05266670E-02
5.02685765E+07	 1.54954291E-01	 2.02788360E-02
5.02807846E+07	 1.54986130E-01	 2.00412783E-02
5.02929926E+07	 1.55010988E-01	 1.97961525E-02
5.03052006E+07	 1.55045791E-01	 1.95577181E-02
5.03174086E+07	 1.55061773E-01	 1.93221217E-02
5.03296167E+07	 1.55096887E-01	 1.90765464E-02
5.03418247E+07	 1.55117764E-01	 1.88386881E-02
5.03540327E+07	 1.55147413E-01	 1.85985065E-02
5.03662407E+07	 1.55169361E-01	 1.83551611E-02
5.03784488E+07	 1.55194549E-01	 1.81182672E-02
5.03906568E+07	 1.55220920E-01	 1.78749177E-02
5.04028648E+07	 1.55247518E-01	 1.76360854E-02
5.04150728E+07	 1.55267533E-01	 1.73939506E-02
5.04272809E+07	 1.55292482E-01	 1.71492225E-02
5.04394889E+07	 1.55314645E-01	 1.69097232E-02
5.04516969E+07	 1.55346567E-01	 1.66671815E-02
5.04639049E+07	 1.55361406E-01	 1.64365677E-02
5.04761130E+07	 1.55387099E-01	 1.61873478E-02
5.04883210E+07	 1.55403905E-01	 1.59427897E-02
5.05005290E+07	 1.55430544E-01	 1.57073267E-02
5.05127370E+07	 1.55452222E-01	 1.54680393E-02
5.05249451E+07	 1.55464212E-01	 1.52258192E-02
5.05371531E+07	 1.55499259E-01	 1.49841277E-02
5.05493611E+07	 1.55507535E-01	 1.47447736E-02
5.05615691E+07	 1.55528711E-01	 1.45052469E-02
5.05737772E+07	 1.55547851E-01	 1.42570218E-02
5.05859852E+07	 1.55567642E-01	 1.40181770E-02
5.05981932E+07	 1.55584315E-01	 1.37730521E-02
5.06104012E+07	 1.55602676E-01	 1.35359563E-02
5.06226093E+07	 1.55617627E-01	 1.32915614E-02
5.06348173E+07	 1.55643711E-01	 1.30556686E-02
5.06470253E+07	 1.55657809E-01	 1.28142416E-02
5.06592333E+07	 1.55676387E-01	 1.25715288E-02
5.06714414E+07	 1.55694896E-01	 1.23285352E-02
5.06836494E+07	 1.55707223E-01	 1.20898844E-02
5.06958574E+07	 1.55724910E-01	 1.18480100E-02
5.07080654E+07	 1.55736661E-01	 1.16088626E-02
5.07202735E+07	 1.55753181E-01	 1.13651218E-02
5.07324815E+07	 1.55770075E-01	 1.11212059E-02
5.07446895E+07	 1.55782000E-01	 1.08845583E-02
5.07568975E+07	 1.55792725E-01	 1.06413640E-02
5.07691056E+07	 1.55806598E-01	 1.04020140E-02
5.07813136E+07	 1.55820507E-01	 1.01504442E-02
5.07935216E+07	 1.55839946E-01	 9.91521828E-03
5.08057296E+07	 1.55850391E-01	 9.67116228E-03
5.08179377E+07	 1.55861539E-01	 9.43016154E-03
5.08301457E+07	 1.55871327E-01	 9.18263837E-03
5.08423537E+07	 1.55877123E-01	 8.94603837E-03
5.08545617E+07	 1.55888677E-01	 8.70645659E-03
5.08667698E+07	 1.55902911E-01	 8.46507169E-03
5.08789778E+07	 1.55915041E-01	 8.21740217E-03
5.08911858E+07	 1.55925578E-01	 7.97747489E-03
5.09033938E+07	 1.55938129E-01	 7.73684903E-03
5.09156019E+07	 1.55945503E-01	 7.49181672E-03
5.09278099E+07	 1.55951998E-01	 7.25347020E-03
5.09400179E+07	 1.55964623E-01	 7.01628102E-03
5.09522259E+07	 1.55972176E-01	 6.77038583E-03
5.09644340E+07	 1.55974035E-01	 6.53243665E-03
5.09766420E+07	 1.55980059E-01	 6.28231712E-03
5.09888500E+07	 1.55988684E-01	 6.04593427E-03
5.10010580E+07	 1.55993852E-01	 5.80296029E-03
5.10132661E+07	 1.56001104E-01	 5.56157431E-03
5.10254741E+07	 1.56011418E-01	 5.32096326E-03
5.10376821E+07	 1.56012408E-01	 5.07673342E-03
5.10498901E+07	 1.56024445E-01	 4.83230077E-03
5.10620982E+07	 1.56025792E-01	 4.59285606E-03
5.10743062E+07	 1.56025847E-01	 4.35129924E-03
5.10865142E+07	 1.56033493E-01	 4.10640057E-03
5.10987222E+07	 1.56042962E-01	 3.87293691E-03
5.11109303E+07	 1.56041813E-01	 3.62810241E-03
5.11231383E+07	 1.56042356E-01	 3.38410219E-03
5.11353463E+07	 1.56049191E-01	 3.14027713E-03
5.11475543E+07	 1.56050169E-01	 2.89158970E-03
5.11597624E+07	 1.56051940E-01	 2.66060942E-03
5.11719704E+07	 1.56063304E-01	 2.41389664E-03
5.11841784E+07	 1.56060627E-01	 2.17200784E-03
5.11963864E+07	 1.56059281E-01	 1.92859306E-03
5.12085944E+07	 1.56054244E-01	 1.68784310E-03
5.12208025E+07	 1.56062066E-01	 1.44507651E-03
5.12330105E+07	 1.56067327E-01	 1.20953880E-03
5.12452185E+07	 1.56063403E-01	 9.60638939E-04
5.12574265E+07	 1.56057625E-01	 7.20332746E-04
5.12696346E+07	 1.56054220E-01	 4.77665532E-04
5.12818426E+07	 1.56052759E-01	 2.36201667E-04
5.12940506E+07	 1.56054692E-01	-3.68374940E-06
5.13062586E+07	 1.56048555E-01	-2.48948853E-04
5.13184667E+07	 1.56050085E-01	-4.90283555E-04
5.13306747E+07	 1.56045219E-01	-7.32016619E-04
5.13428827E+07	 1.56043536E-01	-9.70284114E-04
5.13550907E+07	 1.56039673E-01	-1.21710991E-03
5.13672988E+07	 1.56038996E-01	-1.46571986E-03
5.13795068E+07	 1.56033199E-01	-1.70113458E-03
5.13917148E+07	 1.56025869E-01	-1.94212616E-03
5.14039228E+07	 1.56025565E-01	-2.18610596E-03
5.14161309E+07	 1.56013194E-01	-2.42138783E-03
5.14283389E+07	 1.56003094E-01	-2.66676971E-03
5.14405469E+07	 1.56003655E-01	-2.91001458E-03
5.14527549E+07	 1.55999809E-01	-3.15128339E-03
5.14649630E+07	 1.55993662E-01	-3.39704322E-03
5.14771710E+07	 1.55983600E-01	-3.63312590E-03
5.14893790E+07	 1.55976572E-01	-3.87929982E-03
5.15015870E+07	 1.55968480E-01	-4.11852660E-03
5.15137951E+07	 1.55959199E-01	-4.36417574E-03
5.15260031E+07	 1.55949918E-01	-4.60005847E-03
5.15382111E+07	 1.55942937E-01	-4.84788430E-03
5.15504191E+07	 1.55928444E-01	-5.08694647E-03
5.15626272E+07	 1.55922870E-01	-5.33240646E-03
5.15748352E+07	 1.55911429E-01	-5.56871577E-03
5.15870432E+07	 1.55901852E-01	-5.81101740E-03
5.15992512E+07	 1.55891063E-01	-6.05357451E-03
5.16114593E+07	 1.55874524E-01	-6.29532814E-03
5.16236673E+07	 1.55869890E-01	-6.54062956E-03
5.16358753E+07	 1.55863856E-01	-6.77799864E-03
5.16480833E+07	 1.55847409E-01	-7.02229038E-03
5.16602914E+07	 1.55834082E-01	-7.26144153E-03
5.16724994E+07	 1.55815465E-01	-7.50047013E-03
5.16847074E+07	 1.55804926E-01	-7.74514743E-03
5.16969154E+07	 1.55786237E-01	-7.98814629E-03
5.17091235E+07	 1.55775942E-01	-8.23246457E-03
5.17213315E+07	 1.55765670E-01	-8.47155103E-03
5.17335395E+07	 1.55750694E-01	-8.71347345E-03
5.17457475E+07	 1.55736044E-01	-8.95462515E-03
5.17579556E+07	 1.55717887E-01	-9.18969515E-03
5.17701636E+07	 1.55703615E-01	-9.43853225E-03
5.17823716E+07	 1.55686206E-01	-9.68026460E-03
5.17945796E+07	 1.55669801E-01	-9.91813526E-03
5.18067877E+07	 1.55646303E-01	-1.01590181E-02
5.18189957E+07	 1.55634377E-01	-1.04006560E-02
5.18312037E+07	 1.55616137E-01	-1.06414521E-02
5.18434117E+07	 1.55595931E-01	-1.08808644E-02
5.18556198E+07	 1.55583490E-01	-1.11293880E-02
5.18678278E+07	 1.55561331E-01	-1.13680973E-02
5.18800358E+07	 1.55544850E-01	-1.16037962E-02
5.18922438E+07	 1.55521899E-01	-1.18507861E-02
5.19044519E+07	 1.55503021E-01	-1.20933445E-02
5.19166599E+07	 1.55483042E-01	-1.23332965E-02
5.19288679E+07	 1.55459283E-01	-1.25736993E-02
5.19410759E+07	 1.55440763E-01	-1.28117804E-02
5.19532840E+07	 1.55414557E-01	-1.30565337E-02
5.19654920E+07	 1.55389918E-01	-1.32958225E-02
5.19777000E+07	 1.55375753E-01	-1.35386329E-02
5.19899080E+07	 1.55349632E-01	-1.37832056E-02
5.20021161E+07	 1.55327080E-01	-1.40184203E-02
5.20143241E+07	 1.55304680E-01	-1.42630805E-02
5.20265321E+07	 1.55284558E-01	-1.45020546E-02
5.20387401E+07	 1.55254053E-01	-1.47411890E-02
5.20509482E+07	 1.55228484E-01	-1.49812009E-02
5.20631562E+07	 1.55203375E-01	-1.52235825E-02
5.20753642E+07	 1.55181295E-01	-1.54570359E-02
5.20875722E+07	 1.55156379E-01	-1.57081044E-02
5.20997803E+07	 1.55135484E-01	-1.59416015E-02
5.21119883E+07	 1.55109428E-01	-1.61825616E-02
5.21241963E+07	 1.55076682E-01	-1.64232737E-02
5.21364043E+07	 1.55049767E-01	-1.66639226E-02
5.21486124E+07	 1.55019775E-01	-1.69054991E-02
5.21608204E+07	 1.54993547E-01	-1.71469243E-02
5.21730284E+07	 1.54965459E-01	-1.73857172E-02
5.21852364E+07	 1.54934886E-01	-1.76285520E-02
5.21974445E+07	 1.54911326E-01	-1.78675959E-02
5.22096525E+07	 1.54877577E-01	-1.81110392E-02
5.22218605E+07	 1.54847908E-01	-1.83489321E-02
5.22340685E+07	 1.54824750E-01	-1.85866507E-02
5.22462766E+07	 1.54784583E-01	-1.88266713E-02
5.22584846E+07	 1.54752444E-01	-1.90680313E-02
5.22706926E+07	 1.54721485E-01	-1.93097389E-02
5.22829006E+07	 1.54694994E-01	-1.95487717E-02
5.22951087E+07	 1.54660210E-01	-1.97838057E-02
5.23073167E+07	 1.54630294E-01	-2.00236934E-02
5.23195247E+07	 1.54602140E-01	-2.02651753E-02
5.23317327E+07	 1.54564149E-01	-2.05053794E-02
5.23439408E+07	 1.54530286E-01	-2.07481196E-02
5.23561488E+07	 1.54500117E-01	-2.09873301E-02
5.23683568E+07	 1.54461692E-01	-2.12285257E-02
5.23805648E+07	 1.54426647E-01	-2.14646846E-02
5.23927728E+07	 1.54395652E-01	-2.17042818E-02
5.24049809E+07	 1.54352851E-01	-2.19475096E-02
5.24171889E+07	 1.54325082E-01	-2.21836147E-02
5.24293969E+07	 1.54290571E-01	-2.24197014E-02
5.24416049E+07	 1.54247443E-01	-2.26600550E-02
5.24538130E+07	 1.54214749E-01	-2.28999157E-02
5.24660210E+07	 1.54174021E-01	-2.31370865E-02
5.24782290E+07	 1.54140251E-01	-2.33784536E-02
5.24904370E+07	 1.54100745E-01	-2.36218776E-02
5.25026451E+07	 1.54066930E-01	-2.38551152E-02
5.25148531E+07	 1.54028245E-01	-2.40979373E-02
5.25270611E+07	 1.53983074E-01	-2.43295885E-02
5.25392691E+07	 1.53941548E-01	-2.45736411E-02
5.25514772E+07	 1.53907398E-01	-2.48102398E-02
5.25636852E+07	 1.53868030E-01	-2.50521373E-02
5.25758932E+07	 1.53827990E-01	-2.52913606E-02
5.25881012E+07	 1.53779092E-01	-2.55284501E-02
5.26003093E+07	 1.53742211E-01	-2.57643516E-02
5.26125173E+07	 1.53706789E-01	-2.59988893E-02
5.26247253E+07	 1.53666293E-01	-2.62405099E-02
5.26369333E+07	 1.53622266E-01	-2.64805466E-02
5.26491414E+07	 1.53580608E-01	-2.67178989E-02
5.26613494E+07	 1.53535371E-01	-2.69547533E-02
5.26735574E+07	 1.53493791E-01	-2.71994701E-02
5.26857654E+07	 1.53452712E-01	-2.74314453E-02
5.26979735E+07	 1.53407383E-01	-2.76701275E-02
5.27101815E+07	 1.53359214E-01	-2.79114917E-02
5.27223895E+07	 1.53318218E-01	-2.81428913E-02
5.27345975E+07	 1.53269452E-01	-2.83833434E-02
5.27468056E+07	 1.53225522E-01	-2.86185322E-02
5.27590136E+07	 1.53181590E-01	-2.88577441E-02
5.27712216E+07	 1.53128233E-01	-2.91001171E-02
5.27834296E+07	 1.53088790E-01	-2.93375053E-02
5.27956377E+07	 1.53041337E-01	-2.95684499E-02
5.28078457E+07	 1.52991059E-01	-2.98113601E-02
5.28200537E+07	 1.52946838E-01	-3.00461630E-02
5.28322617E+07	 1.52903430E-01	-3.02813406E-02
5.28444698E+07	 1.52851392E-01	-3.05231775E-02
5.28566778E+07	 1.52804796E-01	-3.07562483E-02
5.28688858E+07	 1.52754078E-01	-3.09920441E-02
5.28810938E+07	 1.52704329E-01	-3.12339598E-02
5.28933019E+07	 1.52658544E-01	-3.14698112E-02
5.29055099E+07	 1.52604785E-01	-3.17048943E-02
5.29177179E+07	 1.52552105E-01	-3.19401814E-02
5.29299259E+07	 1.52505738E-01	-3.21861289E-02
5.29421340E+07	 1.52454614E-01	-3.24135199E-02
5.29543420E+07	 1.52403104E-01	-3.26497911E-02
5.29665500E+07	 1.52347130E-01	-3.28908903E-02
5.29787580E+07	 1.52297612E-01	-3.31293281E-02
5.29909661E+07	 1.52243669E-01	-3.33649191E-02
5.30031741E+07	 1.52194303E-01	-3.35968702E-02
5.30153821E+07	 1.52141937E-01	-3.38325086E-02
5.30275901E+07	 1.52085154E-01	-3.40657408E-02
5.30397982E+07	 1.52038108E-01	-3.43069670E-02
5.30520062E+07	 1.51978100E-01	-3.45415111E-02
5.30642142E+07	 1.51923715E-01	-3.47803390E-02
5.30764222E+07	 1.51866414E-01	-3.50086988E-02
5.30886303E+07	 1.51820077E-01	-3.52422354E-02
5.31008383E+07	 1.51757516E-01	-3.54781373E-02
5.31130463E+07	 1.51709535E-01	-3.57162891E-02
5.31252543E+07	 1.51644529E-01	-3.59547079E-02
5.31374624E+07	 1.51589109E-01	-3.61855131E-02
5.31496704E+07	 1.51532512E-01	-3.64225124E-02
5.31618784E+07	 1.51473733E-01	-3.66564278E-02
5.31740864E+07	 1.51420732E-01	-3.68886834E-02
5.31862945E+07	 1.51364519E-01	-3.71249142E-02
5.31985025E+07	 1.51306152E-01	-3.73603478E-02
5.32107105E+07	 1.51242161E-01	-3.75941064E-02
5.32229185E+07	 1.51182850E-01	-3.78287163E-02
5.32351266E+07	 1.51123680E-01	-3.80654421E-02
5.32473346E+07	 1.51065876E-01	-3.82995132E-02
5.32595426E+07	 1.51006884E-01	-3.85362999E-02
5.32717506E+07	 1.50942499E-01	-3.87658220E-02
5.32839587E+07	 1.50884531E-01	-3.89996356E-02
5.32961667E+07	 1.50827377E-01	-3.92346887E-02
5.33083747E+07	 1.50764897E-01	-3.94705393E-02
5.33205827E+07	 1.50700886E-01	-3.97064156E-02
5.33327908E+07	 1.50641671E-01	-3.99332814E-02
5.33449988E+07	 1.50573943E-01	-4.01695259E-02
5.33572068E+07	 1.50516955E-01	-4.04038056E-02
5.33694148E+07	 1.50449552E-01	-4.06378121E-02
5.33816229E+07	 1.50390258E-01	-4.08701974E-02
5.33938309E+07	 1.50317130E-01	-4.11066539E-02
5.34060389E+07	 1.50256657E-01	-4.13350227E-02
5.34182469E+07	 1.50197572E-01	-4.15755341E-02
5.34304550E+07	 1.50128912E-01	-4.18050960E-02
5.34426630E+07	 1.50065698E-01	-4.20343300E-02
5.34548710E+07	 1.49994569E-01	-4.22656315E-02
5.34670790E+07	 1.49929512E-01	-4.25012322E-02
5.34792871E+07	 1.49856511E-01	-4.27359325E-02
5.34914951E+07	 1.49797250E-01	-4.29641688E-02
5.35037031E+07	 1.49733559E-01	-4.31990301E-02
5.35159111E+07	 1.49661228E-01	-4.34299776E-02
5.35281192E+07	 1.49596602E-01	-4.36648812E-02
5.35403272E+07	 1.49522367E-01	-4.38987449E-02
5.35525352E+07	 1.49456889E-01	-4.41237148E-02
5.35647432E+07	 1.49388843E-01	-4.43590044E-02
5.35769512E+07	 1.49325781E-01	-4.45933877E-02
5.35891593E+07	 1.49251943E-01	-4.48240873E-02
5.36013673E+07	 1.49182640E-01	-4.50527373E-02
5.36135753E+07	 1.49108807E-01	-4.52871229E-02
5.36257833E+07	 1.49045755E-01	-4.55135713E-02
5.36379914E+07	 1.48975218E-01	-4.57438620E-02
5.36501994E+07	 1.48901992E-01	-4.59822920E-02
5.36624074E+07	 1.48823989E-01	-4.62102441E-02
5.36746154E+07	 1.48756024E-01	-4.64438132E-02
5.36868235E+07	 1.48684801E-01	-4.66762263E-02
5.36990315E+07	 1.48612989E-01	-4.68991141E-02
5.37112395E+07	 1.48538329E-01	-4.71294248E-02
5.37234475E+07	 1.48467598E-01	-4.73654417E-02
5.37356556E+07	 1.48388496E-01	-4.75920185E-02
5.37478636E+07	 1.48319514E-01	-4.78199281E-02
5.37600716E+07	 1.48240998E-01	-4.80499720E-02
5.37722796E+07	 1.48170557E-01	-4.82869212E-02
5.37844877E+07	 1.48093823E-01	-4.85115868E-02
5.37966957E+07	 1.48023330E-01	-4.87446200E-02
5.38089037E+07	 1.47942077E-01	-4.89669453E-02
5.38211117E+07	 1.47863503E-01	-4.91988151E-02
5.38333198E+07	 1.47790918E-01	-4.94315568E-02
5.38455278E+07	 1.47716277E-01	-4.96598624E-02
5.38577358E+07	 1.47633639E-01	-4.98907911E-02
5.38699438E+07	 1.47555783E-01	-5.01190741E-02
5.38821519E+07	 1.47479043E-01	-5.03463457E-02
5.38943599E+07	 1.47400960E-01	-5.05753828E-02
5.39065679E+07	 1.47325479E-01	-5.08071185E-02
5.39187759E+07	 1.47244701E-01	-5.10373432E-02
5.39309840E+07	 1.47164191E-01	-5.12662845E-02
5.39431920E+07	 1.47085729E-01	-5.14941173E-02
5.39554000E+07	 1.47003401E-01	-5.17097280E-02
5.39676080E+07	 1.46930190E-01	-5.19500102E-02
5.39798161E+07	 1.46841703E-01	-5.21779602E-02
5.39920241E+07	 1.46763170E-01	-5.24011257E-02
5.40042321E+07	 1.46679158E-01	-5.26270627E-02
5.40164401E+07	 1.46601191E-01	-5.28594025E-02
5.40286482E+07	 1.46517106E-01	-5.30899495E-02
5.40408562E+07	 1.46437047E-01	-5.33138080E-02
5.40530642E+07	 1.46354343E-01	-5.35427117E-02
5.40652722E+07	 1.46269615E-01	-5.37685239E-02
5.40774803E+07	 1.46190831E-01	-5.39948246E-02
5.40896883E+07	 1.46103135E-01	-5.42191893E-02
5.41018963E+07	 1.46013845E-01	-5.44500131E-02
5.41141043E+07	 1.45932488E-01	-5.46742324E-02
5.41263124E+07	 1.45847399E-01	-5.49030006E-02
5.41385204E+07	 1.45761575E-01	-5.51328926E-02
5.41507284E+07	 1.45680241E-01	-5.53524459E-02
5.41629364E+07	 1.45588417E-01	-5.55791037E-02
5.41751445E+07	 1.45503981E-01	-5.58059626E-02
5.41873525E+07	 1.45419007E-01	-5.60357012E-02
5.41995605E+07	 1.45332015E-01	-5.62581050E-02
5.42117685E+07	 1.45241386E-01	-5.64862685E-02
5.42239766E+07	 1.45157761E-01	-5.67083383E-02
5.42361846E+07	 1.45069185E-01	-5.69308548E-02
5.42483926E+07	 1.44979859E-01	-5.71611176E-02
5.42606006E+07	 1.44891918E-01	-5.73850629E-02
5.42728087E+07	 1.44800614E-01	-5.76138468E-02
5.42850167E+07	 1.44713142E-01	-5.78341432E-02
5.42972247E+07	 1.44627145E-01	-5.80627775E-02
5.43094327E+07	 1.44530977E-01	-5.82826961E-02
5.43216408E+07	 1.44442982E-01	-5.85125807E-02
5.43338488E+07	 1.44348220E-01	-5.87347881E-02
5.43460568E+07	 1.44261871E-01	-5.89607671E-02
5.43582648E+07	 1.44165859E-01	-5.91848742E-02
5.43704729E+07	 1.44080607E-01	-5.94070195E-02
5.43826809E+07	 1.43987867E-01	-5.96299180E-02
5.43948889E+07	 1.43896892E-01	-5.98609936E-02
5.44070969E+07	 1.43802966E-01	-6.00786978E-02
5.44193050E+07	 1.43709482E-01	-6.02979395E-02
5.44315130E+07	 1.43617220E-01	-6.05286991E-02
5.44437210E+07	 1.43524265E-01	-6.07499409E-02
5.44559290E+07	 1.43429120E-01	-6.09696147E-02
5.44681371E+07	 1.43332322E-01	-6.11968924E-02
5.44803451E+07	 1.43238308E-01	-6.14217832E-02
5.44925531E+07	 1.43139031E-01	-6.16423766E-02
5.45047611E+07	 1.43045498E-01	-6.18691167E-02
5.45169692E+07	 1.42949767E-01	-6.20896907E-02
5.45291772E+07	 1.42858382E-01	-6.23045162E-02
5.45413852E+07	 1.42756295E-01	-6.25296556E-02
5.45535932E+07	 1.42660888E-01	-6.27462623E-02
5.45658013E+07	 1.42563980E-01	-6.29708699E-02
5.45780093E+07	 1.42466507E-01	-6.31992348E-02
5.45902173E+07	 1.42366639E-01	-6.34150451E-02
5.46024253E+07	 1.42270939E-01	-6.36325895E-02
5.46146334E+07	 1.42175482E-01	-6.38548534E-02
5.46268414E+07	 1.42075625E-01	-6.40784808E-02
5.46390494E+07	 1.41975515E-01	-6.42991027E-02
5.46512574E+07	 1.41873996E-01	-6.45260518E-02
5.46634655E+07	 1.41772748E-01	-6.47397528E-02
5.46756735E+07	 1.41679906E-01	-6.49586520E-02
5.46878815E+07	 1.41576890E-01	-6.51780760E-02
5.47000895E+07	 1.41475112E-01	-6.54066322E-02
5.47122976E+07	 1.41375846E-01	-6.56204360E-02
5.47245056E+07	 1.41275269E-01	-6.58437711E-02
5.47367136E+07	 1.41171135E-01	-6.60592437E-02
5.47489216E+07	 1.41069160E-01	-6.62786571E-02
5.47611296E+07	 1.40966897E-01	-6.65001897E-02
5.47733377E+07	 1.40858301E-01	-6.67156911E-02
5.47855457E+07	 1.40758099E-01	-6.69352537E-02
5.47977537E+07	 1.40656808E-01	-6.71555542E-02
5.48099617E+07	 1.40551602E-01	-6.73697114E-02
5.48221698E+07	 1.40447233E-01	-6.75942956E-02
5.48343778E+07	 1.40346003E-01	-6.78144466E-02
5.48465858E+07	 1.40238786E-01	-6.80300918E-02
5.48587938E+07	 1.40134955E-01	-6.82453709E-02
5.48710019E+07	 1.40030097E-01	-6.84622773E-02
5.48832099E+07	 1.39925150E-01	-6.86837817E-02
5.48954179E+07	 1.39818640E-01	-6.89027495E-02
5.49076259E+07	 1.39711441E-01	-6.91144767E-02
5.49198340E+07	 1.39609890E-01	-6.93369727E-02
5.49320420E+07	 1.39499735E-01	-6.95533185E-02
5.49442500E+07	 1.39380592E-01	-6.97701610E-02
5.49564580E+07	 1.39284118E-01	-6.99882817E-02
5.49686661E+07	 1.39175754E-01	-7.02032682E-02
5.49808741E+07	 1.39069543E-01	-7.04187278E-02
5.49930821E+07	 1.38960426E-01	-7.06318205E-02
5.50052901E+07	 1.38850880E-01	-7.08528760E-02
5.50174982E+07	 1.38737433E-01	-7.10692128E-02
5.50297062E+07	 1.38629634E-01	-7.12850495E-02
5.50419142E+07	 1.38526198E-01	-7.14952402E-02
5.50541222E+07	 1.38414537E-01	-7.17142169E-02
5.50663303E+07	 1.38300610E-01	-7.19257981E-02
5.50785383E+07	 1.38188458E-01	-7.21449740E-02
5.50907463E+07	 1.38074611E-01	-7.23600131E-02
5.51029543E+07	 1.37965551E-01	-7.25788131E-02
5.51151624E+07	 1.37852670E-01	-7.27890498E-02
5.51273704E+07	 1.37745308E-01	-7.30069642E-02
