! COPPER MOUNTAIN TECHNOLOGIES, PLANAR TR1300/1, 00071119, 20.2.2/1.0
! Date: 1/9/2024 7:35:37 PM
! Data: Format [Calibration Info]
! Freq          	S11: Re/Im F1                  
# HZ S RI R 50
5.00000000E+07	 2.81287022E-01	 3.83487789E-02
5.00122080E+07	 2.81343173E-01	 3.79165181E-02
5.00244160E+07	 2.81396008E-01	 3.74872735E-02
5.00366241E+07	 2.81449868E-01	 3.70556684E-02
5.00488321E+07	 2.81500276E-01	 3.66182987E-02
5.00610401E+07	 2.81552520E-01	 3.61968521E-02
5.00732481E+07	 2.81610189E-01	 3.57693473E-02
5.00854562E+07	 2.81660019E-01	 3.53232510E-02
5.00976642E+07	 2.81713027E-01	 3.48969695E-02
5.01098722E+07	 2.81759404E-01	 3.44626224E-02
5.01220802E+07	 2.81808221E-01	 3.40280893E-02
5.01342883E+07	 2.81856708E-01	 3.35915937E-02
5.01464963E+07	 2.81902156E-01	 3.31730835E-02
5.01587043E+07	 2.81956260E-01	 3.27349547E-02
5.01709123E+07	 2.82005060E-01	 3.23087229E-02
5.01831204E+07	 2.82052804E-01	 3.18704740E-02
5.01953284E+07	 2.82086652E-01	 3.14409742E-02
5.02075364E+07	 2.82135838E-01	 3.10081509E-02
5.02197444E+07	 2.82185159E-01	 3.05700205E-02
5.02319525E+07	 2.82225701E-01	 3.01442847E-02
5.02441605E+07	 2.82264565E-01	 2.97026049E-02
5.02563685E+07	 2.82313327E-01	 2.92830564E-02
5.02685765E+07	 2.82345637E-01	 2.88442755E-02
5.02807846E+07	 2.82397041E-01	 2.84114758E-02
5.02929926E+07	 2.82434922E-01	 2.79758971E-02
5.03052006E+07	 2.82475929E-01	 2.75490673E-02
5.03174086E+07	 2.82507936E-01	 2.71127729E-02
5.03296167E+07	 2.82550092E-01	 2.66804029E-02
5.03418247E+07	 2.82591161E-01	 2.62495629E-02
5.03540327E+07	 2.82623150E-01	 2.58106021E-02
5.03662407E+07	 2.82657021E-01	 2.53771123E-02
5.03784488E+07	 2.82695105E-01	 2.49448373E-02
5.03906568E+07	 2.82726491E-01	 2.45149100E-02
5.04028648E+07	 2.82770410E-01	 2.40816616E-02
5.04150728E+07	 2.82805356E-01	 2.36441627E-02
5.04272809E+07	 2.82835061E-01	 2.32194607E-02
5.04394889E+07	 2.82860956E-01	 2.27789302E-02
5.04516969E+07	 2.82902018E-01	 2.23483187E-02
5.04639049E+07	 2.82932954E-01	 2.19228876E-02
5.04761130E+07	 2.82956347E-01	 2.14801687E-02
5.04883210E+07	 2.82990568E-01	 2.10428662E-02
5.05005290E+07	 2.83026016E-01	 2.06127076E-02
5.05127370E+07	 2.83047983E-01	 2.01852567E-02
5.05249451E+07	 2.83074420E-01	 1.97423808E-02
5.05371531E+07	 2.83106356E-01	 1.93107893E-02
5.05493611E+07	 2.83129628E-01	 1.88786721E-02
5.05615691E+07	 2.83156965E-01	 1.84437577E-02
5.05737772E+07	 2.83185715E-01	 1.80049465E-02
5.05859852E+07	 2.83205204E-01	 1.75790704E-02
5.05981932E+07	 2.83226569E-01	 1.71387598E-02
5.06104012E+07	 2.83246191E-01	 1.67124270E-02
5.06226093E+07	 2.83278161E-01	 1.62705023E-02
5.06348173E+07	 2.83293726E-01	 1.58397186E-02
5.06470253E+07	 2.83322106E-01	 1.54052323E-02
5.06592333E+07	 2.83339999E-01	 1.49678323E-02
5.06714414E+07	 2.83362035E-01	 1.45382533E-02
5.06836494E+07	 2.83379478E-01	 1.41020372E-02
5.06958574E+07	 2.83404090E-01	 1.36662805E-02
5.07080654E+07	 2.83415469E-01	 1.32296713E-02
5.07202735E+07	 2.83438070E-01	 1.27997549E-02
5.07324815E+07	 2.83456481E-01	 1.23651978E-02
5.07446895E+07	 2.83468558E-01	 1.19273391E-02
5.07568975E+07	 2.83480627E-01	 1.15018515E-02
5.07691056E+07	 2.83497998E-01	 1.10636442E-02
5.07813136E+07	 2.83505539E-01	 1.06253056E-02
5.07935216E+07	 2.83529522E-01	 1.01915482E-02
5.08057296E+07	 2.83543720E-01	 9.75712959E-03
5.08179377E+07	 2.83550854E-01	 9.32262316E-03
5.08301457E+07	 2.83563183E-01	 8.88108854E-03
5.08423537E+07	 2.83576347E-01	 8.45562836E-03
5.08545617E+07	 2.83583289E-01	 8.01753549E-03
5.08667698E+07	 2.83593901E-01	 7.57701036E-03
5.08789778E+07	 2.83602136E-01	 7.14304624E-03
5.08911858E+07	 2.83608307E-01	 6.71045923E-03
5.09033938E+07	 2.83620825E-01	 6.27200666E-03
5.09156019E+07	 2.83626349E-01	 5.84132480E-03
5.09278099E+07	 2.83632336E-01	 5.41298372E-03
5.09400179E+07	 2.83633792E-01	 4.98007230E-03
5.09522259E+07	 2.83641384E-01	 4.53396997E-03
5.09644340E+07	 2.83642615E-01	 4.09994455E-03
5.09766420E+07	 2.83651233E-01	 3.66483321E-03
5.09888500E+07	 2.83644300E-01	 3.23057387E-03
5.10010580E+07	 2.83652312E-01	 2.79793105E-03
5.10132661E+07	 2.83656417E-01	 2.36418014E-03
5.10254741E+07	 2.83653557E-01	 1.92424112E-03
5.10376821E+07	 2.83657200E-01	 1.49075886E-03
5.10498901E+07	 2.83655931E-01	 1.05329538E-03
5.10620982E+07	 2.83660053E-01	 6.15990633E-04
5.10743062E+07	 2.83649300E-01	 1.87347176E-04
5.10865142E+07	 2.83656839E-01	-2.47826421E-04
5.10987222E+07	 2.83652329E-01	-6.73444698E-04
5.11109303E+07	 2.83646263E-01	-1.11477599E-03
5.11231383E+07	 2.83637203E-01	-1.55035409E-03
5.11353463E+07	 2.83636677E-01	-1.98962345E-03
5.11475543E+07	 2.83640928E-01	-2.42898029E-03
5.11597624E+07	 2.83625428E-01	-2.84494221E-03
5.11719704E+07	 2.83623281E-01	-3.29029386E-03
5.11841784E+07	 2.83618090E-01	-3.72562885E-03
5.11963864E+07	 2.83607351E-01	-4.16420068E-03
5.12085944E+07	 2.83593893E-01	-4.59836317E-03
5.12208025E+07	 2.83594231E-01	-5.02648040E-03
5.12330105E+07	 2.83584975E-01	-5.46364645E-03
5.12452185E+07	 2.83568703E-01	-5.90276453E-03
5.12574265E+07	 2.83559757E-01	-6.33297605E-03
5.12696346E+07	 2.83539795E-01	-6.76716165E-03
5.12818426E+07	 2.83526924E-01	-7.20524273E-03
5.12940506E+07	 2.83521623E-01	-7.63468914E-03
5.13062586E+07	 2.83505586E-01	-8.06803344E-03
5.13184667E+07	 2.83494166E-01	-8.50719806E-03
5.13306747E+07	 2.83472931E-01	-8.94079985E-03
5.13428827E+07	 2.83463369E-01	-9.37883473E-03
5.13550907E+07	 2.83445803E-01	-9.81255630E-03
5.13672988E+07	 2.83429996E-01	-1.02462849E-02
5.13795068E+07	 2.83412115E-01	-1.06835580E-02
5.13917148E+07	 2.83390181E-01	-1.11130419E-02
5.14039228E+07	 2.83376357E-01	-1.15547528E-02
5.14161309E+07	 2.83345881E-01	-1.19814900E-02
5.14283389E+07	 2.83321613E-01	-1.24123318E-02
5.14405469E+07	 2.83316327E-01	-1.28501458E-02
5.14527549E+07	 2.83293529E-01	-1.32901948E-02
5.14649630E+07	 2.83268504E-01	-1.37244259E-02
5.14771710E+07	 2.83250000E-01	-1.41443678E-02
5.14893790E+07	 2.83225081E-01	-1.45885088E-02
5.15015870E+07	 2.83201642E-01	-1.50226571E-02
5.15137951E+07	 2.83176560E-01	-1.54597469E-02
5.15260031E+07	 2.83146206E-01	-1.58893329E-02
5.15382111E+07	 2.83124551E-01	-1.63239166E-02
5.15504191E+07	 2.83092346E-01	-1.67617413E-02
5.15626272E+07	 2.83067923E-01	-1.71926348E-02
5.15748352E+07	 2.83037158E-01	-1.76228162E-02
5.15870432E+07	 2.83008059E-01	-1.80557534E-02
5.15992512E+07	 2.82969957E-01	-1.84910166E-02
5.16114593E+07	 2.82945859E-01	-1.89262127E-02
5.16236673E+07	 2.82919062E-01	-1.93627098E-02
5.16358753E+07	 2.82891755E-01	-1.97944345E-02
5.16480833E+07	 2.82858202E-01	-2.02311749E-02
5.16602914E+07	 2.82822919E-01	-2.06615461E-02
5.16724994E+07	 2.82784176E-01	-2.10935514E-02
5.16847074E+07	 2.82757235E-01	-2.15297512E-02
5.16969154E+07	 2.82719509E-01	-2.19667294E-02
5.17091235E+07	 2.82678879E-01	-2.23985967E-02
5.17213315E+07	 2.82648910E-01	-2.28285250E-02
5.17335395E+07	 2.82610133E-01	-2.32601329E-02
5.17457475E+07	 2.82575503E-01	-2.36975369E-02
5.17579556E+07	 2.82538592E-01	-2.41211245E-02
5.17701636E+07	 2.82500859E-01	-2.45632420E-02
5.17823716E+07	 2.82456001E-01	-2.50014899E-02
5.17945796E+07	 2.82420744E-01	-2.54238247E-02
5.18067877E+07	 2.82376225E-01	-2.58614427E-02
5.18189957E+07	 2.82334415E-01	-2.62927153E-02
5.18312037E+07	 2.82294319E-01	-2.67248155E-02
5.18434117E+07	 2.82250765E-01	-2.71586660E-02
5.18556198E+07	 2.82213165E-01	-2.75970313E-02
5.18678278E+07	 2.82164197E-01	-2.80266842E-02
5.18800358E+07	 2.82122519E-01	-2.84548215E-02
5.18922438E+07	 2.82077238E-01	-2.88914390E-02
5.19044519E+07	 2.82028121E-01	-2.93242407E-02
5.19166599E+07	 2.81979851E-01	-2.97587578E-02
5.19288679E+07	 2.81931617E-01	-3.01923533E-02
5.19410759E+07	 2.81883083E-01	-3.06168796E-02
5.19532840E+07	 2.81838564E-01	-3.10535900E-02
5.19654920E+07	 2.81784256E-01	-3.14860428E-02
5.19777000E+07	 2.81739431E-01	-3.19171677E-02
5.19899080E+07	 2.81684583E-01	-3.23493360E-02
5.20021161E+07	 2.81635205E-01	-3.27779506E-02
5.20143241E+07	 2.81585506E-01	-3.32122102E-02
5.20265321E+07	 2.81530879E-01	-3.36453176E-02
5.20387401E+07	 2.81474966E-01	-3.40731862E-02
5.20509482E+07	 2.81423822E-01	-3.45060191E-02
5.20631562E+07	 2.81371376E-01	-3.49384643E-02
5.20753642E+07	 2.81318752E-01	-3.53654434E-02
5.20875722E+07	 2.81259051E-01	-3.58025789E-02
5.20997803E+07	 2.81203506E-01	-3.62307567E-02
5.21119883E+07	 2.81148637E-01	-3.66600865E-02
5.21241963E+07	 2.81085619E-01	-3.70913616E-02
5.21364043E+07	 2.81024808E-01	-3.75224166E-02
5.21486124E+07	 2.80966243E-01	-3.79555686E-02
5.21608204E+07	 2.80906313E-01	-3.83858870E-02
5.21730284E+07	 2.80847545E-01	-3.88196966E-02
5.21852364E+07	 2.80786808E-01	-3.92478116E-02
5.21974445E+07	 2.80723056E-01	-3.96746707E-02
5.22096525E+07	 2.80665533E-01	-4.01114368E-02
5.22218605E+07	 2.80597754E-01	-4.05418617E-02
5.22340685E+07	 2.80531488E-01	-4.09709142E-02
5.22462766E+07	 2.80470955E-01	-4.14012619E-02
5.22584846E+07	 2.80404294E-01	-4.18302506E-02
5.22706926E+07	 2.80334646E-01	-4.22587538E-02
5.22829006E+07	 2.80266821E-01	-4.26918584E-02
5.22951087E+07	 2.80202810E-01	-4.31144131E-02
5.23073167E+07	 2.80133010E-01	-4.35500106E-02
5.23195247E+07	 2.80073058E-01	-4.39755568E-02
5.23317327E+07	 2.79997511E-01	-4.44073639E-02
5.23439408E+07	 2.79929997E-01	-4.48439717E-02
5.23561488E+07	 2.79861956E-01	-4.52629605E-02
5.23683568E+07	 2.79788079E-01	-4.56951879E-02
5.23805648E+07	 2.79720734E-01	-4.61224179E-02
5.23927728E+07	 2.79648030E-01	-4.65560029E-02
5.24049809E+07	 2.79571152E-01	-4.69909022E-02
5.24171889E+07	 2.79501671E-01	-4.74135716E-02
5.24293969E+07	 2.79428224E-01	-4.78435369E-02
5.24416049E+07	 2.79345254E-01	-4.82720820E-02
5.24538130E+07	 2.79270653E-01	-4.86952764E-02
5.24660210E+07	 2.79194657E-01	-4.91276371E-02
5.24782290E+07	 2.79120766E-01	-4.95449628E-02
5.24904370E+07	 2.79042348E-01	-4.99900012E-02
5.25026451E+07	 2.78967985E-01	-5.04080511E-02
5.25148531E+07	 2.78880131E-01	-5.08376691E-02
5.25270611E+07	 2.78802880E-01	-5.12632949E-02
5.25392691E+07	 2.78725021E-01	-5.16905635E-02
5.25514772E+07	 2.78644556E-01	-5.21214346E-02
5.25636852E+07	 2.78563378E-01	-5.25482843E-02
5.25758932E+07	 2.78479668E-01	-5.29745974E-02
5.25881012E+07	 2.78393679E-01	-5.34039966E-02
5.26003093E+07	 2.78316247E-01	-5.38306580E-02
5.26125173E+07	 2.78233482E-01	-5.42446090E-02
5.26247253E+07	 2.78150029E-01	-5.46860261E-02
5.26369333E+07	 2.78060449E-01	-5.51069244E-02
5.26491414E+07	 2.77977331E-01	-5.55351102E-02
5.26613494E+07	 2.77886982E-01	-5.59604783E-02
5.26735574E+07	 2.77804456E-01	-5.63864283E-02
5.26857654E+07	 2.77721246E-01	-5.68128561E-02
5.26979735E+07	 2.77621603E-01	-5.72342470E-02
5.27101815E+07	 2.77532354E-01	-5.76661065E-02
5.27223895E+07	 2.77450477E-01	-5.80904363E-02
5.27345975E+07	 2.77352745E-01	-5.85109159E-02
5.27468056E+07	 2.77263197E-01	-5.89368247E-02
5.27590136E+07	 2.77171975E-01	-5.93612154E-02
5.27712216E+07	 2.77074308E-01	-5.97886895E-02
5.27834296E+07	 2.76988270E-01	-6.02123194E-02
5.27956377E+07	 2.76898105E-01	-6.06398115E-02
5.28078457E+07	 2.76802067E-01	-6.10678709E-02
5.28200537E+07	 2.76708102E-01	-6.14865929E-02
5.28322617E+07	 2.76610967E-01	-6.19110097E-02
5.28444698E+07	 2.76514953E-01	-6.23382024E-02
5.28566778E+07	 2.76421451E-01	-6.27612233E-02
5.28688858E+07	 2.76319221E-01	-6.31822986E-02
5.28810938E+07	 2.76223089E-01	-6.36064352E-02
5.28933019E+07	 2.76120206E-01	-6.40318521E-02
5.29055099E+07	 2.76020928E-01	-6.44540047E-02
5.29177179E+07	 2.75924282E-01	-6.48817763E-02
5.29299259E+07	 2.75820583E-01	-6.53129571E-02
5.29421340E+07	 2.75722237E-01	-6.57263463E-02
5.29543420E+07	 2.75625372E-01	-6.61513786E-02
5.29665500E+07	 2.75517499E-01	-6.65710220E-02
5.29787580E+07	 2.75409641E-01	-6.69969738E-02
5.29909661E+07	 2.75305541E-01	-6.74222841E-02
5.30031741E+07	 2.75204818E-01	-6.78389364E-02
5.30153821E+07	 2.75097352E-01	-6.82600344E-02
5.30275901E+07	 2.74988443E-01	-6.86818860E-02
5.30397982E+07	 2.74894874E-01	-6.91020804E-02
5.30520062E+07	 2.74778425E-01	-6.95202499E-02
5.30642142E+07	 2.74675054E-01	-6.99512348E-02
5.30764222E+07	 2.74559367E-01	-7.03643953E-02
5.30886303E+07	 2.74460676E-01	-7.07920337E-02
5.31008383E+07	 2.74342979E-01	-7.12054773E-02
5.31130463E+07	 2.74238994E-01	-7.16305975E-02
5.31252543E+07	 2.74123603E-01	-7.20520818E-02
5.31374624E+07	 2.74014427E-01	-7.24692361E-02
5.31496704E+07	 2.73898657E-01	-7.28903334E-02
5.31618784E+07	 2.73785860E-01	-7.33125614E-02
5.31740864E+07	 2.73677189E-01	-7.37289555E-02
5.31862945E+07	 2.73567017E-01	-7.41507587E-02
5.31985025E+07	 2.73447657E-01	-7.45706405E-02
5.32107105E+07	 2.73332692E-01	-7.49812823E-02
5.32229185E+07	 2.73213390E-01	-7.54058922E-02
5.32351266E+07	 2.73096781E-01	-7.58240196E-02
5.32473346E+07	 2.72981137E-01	-7.62479067E-02
5.32595426E+07	 2.72867338E-01	-7.66635046E-02
5.32717506E+07	 2.72748284E-01	-7.70794869E-02
5.32839587E+07	 2.72623035E-01	-7.75042409E-02
5.32961667E+07	 2.72508954E-01	-7.79211008E-02
5.33083747E+07	 2.72385977E-01	-7.83424625E-02
5.33205827E+07	 2.72259247E-01	-7.87604733E-02
5.33327908E+07	 2.72147117E-01	-7.91689700E-02
5.33449988E+07	 2.72023133E-01	-7.95904361E-02
5.33572068E+07	 2.71901814E-01	-8.00083215E-02
5.33694148E+07	 2.71777217E-01	-8.04214601E-02
5.33816229E+07	 2.71652798E-01	-8.08418206E-02
5.33938309E+07	 2.71527216E-01	-8.12614171E-02
5.34060389E+07	 2.71397711E-01	-8.16699268E-02
5.34182469E+07	 2.71278898E-01	-8.20929257E-02
5.34304550E+07	 2.71150184E-01	-8.25095689E-02
5.34426630E+07	 2.71028929E-01	-8.29207090E-02
5.34548710E+07	 2.70890182E-01	-8.33330687E-02
5.34670790E+07	 2.70763940E-01	-8.37531771E-02
5.34792871E+07	 2.70637612E-01	-8.41684701E-02
5.34914951E+07	 2.70506051E-01	-8.45824824E-02
5.35037031E+07	 2.70373914E-01	-8.49944714E-02
5.35159111E+07	 2.70242055E-01	-8.54149415E-02
5.35281192E+07	 2.70111685E-01	-8.58289043E-02
5.35403272E+07	 2.69981130E-01	-8.62418958E-02
5.35525352E+07	 2.69844681E-01	-8.66551404E-02
5.35647432E+07	 2.69715470E-01	-8.70699015E-02
5.35769512E+07	 2.69583541E-01	-8.74775453E-02
5.35891593E+07	 2.69447260E-01	-8.78937176E-02
5.36013673E+07	 2.69315133E-01	-8.83056556E-02
5.36135753E+07	 2.69169057E-01	-8.87184505E-02
5.36257833E+07	 2.69041302E-01	-8.91350482E-02
5.36379914E+07	 2.68899004E-01	-8.95503772E-02
5.36501994E+07	 2.68764273E-01	-8.99615840E-02
5.36624074E+07	 2.68623581E-01	-9.03634163E-02
5.36746154E+07	 2.68483741E-01	-9.07835348E-02
5.36868235E+07	 2.68344986E-01	-9.11947466E-02
5.36990315E+07	 2.68199860E-01	-9.16067723E-02
5.37112395E+07	 2.68060003E-01	-9.20130427E-02
5.37234475E+07	 2.67923921E-01	-9.24328719E-02
5.37356556E+07	 2.67778528E-01	-9.28423551E-02
5.37478636E+07	 2.67635962E-01	-9.32510674E-02
5.37600716E+07	 2.67493750E-01	-9.36662181E-02
5.37722796E+07	 2.67351376E-01	-9.40769319E-02
5.37844877E+07	 2.67206430E-01	-9.44790922E-02
5.37966957E+07	 2.67063552E-01	-9.48880002E-02
5.38089037E+07	 2.66909514E-01	-9.52951894E-02
5.38211117E+07	 2.66768045E-01	-9.57047768E-02
5.38333198E+07	 2.66623684E-01	-9.61099128E-02
5.38455278E+07	 2.66469685E-01	-9.65238956E-02
5.38577358E+07	 2.66322399E-01	-9.69365712E-02
5.38699438E+07	 2.66176456E-01	-9.73462730E-02
5.38821519E+07	 2.66025307E-01	-9.77533110E-02
5.38943599E+07	 2.65867036E-01	-9.81521598E-02
5.39065679E+07	 2.65723119E-01	-9.85666995E-02
5.39187759E+07	 2.65569605E-01	-9.89792637E-02
5.39309840E+07	 2.65420260E-01	-9.93847734E-02
5.39431920E+07	 2.65269442E-01	-9.97942107E-02
5.39554000E+07	 2.65110694E-01	-1.00199667E-01
5.39676080E+07	 2.64964402E-01	-1.00605720E-01
5.39798161E+07	 2.64796346E-01	-1.01011793E-01
5.39920241E+07	 2.64653290E-01	-1.01419728E-01
5.40042321E+07	 2.64491026E-01	-1.01821021E-01
5.40164401E+07	 2.64331292E-01	-1.02229442E-01
5.40286482E+07	 2.64179168E-01	-1.02637930E-01
5.40408562E+07	 2.64021392E-01	-1.03042594E-01
5.40530642E+07	 2.63869688E-01	-1.03447787E-01
5.40652722E+07	 2.63707580E-01	-1.03853369E-01
5.40774803E+07	 2.63551208E-01	-1.04253774E-01
5.40896883E+07	 2.63388271E-01	-1.04657049E-01
5.41018963E+07	 2.63221047E-01	-1.05066014E-01
5.41141043E+07	 2.63066010E-01	-1.05467488E-01
5.41263124E+07	 2.62906560E-01	-1.05864636E-01
5.41385204E+07	 2.62735685E-01	-1.06277344E-01
5.41507284E+07	 2.62574276E-01	-1.06677616E-01
5.41629364E+07	 2.62417757E-01	-1.07075741E-01
5.41751445E+07	 2.62245355E-01	-1.07480615E-01
5.41873525E+07	 2.62078762E-01	-1.07885963E-01
5.41995605E+07	 2.61911927E-01	-1.08288715E-01
5.42117685E+07	 2.61751469E-01	-1.08693029E-01
5.42239766E+07	 2.61576345E-01	-1.09091480E-01
5.42361846E+07	 2.61414071E-01	-1.09492256E-01
5.42483926E+07	 2.61246080E-01	-1.09892499E-01
5.42606006E+07	 2.61078747E-01	-1.10292856E-01
5.42728087E+07	 2.60911641E-01	-1.10694319E-01
5.42850167E+07	 2.60734309E-01	-1.11099467E-01
5.42972247E+07	 2.60564804E-01	-1.11496878E-01
5.43094327E+07	 2.60391752E-01	-1.11893834E-01
5.43216408E+07	 2.60218805E-01	-1.12304244E-01
5.43338488E+07	 2.60046831E-01	-1.12696525E-01
5.43460568E+07	 2.59880982E-01	-1.13098703E-01
5.43582648E+07	 2.59702585E-01	-1.13498427E-01
5.43704729E+07	 2.59529859E-01	-1.13897471E-01
5.43826809E+07	 2.59351318E-01	-1.14293193E-01
5.43948889E+07	 2.59183458E-01	-1.14694221E-01
5.44070969E+07	 2.59002430E-01	-1.15091060E-01
5.44193050E+07	 2.58826884E-01	-1.15484323E-01
5.44315130E+07	 2.58648787E-01	-1.15889070E-01
5.44437210E+07	 2.58471688E-01	-1.16283508E-01
5.44559290E+07	 2.58297831E-01	-1.16679585E-01
5.44681371E+07	 2.58114819E-01	-1.17076659E-01
5.44803451E+07	 2.57933494E-01	-1.17476466E-01
5.44925531E+07	 2.57746915E-01	-1.17874101E-01
5.45047611E+07	 2.57565649E-01	-1.18273424E-01
5.45169692E+07	 2.57389175E-01	-1.18670366E-01
5.45291772E+07	 2.57212647E-01	-1.19050847E-01
5.45413852E+07	 2.57022746E-01	-1.19456479E-01
5.45535932E+07	 2.56841808E-01	-1.19841816E-01
5.45658013E+07	 2.56658313E-01	-1.20241168E-01
5.45780093E+07	 2.56471326E-01	-1.20635781E-01
5.45902173E+07	 2.56290799E-01	-1.21028762E-01
5.46024253E+07	 2.56106921E-01	-1.21421619E-01
5.46146334E+07	 2.55912125E-01	-1.21811637E-01
5.46268414E+07	 2.55725676E-01	-1.22211917E-01
5.46390494E+07	 2.55546564E-01	-1.22596523E-01
5.46512574E+07	 2.55354991E-01	-1.22989981E-01
5.46634655E+07	 2.55162213E-01	-1.23383192E-01
5.46756735E+07	 2.54979464E-01	-1.23772844E-01
5.46878815E+07	 2.54790551E-01	-1.24172403E-01
5.47000895E+07	 2.54595367E-01	-1.24560849E-01
5.47122976E+07	 2.54402398E-01	-1.24951720E-01
5.47245056E+07	 2.54215868E-01	-1.25339494E-01
5.47367136E+07	 2.54019080E-01	-1.25730133E-01
5.47489216E+07	 2.53829524E-01	-1.26120700E-01
5.47611296E+07	 2.53632287E-01	-1.26515349E-01
5.47733377E+07	 2.53433829E-01	-1.26900928E-01
5.47855457E+07	 2.53246550E-01	-1.27291601E-01
5.47977537E+07	 2.53049240E-01	-1.27682188E-01
5.48099617E+07	 2.52854389E-01	-1.28062043E-01
5.48221698E+07	 2.52653315E-01	-1.28457515E-01
5.48343778E+07	 2.52464903E-01	-1.28847807E-01
5.48465858E+07	 2.52264709E-01	-1.29228684E-01
5.48587938E+07	 2.52065310E-01	-1.29622475E-01
5.48710019E+07	 2.51868503E-01	-1.30009917E-01
5.48832099E+07	 2.51667278E-01	-1.30394286E-01
5.48954179E+07	 2.51461407E-01	-1.30790988E-01
5.49076259E+07	 2.51263597E-01	-1.31165729E-01
5.49198340E+07	 2.51072265E-01	-1.31556157E-01
5.49320420E+07	 2.50862622E-01	-1.31944032E-01
5.49442500E+07	 2.50645693E-01	-1.32331019E-01
5.49564580E+07	 2.50462804E-01	-1.32717655E-01
5.49686661E+07	 2.50259116E-01	-1.33102701E-01
5.49808741E+07	 2.50057637E-01	-1.33486918E-01
5.49930821E+07	 2.49845551E-01	-1.33859165E-01
5.50052901E+07	 2.49637451E-01	-1.34252206E-01
5.50174982E+07	 2.49430283E-01	-1.34636693E-01
5.50297062E+07	 2.49233875E-01	-1.35014799E-01
5.50419142E+07	 2.49026439E-01	-1.35394311E-01
5.50541222E+07	 2.48816066E-01	-1.35777650E-01
5.50663303E+07	 2.48611091E-01	-1.36156674E-01
5.50785383E+07	 2.48399777E-01	-1.36541847E-01
5.50907463E+07	 2.48188582E-01	-1.36927487E-01
5.51029543E+07	 2.47974561E-01	-1.37308654E-01
5.51151624E+07	 2.47772536E-01	-1.37682220E-01
5.51273704E+07	 2.47558381E-01	-1.38068557E-01
