! COPPER MOUNTAIN TECHNOLOGIES, PLANAR TR1300/1, 00071119, 20.2.2/1.0
! Date: 1/9/2024 7:43:22 PM
! Data: Format [Calibration Info]
! Freq          	S11: Re/Im F1                  
# HZ S RI R 50
5.00000000E+07	 2.74689893E-03	-4.01352726E-03
5.00122080E+07	 2.74714160E-03	-4.01353627E-03
5.00244160E+07	 2.74091731E-03	-4.00902902E-03
5.00366241E+07	 2.74479700E-03	-4.01672818E-03
5.00488321E+07	 2.74104247E-03	-4.01454222E-03
5.00610401E+07	 2.74119345E-03	-4.02038771E-03
5.00732481E+07	 2.74217139E-03	-4.01467861E-03
5.00854562E+07	 2.73734783E-03	-4.02024251E-03
5.00976642E+07	 2.73742703E-03	-4.02283665E-03
5.01098722E+07	 2.73877933E-03	-4.02427598E-03
5.01220802E+07	 2.73518067E-03	-4.02364017E-03
5.01342883E+07	 2.73320027E-03	-4.02904447E-03
5.01464963E+07	 2.73508172E-03	-4.03019026E-03
5.01587043E+07	 2.73356350E-03	-4.02917102E-03
5.01709123E+07	 2.73632358E-03	-4.02880834E-03
5.01831204E+07	 2.73064919E-03	-4.03749469E-03
5.01953284E+07	 2.72892844E-03	-4.03640006E-03
5.02075364E+07	 2.72524464E-03	-4.03720531E-03
5.02197444E+07	 2.72723223E-03	-4.04006879E-03
5.02319525E+07	 2.72304734E-03	-4.04094393E-03
5.02441605E+07	 2.72084140E-03	-4.04656882E-03
5.02563685E+07	 2.72710197E-03	-4.04184803E-03
5.02685765E+07	 2.71935001E-03	-4.04678864E-03
5.02807846E+07	 2.72026947E-03	-4.04673711E-03
5.02929926E+07	 2.72207148E-03	-4.05095758E-03
5.03052006E+07	 2.71893266E-03	-4.04915001E-03
5.03174086E+07	 2.71574586E-03	-4.05858063E-03
5.03296167E+07	 2.71782777E-03	-4.05563830E-03
5.03418247E+07	 2.71640514E-03	-4.05311704E-03
5.03540327E+07	 2.71370858E-03	-4.05779347E-03
5.03662407E+07	 2.71168075E-03	-4.05647472E-03
5.03784488E+07	 2.71303157E-03	-4.05640482E-03
5.03906568E+07	 2.71250566E-03	-4.05866459E-03
5.04028648E+07	 2.71346553E-03	-4.06340930E-03
5.04150728E+07	 2.70786796E-03	-4.06668207E-03
5.04272809E+07	 2.71225672E-03	-4.06508986E-03
5.04394889E+07	 2.71021100E-03	-4.06888941E-03
5.04516969E+07	 2.70943605E-03	-4.07040375E-03
5.04639049E+07	 2.70358660E-03	-4.06528078E-03
5.04761130E+07	 2.70402245E-03	-4.07281124E-03
5.04883210E+07	 2.70148849E-03	-4.07299120E-03
5.05005290E+07	 2.70639467E-03	-4.07149456E-03
5.05127370E+07	 2.70057106E-03	-4.07784065E-03
5.05249451E+07	 2.69545520E-03	-4.07619591E-03
5.05371531E+07	 2.70277289E-03	-4.07774249E-03
5.05493611E+07	 2.69849282E-03	-4.07926223E-03
5.05615691E+07	 2.69465541E-03	-4.07947001E-03
5.05737772E+07	 2.69477817E-03	-4.08594844E-03
5.05859852E+07	 2.69559367E-03	-4.08113925E-03
5.05981932E+07	 2.69370212E-03	-4.08604636E-03
5.06104012E+07	 2.68825086E-03	-4.08858099E-03
5.06226093E+07	 2.69005620E-03	-4.09197542E-03
5.06348173E+07	 2.69172983E-03	-4.08957879E-03
5.06470253E+07	 2.68520855E-03	-4.09278692E-03
5.06592333E+07	 2.68884136E-03	-4.09609644E-03
5.06714414E+07	 2.68732644E-03	-4.09479503E-03
5.06836494E+07	 2.68503686E-03	-4.09422944E-03
5.06958574E+07	 2.68667859E-03	-4.10088911E-03
5.07080654E+07	 2.68121551E-03	-4.10244094E-03
5.07202735E+07	 2.68202234E-03	-4.09857332E-03
5.07324815E+07	 2.68009622E-03	-4.10051663E-03
5.07446895E+07	 2.68159824E-03	-4.10292165E-03
5.07568975E+07	 2.67844837E-03	-4.10570894E-03
5.07691056E+07	 2.67542963E-03	-4.10283500E-03
5.07813136E+07	 2.67528925E-03	-4.11390834E-03
5.07935216E+07	 2.68065857E-03	-4.11019425E-03
5.08057296E+07	 2.67866157E-03	-4.11343707E-03
5.08179377E+07	 2.67884167E-03	-4.11869612E-03
5.08301457E+07	 2.67275492E-03	-4.11766050E-03
5.08423537E+07	 2.67215995E-03	-4.11528498E-03
5.08545617E+07	 2.67067094E-03	-4.12179788E-03
5.08667698E+07	 2.66985851E-03	-4.12067064E-03
5.08789778E+07	 2.66820704E-03	-4.12382171E-03
5.08911858E+07	 2.67017264E-03	-4.12602960E-03
5.09033938E+07	 2.66759598E-03	-4.12936124E-03
5.09156019E+07	 2.66441113E-03	-4.12958782E-03
5.09278099E+07	 2.66188358E-03	-4.12822693E-03
5.09400179E+07	 2.66477051E-03	-4.12828289E-03
5.09522259E+07	 2.66327811E-03	-4.13328185E-03
5.09644340E+07	 2.66018556E-03	-4.13367696E-03
5.09766420E+07	 2.65783547E-03	-4.13952401E-03
5.09888500E+07	 2.65786883E-03	-4.13719734E-03
5.10010580E+07	 2.65799819E-03	-4.14129207E-03
5.10132661E+07	 2.65746982E-03	-4.13931919E-03
5.10254741E+07	 2.65968864E-03	-4.14242050E-03
5.10376821E+07	 2.65678138E-03	-4.14308482E-03
5.10498901E+07	 2.66080841E-03	-4.14966581E-03
5.10620982E+07	 2.65691308E-03	-4.14681578E-03
5.10743062E+07	 2.64684749E-03	-4.15353242E-03
5.10865142E+07	 2.64868989E-03	-4.15108265E-03
5.10987222E+07	 2.65835174E-03	-4.15146769E-03
5.11109303E+07	 2.65003067E-03	-4.15063415E-03
5.11231383E+07	 2.64625783E-03	-4.15161276E-03
5.11353463E+07	 2.64832632E-03	-4.16066483E-03
5.11475543E+07	 2.65014621E-03	-4.15953680E-03
5.11597624E+07	 2.64672211E-03	-4.16043813E-03
5.11719704E+07	 2.65052465E-03	-4.16520653E-03
5.11841784E+07	 2.64467077E-03	-4.16167734E-03
5.11963864E+07	 2.64816840E-03	-4.16992008E-03
5.12085944E+07	 2.64339358E-03	-4.16869939E-03
5.12208025E+07	 2.64896662E-03	-4.16591743E-03
5.12330105E+07	 2.65099165E-03	-4.16719259E-03
5.12452185E+07	 2.64143096E-03	-4.17187522E-03
5.12574265E+07	 2.64329500E-03	-4.17158047E-03
5.12696346E+07	 2.64455054E-03	-4.17536982E-03
5.12818426E+07	 2.63901369E-03	-4.17900012E-03
5.12940506E+07	 2.64124037E-03	-4.17782293E-03
5.13062586E+07	 2.63620321E-03	-4.18135105E-03
5.13184667E+07	 2.64160677E-03	-4.17936497E-03
5.13306747E+07	 2.64313078E-03	-4.18281172E-03
5.13428827E+07	 2.63801832E-03	-4.18416328E-03
5.13550907E+07	 2.63710004E-03	-4.18795155E-03
5.13672988E+07	 2.64015230E-03	-4.19110601E-03
5.13795068E+07	 2.63738042E-03	-4.18997184E-03
5.13917148E+07	 2.63889423E-03	-4.18734907E-03
5.14039228E+07	 2.63780276E-03	-4.19608416E-03
5.14161309E+07	 2.62897861E-03	-4.19051180E-03
5.14283389E+07	 2.63181017E-03	-4.19714943E-03
5.14405469E+07	 2.63334386E-03	-4.19622297E-03
5.14527549E+07	 2.63227831E-03	-4.19779165E-03
5.14649630E+07	 2.63298429E-03	-4.20115475E-03
5.14771710E+07	 2.62693714E-03	-4.19587254E-03
5.14893790E+07	 2.62931005E-03	-4.20409209E-03
5.15015870E+07	 2.62949632E-03	-4.20727375E-03
5.15137951E+07	 2.63122762E-03	-4.20801356E-03
5.15260031E+07	 2.62705819E-03	-4.20809131E-03
5.15382111E+07	 2.62773922E-03	-4.21364569E-03
5.15504191E+07	 2.62779803E-03	-4.20872749E-03
5.15626272E+07	 2.62445580E-03	-4.21172721E-03
5.15748352E+07	 2.63139366E-03	-4.21397147E-03
5.15870432E+07	 2.62302841E-03	-4.21538370E-03
5.15992512E+07	 2.62158018E-03	-4.21470841E-03
5.16114593E+07	 2.62530966E-03	-4.22070996E-03
5.16236673E+07	 2.62790699E-03	-4.22453148E-03
5.16358753E+07	 2.62620908E-03	-4.22116629E-03
5.16480833E+07	 2.63004463E-03	-4.22347609E-03
5.16602914E+07	 2.62118659E-03	-4.22853341E-03
5.16724994E+07	 2.61880135E-03	-4.22630962E-03
5.16847074E+07	 2.61654315E-03	-4.22897868E-03
5.16969154E+07	 2.61642495E-03	-4.23781177E-03
5.17091235E+07	 2.61770360E-03	-4.23475995E-03
5.17213315E+07	 2.61841023E-03	-4.23748544E-03
5.17335395E+07	 2.61561989E-03	-4.23547577E-03
5.17457475E+07	 2.61919012E-03	-4.23923486E-03
5.17579556E+07	 2.61907166E-03	-4.23912782E-03
5.17701636E+07	 2.61696183E-03	-4.24107801E-03
5.17823716E+07	 2.61581053E-03	-4.24598243E-03
5.17945796E+07	 2.61551997E-03	-4.24012185E-03
5.18067877E+07	 2.61168881E-03	-4.24414384E-03
5.18189957E+07	 2.61289976E-03	-4.24893812E-03
5.18312037E+07	 2.60753005E-03	-4.24832768E-03
5.18434117E+07	 2.61326665E-03	-4.24658364E-03
5.18556198E+07	 2.60952196E-03	-4.25245035E-03
5.18678278E+07	 2.60979030E-03	-4.25059038E-03
5.18800358E+07	 2.61406186E-03	-4.25168445E-03
5.18922438E+07	 2.60692869E-03	-4.26011107E-03
5.19044519E+07	 2.60356607E-03	-4.25876133E-03
5.19166599E+07	 2.60607217E-03	-4.26067302E-03
5.19288679E+07	 2.60756703E-03	-4.25974331E-03
5.19410759E+07	 2.60369253E-03	-4.26217766E-03
5.19532840E+07	 2.60453320E-03	-4.26655277E-03
5.19654920E+07	 2.60333845E-03	-4.26864335E-03
5.19777000E+07	 2.60711047E-03	-4.26911938E-03
5.19899080E+07	 2.60376253E-03	-4.26772597E-03
5.20021161E+07	 2.59939749E-03	-4.27270037E-03
5.20143241E+07	 2.60249152E-03	-4.27354411E-03
5.20265321E+07	 2.60373699E-03	-4.27715202E-03
5.20387401E+07	 2.59801456E-03	-4.27298878E-03
5.20509482E+07	 2.59502122E-03	-4.27587817E-03
5.20631562E+07	 2.59807578E-03	-4.27874436E-03
5.20753642E+07	 2.59922536E-03	-4.28046470E-03
5.20875722E+07	 2.59547741E-03	-4.28458269E-03
5.20997803E+07	 2.59601101E-03	-4.28481853E-03
5.21119883E+07	 2.59511258E-03	-4.28393507E-03
5.21241963E+07	 2.59091333E-03	-4.28443899E-03
5.21364043E+07	 2.59121704E-03	-4.28712923E-03
5.21486124E+07	 2.58964820E-03	-4.29005980E-03
5.21608204E+07	 2.59063633E-03	-4.28798822E-03
5.21730284E+07	 2.58653433E-03	-4.29255291E-03
5.21852364E+07	 2.58615899E-03	-4.29469271E-03
5.21974445E+07	 2.59095167E-03	-4.29662835E-03
5.22096525E+07	 2.58272188E-03	-4.29653493E-03
5.22218605E+07	 2.58522590E-03	-4.30129406E-03
5.22340685E+07	 2.58589340E-03	-4.29926741E-03
5.22462766E+07	 2.58325944E-03	-4.29832538E-03
5.22584846E+07	 2.58034759E-03	-4.30359421E-03
5.22706926E+07	 2.58300310E-03	-4.30239501E-03
5.22829006E+07	 2.57771049E-03	-4.30698278E-03
5.22951087E+07	 2.57835232E-03	-4.30434249E-03
5.23073167E+07	 2.57835544E-03	-4.30641746E-03
5.23195247E+07	 2.57996134E-03	-4.30998629E-03
5.23317327E+07	 2.57829306E-03	-4.31105977E-03
5.23439408E+07	 2.57446919E-03	-4.31349176E-03
5.23561488E+07	 2.57576382E-03	-4.31413647E-03
5.23683568E+07	 2.57332680E-03	-4.31666741E-03
5.23805648E+07	 2.57194878E-03	-4.31839861E-03
5.23927728E+07	 2.56712926E-03	-4.32171818E-03
5.24049809E+07	 2.56851338E-03	-4.32248852E-03
5.24171889E+07	 2.56788275E-03	-4.32270288E-03
5.24293969E+07	 2.56905922E-03	-4.32654363E-03
5.24416049E+07	 2.56870867E-03	-4.32968564E-03
5.24538130E+07	 2.56503822E-03	-4.32858180E-03
5.24660210E+07	 2.55911872E-03	-4.32912037E-03
5.24782290E+07	 2.55803055E-03	-4.32594582E-03
5.24904370E+07	 2.55790134E-03	-4.33324927E-03
5.25026451E+07	 2.56121092E-03	-4.33119545E-03
5.25148531E+07	 2.55886754E-03	-4.33412329E-03
5.25270611E+07	 2.55631622E-03	-4.33084070E-03
5.25392691E+07	 2.55843013E-03	-4.33653241E-03
5.25514772E+07	 2.55242496E-03	-4.33583171E-03
5.25636852E+07	 2.55268189E-03	-4.33999870E-03
5.25758932E+07	 2.55024793E-03	-4.33901401E-03
5.25881012E+07	 2.55068929E-03	-4.34519097E-03
5.26003093E+07	 2.55148658E-03	-4.34295678E-03
5.26125173E+07	 2.55241259E-03	-4.34581948E-03
5.26247253E+07	 2.55029514E-03	-4.34649361E-03
5.26369333E+07	 2.54878597E-03	-4.35131983E-03
5.26491414E+07	 2.54578379E-03	-4.34799845E-03
5.26613494E+07	 2.54406094E-03	-4.34851724E-03
5.26735574E+07	 2.53944182E-03	-4.35290657E-03
5.26857654E+07	 2.54098849E-03	-4.35587801E-03
5.26979735E+07	 2.54360025E-03	-4.35577614E-03
5.27101815E+07	 2.53766921E-03	-4.35625218E-03
5.27223895E+07	 2.54522351E-03	-4.36061716E-03
5.27345975E+07	 2.53974358E-03	-4.35553917E-03
5.27468056E+07	 2.53636015E-03	-4.35974652E-03
5.27590136E+07	 2.53932944E-03	-4.36326587E-03
5.27712216E+07	 2.53372979E-03	-4.36393906E-03
5.27834296E+07	 2.53719483E-03	-4.36477139E-03
5.27956377E+07	 2.53621184E-03	-4.36843697E-03
5.28078457E+07	 2.53302214E-03	-4.37032884E-03
5.28200537E+07	 2.52901444E-03	-4.36708146E-03
5.28322617E+07	 2.53008174E-03	-4.36816977E-03
5.28444698E+07	 2.52892778E-03	-4.37354461E-03
5.28566778E+07	 2.53082689E-03	-4.37344448E-03
5.28688858E+07	 2.52676614E-03	-4.37609992E-03
5.28810938E+07	 2.52717319E-03	-4.38004984E-03
5.28933019E+07	 2.52529661E-03	-4.38147540E-03
5.29055099E+07	 2.52205823E-03	-4.37602489E-03
5.29177179E+07	 2.52410435E-03	-4.37986422E-03
5.29299259E+07	 2.52139537E-03	-4.38576305E-03
5.29421340E+07	 2.52091713E-03	-4.38194701E-03
5.29543420E+07	 2.52319507E-03	-4.38405500E-03
5.29665500E+07	 2.51830477E-03	-4.38497818E-03
5.29787580E+07	 2.51367278E-03	-4.38711044E-03
5.29909661E+07	 2.51524553E-03	-4.39616972E-03
5.30031741E+07	 2.51326224E-03	-4.38981025E-03
5.30153821E+07	 2.51557010E-03	-4.39124498E-03
5.30275901E+07	 2.51421624E-03	-4.39573210E-03
5.30397982E+07	 2.52169960E-03	-4.39841740E-03
5.30520062E+07	 2.51253682E-03	-4.39224780E-03
5.30642142E+07	 2.51220048E-03	-4.40459771E-03
5.30764222E+07	 2.50588570E-03	-4.39876098E-03
5.30886303E+07	 2.51176748E-03	-4.40033065E-03
5.31008383E+07	 2.50714334E-03	-4.40224623E-03
5.31130463E+07	 2.51202112E-03	-4.40789234E-03
5.31252543E+07	 2.50394015E-03	-4.40616953E-03
5.31374624E+07	 2.50439641E-03	-4.40948117E-03
5.31496704E+07	 2.50681301E-03	-4.40940157E-03
5.31618784E+07	 2.50100369E-03	-4.41608545E-03
5.31740864E+07	 2.50459395E-03	-4.40864253E-03
5.31862945E+07	 2.50617579E-03	-4.41568987E-03
5.31985025E+07	 2.49989879E-03	-4.41842776E-03
5.32107105E+07	 2.49821941E-03	-4.41287486E-03
5.32229185E+07	 2.49801377E-03	-4.41976869E-03
5.32351266E+07	 2.49319308E-03	-4.41910555E-03
5.32473346E+07	 2.49668224E-03	-4.42091070E-03
5.32595426E+07	 2.49713803E-03	-4.42542441E-03
5.32717506E+07	 2.49201323E-03	-4.42359461E-03
5.32839587E+07	 2.49258778E-03	-4.42068533E-03
5.32961667E+07	 2.49184050E-03	-4.42686569E-03
5.33083747E+07	 2.49077725E-03	-4.42533745E-03
5.33205827E+07	 2.48997358E-03	-4.42858838E-03
5.33327908E+07	 2.48834864E-03	-4.43365551E-03
5.33449988E+07	 2.48649356E-03	-4.43414309E-03
5.33572068E+07	 2.49179621E-03	-4.43363090E-03
5.33694148E+07	 2.48534813E-03	-4.43754736E-03
5.33816229E+07	 2.48805853E-03	-4.43772765E-03
5.33938309E+07	 2.48300325E-03	-4.44038188E-03
5.34060389E+07	 2.48285607E-03	-4.43724832E-03
5.34182469E+07	 2.48423598E-03	-4.44417235E-03
5.34304550E+07	 2.48096265E-03	-4.44088031E-03
5.34426630E+07	 2.48352178E-03	-4.44034844E-03
5.34548710E+07	 2.48008866E-03	-4.44599969E-03
5.34670790E+07	 2.47619683E-03	-4.44953303E-03
5.34792871E+07	 2.47555712E-03	-4.44671341E-03
5.34914951E+07	 2.47617198E-03	-4.44940573E-03
5.35037031E+07	 2.47612127E-03	-4.44451225E-03
5.35159111E+07	 2.47350545E-03	-4.45300526E-03
5.35281192E+07	 2.47326417E-03	-4.45126713E-03
5.35403272E+07	 2.47091035E-03	-4.45939634E-03
5.35525352E+07	 2.47342759E-03	-4.45742679E-03
5.35647432E+07	 2.47189956E-03	-4.45774239E-03
5.35769512E+07	 2.47098896E-03	-4.46277740E-03
5.35891593E+07	 2.47351977E-03	-4.46445786E-03
5.36013673E+07	 2.47184107E-03	-4.46016241E-03
5.36135753E+07	 2.46535776E-03	-4.46735190E-03
5.36257833E+07	 2.47285662E-03	-4.46692639E-03
5.36379914E+07	 2.46930918E-03	-4.46631985E-03
5.36501994E+07	 2.46651058E-03	-4.46855464E-03
5.36624074E+07	 2.46699705E-03	-4.47186667E-03
5.36746154E+07	 2.46580394E-03	-4.47201442E-03
5.36868235E+07	 2.46416580E-03	-4.47260626E-03
5.36990315E+07	 2.46071002E-03	-4.47657832E-03
5.37112395E+07	 2.46031135E-03	-4.47209019E-03
5.37234475E+07	 2.46099243E-03	-4.48162744E-03
5.37356556E+07	 2.45503292E-03	-4.47922694E-03
5.37478636E+07	 2.45692990E-03	-4.47762049E-03
5.37600716E+07	 2.45527656E-03	-4.48471114E-03
5.37722796E+07	 2.45705681E-03	-4.48542679E-03
5.37844877E+07	 2.45777246E-03	-4.48432761E-03
5.37966957E+07	 2.45262408E-03	-4.48519686E-03
5.38089037E+07	 2.45551114E-03	-4.48835239E-03
5.38211117E+07	 2.45150474E-03	-4.48492571E-03
5.38333198E+07	 2.45295821E-03	-4.48790065E-03
5.38455278E+07	 2.44876390E-03	-4.49091603E-03
5.38577358E+07	 2.44769861E-03	-4.49043119E-03
5.38699438E+07	 2.45054530E-03	-4.49234961E-03
5.38821519E+07	 2.44337930E-03	-4.49755244E-03
5.38943599E+07	 2.44780086E-03	-4.49692750E-03
5.39065679E+07	 2.44199428E-03	-4.49188656E-03
5.39187759E+07	 2.44401915E-03	-4.50328562E-03
5.39309840E+07	 2.44566223E-03	-4.49912688E-03
5.39431920E+07	 2.44472279E-03	-4.50723704E-03
5.39554000E+07	 2.43853885E-03	-4.49915896E-03
5.39676080E+07	 2.44184697E-03	-4.50671761E-03
5.39798161E+07	 2.44123298E-03	-4.51059999E-03
5.39920241E+07	 2.44325948E-03	-4.50895619E-03
5.40042321E+07	 2.43817140E-03	-4.50667349E-03
5.40164401E+07	 2.43416172E-03	-4.51587524E-03
5.40286482E+07	 2.43424447E-03	-4.51286195E-03
5.40408562E+07	 2.43329555E-03	-4.51763274E-03
5.40530642E+07	 2.43407523E-03	-4.51562489E-03
5.40652722E+07	 2.42883821E-03	-4.51386697E-03
5.40774803E+07	 2.43110434E-03	-4.51764660E-03
5.40896883E+07	 2.42738682E-03	-4.51998960E-03
5.41018963E+07	 2.42246373E-03	-4.52494767E-03
5.41141043E+07	 2.42332265E-03	-4.52446515E-03
5.41263124E+07	 2.42110500E-03	-4.52593514E-03
5.41385204E+07	 2.42116062E-03	-4.52648798E-03
5.41507284E+07	 2.42528969E-03	-4.52332104E-03
5.41629364E+07	 2.42190296E-03	-4.53196295E-03
5.41751445E+07	 2.41929297E-03	-4.52825107E-03
5.41873525E+07	 2.41970207E-03	-4.53096250E-03
5.41995605E+07	 2.41552819E-03	-4.53244993E-03
5.42117685E+07	 2.42020454E-03	-4.53910498E-03
5.42239766E+07	 2.41606270E-03	-4.53388271E-03
5.42361846E+07	 2.41500283E-03	-4.53431593E-03
5.42483926E+07	 2.41351582E-03	-4.53624649E-03
5.42606006E+07	 2.41562250E-03	-4.54052976E-03
5.42728087E+07	 2.41364902E-03	-4.54625574E-03
5.42850167E+07	 2.40899850E-03	-4.54479142E-03
5.42972247E+07	 2.40814140E-03	-4.54338058E-03
5.43094327E+07	 2.40517992E-03	-4.54056351E-03
5.43216408E+07	 2.40744707E-03	-4.55187933E-03
5.43338488E+07	 2.40518125E-03	-4.54454573E-03
5.43460568E+07	 2.40703869E-03	-4.55209578E-03
5.43582648E+07	 2.40310739E-03	-4.55612885E-03
5.43704729E+07	 2.40174868E-03	-4.55048187E-03
5.43826809E+07	 2.39875945E-03	-4.55567369E-03
5.43948889E+07	 2.40252132E-03	-4.55698724E-03
5.44070969E+07	 2.39694633E-03	-4.55591549E-03
5.44193050E+07	 2.39713518E-03	-4.55609904E-03
5.44315130E+07	 2.39167644E-03	-4.56399512E-03
5.44437210E+07	 2.39808911E-03	-4.56373479E-03
5.44559290E+07	 2.39378825E-03	-4.56734910E-03
5.44681371E+07	 2.39217133E-03	-4.56888479E-03
5.44803451E+07	 2.39266094E-03	-4.56541015E-03
5.44925531E+07	 2.38860718E-03	-4.56738062E-03
5.45047611E+07	 2.38764477E-03	-4.57108724E-03
5.45169692E+07	 2.38707637E-03	-4.57235388E-03
5.45291772E+07	 2.39727823E-03	-4.57229531E-03
5.45413852E+07	 2.38400495E-03	-4.58130636E-03
5.45535932E+07	 2.38772242E-03	-4.57616859E-03
5.45658013E+07	 2.38578803E-03	-4.57446021E-03
5.45780093E+07	 2.38174934E-03	-4.58043516E-03
5.45902173E+07	 2.37734799E-03	-4.57988700E-03
5.46024253E+07	 2.38333287E-03	-4.58342097E-03
5.46146334E+07	 2.38205232E-03	-4.58425396E-03
5.46268414E+07	 2.38044296E-03	-4.58596330E-03
5.46390494E+07	 2.37815207E-03	-4.58672540E-03
5.46512574E+07	 2.36882788E-03	-4.58844020E-03
5.46634655E+07	 2.37224972E-03	-4.59010640E-03
5.46756735E+07	 2.37518468E-03	-4.59154247E-03
5.46878815E+07	 2.37424663E-03	-4.59463756E-03
5.47000895E+07	 2.37238653E-03	-4.59219906E-03
5.47122976E+07	 2.37039771E-03	-4.59681689E-03
5.47245056E+07	 2.37165601E-03	-4.60096527E-03
5.47367136E+07	 2.36953028E-03	-4.60160737E-03
5.47489216E+07	 2.36750312E-03	-4.59815309E-03
5.47611296E+07	 2.36006969E-03	-4.60300989E-03
5.47733377E+07	 2.35985831E-03	-4.60263218E-03
5.47855457E+07	 2.36385160E-03	-4.60205371E-03
5.47977537E+07	 2.35993147E-03	-4.60494542E-03
5.48099617E+07	 2.35761719E-03	-4.60409399E-03
5.48221698E+07	 2.35986107E-03	-4.60781105E-03
5.48343778E+07	 2.35742557E-03	-4.61454341E-03
5.48465858E+07	 2.35628856E-03	-4.61174349E-03
5.48587938E+07	 2.35275788E-03	-4.61326151E-03
5.48710019E+07	 2.35558954E-03	-4.61521104E-03
5.48832099E+07	 2.35747601E-03	-4.61226748E-03
5.48954179E+07	 2.35009763E-03	-4.61598260E-03
5.49076259E+07	 2.35004170E-03	-4.61836707E-03
5.49198340E+07	 2.35033490E-03	-4.61977657E-03
5.49320420E+07	 2.34921058E-03	-4.62114268E-03
5.49442500E+07	 2.34198066E-03	-4.62258393E-03
5.49564580E+07	 2.34642238E-03	-4.62242351E-03
5.49686661E+07	 2.34847696E-03	-4.62720272E-03
5.49808741E+07	 2.34391787E-03	-4.62557311E-03
5.49930821E+07	 2.34235443E-03	-4.62813390E-03
5.50052901E+07	 2.34176514E-03	-4.63462156E-03
5.50174982E+07	 2.34005985E-03	-4.63204073E-03
5.50297062E+07	 2.33761617E-03	-4.63393509E-03
5.50419142E+07	 2.33896965E-03	-4.63124257E-03
5.50541222E+07	 2.34005665E-03	-4.63578998E-03
5.50663303E+07	 2.33568901E-03	-4.63627252E-03
5.50785383E+07	 2.33494766E-03	-4.63748041E-03
5.50907463E+07	 2.33500658E-03	-4.64033198E-03
5.51029543E+07	 2.33472635E-03	-4.64700572E-03
5.51151624E+07	 2.32916561E-03	-4.64201385E-03
5.51273704E+07	 2.33138473E-03	-4.64703748E-03
