! COPPER MOUNTAIN TECHNOLOGIES, PLANAR TR1300/1, 00071119, 20.2.2/1.0
! Date: 1/9/2024 7:14:53 PM
! Data: Format [Calibration Info]
! Freq          	S11: Re/Im F1                  
# HZ S RI R 50
5.00000000E+07	 7.38137155E-03	-1.13526121E-02
5.00122080E+07	 7.38212003E-03	-1.13506688E-02
5.00244160E+07	 7.37259281E-03	-1.13517664E-02
5.00366241E+07	 7.37087380E-03	-1.13600720E-02
5.00488321E+07	 7.36901556E-03	-1.13614488E-02
5.00610401E+07	 7.36232732E-03	-1.13641946E-02
5.00732481E+07	 7.36395439E-03	-1.13673649E-02
5.00854562E+07	 7.36218661E-03	-1.13691988E-02
5.00976642E+07	 7.36020791E-03	-1.13742969E-02
5.01098722E+07	 7.35511499E-03	-1.13736107E-02
5.01220802E+07	 7.35258368E-03	-1.13765105E-02
5.01342883E+07	 7.34436006E-03	-1.13855571E-02
5.01464963E+07	 7.34536947E-03	-1.13808152E-02
5.01587043E+07	 7.33984503E-03	-1.13858158E-02
5.01709123E+07	 7.34370999E-03	-1.13859954E-02
5.01831204E+07	 7.33780264E-03	-1.13965651E-02
5.01953284E+07	 7.33299545E-03	-1.13941304E-02
5.02075364E+07	 7.32476541E-03	-1.14006802E-02
5.02197444E+07	 7.33047363E-03	-1.14040899E-02
5.02319525E+07	 7.32697260E-03	-1.14022688E-02
5.02441605E+07	 7.32020326E-03	-1.14074708E-02
5.02563685E+07	 7.31857917E-03	-1.14079299E-02
5.02685765E+07	 7.31643149E-03	-1.14146638E-02
5.02807846E+07	 7.31498139E-03	-1.14186964E-02
5.02929926E+07	 7.31430803E-03	-1.14204611E-02
5.03052006E+07	 7.30587948E-03	-1.14223491E-02
5.03174086E+07	 7.30284039E-03	-1.14255759E-02
5.03296167E+07	 7.30497496E-03	-1.14270781E-02
5.03418247E+07	 7.29979220E-03	-1.14298440E-02
5.03540327E+07	 7.29189309E-03	-1.14351121E-02
5.03662407E+07	 7.29013196E-03	-1.14342952E-02
5.03784488E+07	 7.28902604E-03	-1.14380788E-02
5.03906568E+07	 7.28937676E-03	-1.14441311E-02
5.04028648E+07	 7.28816387E-03	-1.14464389E-02
5.04150728E+07	 7.27766552E-03	-1.14534232E-02
5.04272809E+07	 7.27749917E-03	-1.14493162E-02
5.04394889E+07	 7.27754349E-03	-1.14576256E-02
5.04516969E+07	 7.27636474E-03	-1.14592758E-02
5.04639049E+07	 7.27130002E-03	-1.14555186E-02
5.04761130E+07	 7.26845079E-03	-1.14692349E-02
5.04883210E+07	 7.26548493E-03	-1.14673631E-02
5.05005290E+07	 7.26301610E-03	-1.14670972E-02
5.05127370E+07	 7.26065758E-03	-1.14681866E-02
5.05249451E+07	 7.24898602E-03	-1.14731317E-02
5.05371531E+07	 7.25391932E-03	-1.14720643E-02
5.05493611E+07	 7.24639523E-03	-1.14773593E-02
5.05615691E+07	 7.24481407E-03	-1.14808330E-02
5.05737772E+07	 7.24243986E-03	-1.14901913E-02
5.05859852E+07	 7.24445110E-03	-1.14879326E-02
5.05981932E+07	 7.23668234E-03	-1.14941469E-02
5.06104012E+07	 7.23222333E-03	-1.14927238E-02
5.06226093E+07	 7.23224006E-03	-1.14954252E-02
5.06348173E+07	 7.22638873E-03	-1.14988123E-02
5.06470253E+07	 7.22354745E-03	-1.15004440E-02
5.06592333E+07	 7.22357314E-03	-1.15066895E-02
5.06714414E+07	 7.22150902E-03	-1.15098486E-02
5.06836494E+07	 7.21535010E-03	-1.15086349E-02
5.06958574E+07	 7.21777556E-03	-1.15157104E-02
5.07080654E+07	 7.20791313E-03	-1.15203525E-02
5.07202735E+07	 7.20716521E-03	-1.15198806E-02
5.07324815E+07	 7.20615959E-03	-1.15235451E-02
5.07446895E+07	 7.20482230E-03	-1.15259698E-02
5.07568975E+07	 7.19829366E-03	-1.15248308E-02
5.07691056E+07	 7.19255847E-03	-1.15277419E-02
5.07813136E+07	 7.19101087E-03	-1.15365724E-02
5.07935216E+07	 7.19432727E-03	-1.15398426E-02
5.08057296E+07	 7.19100994E-03	-1.15400914E-02
5.08179377E+07	 7.18585912E-03	-1.15432027E-02
5.08301457E+07	 7.18260983E-03	-1.15498437E-02
5.08423537E+07	 7.17849730E-03	-1.15486283E-02
5.08545617E+07	 7.17141696E-03	-1.15490635E-02
5.08667698E+07	 7.16952718E-03	-1.15575938E-02
5.08789778E+07	 7.17204416E-03	-1.15581208E-02
5.08911858E+07	 7.16750379E-03	-1.15635139E-02
5.09033938E+07	 7.16282633E-03	-1.15669260E-02
5.09156019E+07	 7.15987015E-03	-1.15694319E-02
5.09278099E+07	 7.15868923E-03	-1.15676583E-02
5.09400179E+07	 7.15181333E-03	-1.15751351E-02
5.09522259E+07	 7.15472040E-03	-1.15773350E-02
5.09644340E+07	 7.14641237E-03	-1.15758996E-02
5.09766420E+07	 7.14317840E-03	-1.15808711E-02
5.09888500E+07	 7.13908240E-03	-1.15838241E-02
5.10010580E+07	 7.14223631E-03	-1.15837903E-02
5.10132661E+07	 7.13599316E-03	-1.15874824E-02
5.10254741E+07	 7.13944164E-03	-1.15922299E-02
5.10376821E+07	 7.13378459E-03	-1.15962819E-02
5.10498901E+07	 7.13455354E-03	-1.16034072E-02
5.10620982E+07	 7.13025346E-03	-1.16013965E-02
5.10743062E+07	 7.12080027E-03	-1.16053003E-02
5.10865142E+07	 7.12372886E-03	-1.16111738E-02
5.10987222E+07	 7.12504182E-03	-1.16052423E-02
5.11109303E+07	 7.11625907E-03	-1.16085838E-02
5.11231383E+07	 7.11353318E-03	-1.16173984E-02
5.11353463E+07	 7.11111588E-03	-1.16221933E-02
5.11475543E+07	 7.11126611E-03	-1.16255274E-02
5.11597624E+07	 7.10785249E-03	-1.16258448E-02
5.11719704E+07	 7.10777113E-03	-1.16303889E-02
5.11841784E+07	 7.10150672E-03	-1.16311634E-02
5.11963864E+07	 7.10378453E-03	-1.16360216E-02
5.12085944E+07	 7.09077264E-03	-1.16402097E-02
5.12208025E+07	 7.10062875E-03	-1.16383354E-02
5.12330105E+07	 7.09563871E-03	-1.16416598E-02
5.12452185E+07	 7.08994226E-03	-1.16452693E-02
5.12574265E+07	 7.09089830E-03	-1.16472129E-02
5.12696346E+07	 7.08051691E-03	-1.16470878E-02
5.12818426E+07	 7.08120023E-03	-1.16542157E-02
5.12940506E+07	 7.07981821E-03	-1.16533744E-02
5.13062586E+07	 7.07579055E-03	-1.16599143E-02
5.13184667E+07	 7.07829666E-03	-1.16620812E-02
5.13306747E+07	 7.07282632E-03	-1.16665682E-02
5.13428827E+07	 7.06942402E-03	-1.16681712E-02
5.13550907E+07	 7.06712913E-03	-1.16717333E-02
5.13672988E+07	 7.06624849E-03	-1.16734504E-02
5.13795068E+07	 7.06370010E-03	-1.16793124E-02
5.13917148E+07	 7.06088315E-03	-1.16790647E-02
5.14039228E+07	 7.05791305E-03	-1.16877957E-02
5.14161309E+07	 7.05106471E-03	-1.16854198E-02
5.14283389E+07	 7.05269684E-03	-1.16871765E-02
5.14405469E+07	 7.05074870E-03	-1.16895009E-02
5.14527549E+07	 7.05030124E-03	-1.16958874E-02
5.14649630E+07	 7.04761516E-03	-1.16999857E-02
5.14771710E+07	 7.04042828E-03	-1.16957370E-02
5.14893790E+07	 7.04193417E-03	-1.17089495E-02
5.15015870E+07	 7.04080359E-03	-1.17079085E-02
5.15137951E+07	 7.03585663E-03	-1.17129236E-02
5.15260031E+07	 7.03662402E-03	-1.17103822E-02
5.15382111E+07	 7.03044424E-03	-1.17147870E-02
5.15504191E+07	 7.02546786E-03	-1.17209454E-02
5.15626272E+07	 7.02383301E-03	-1.17216243E-02
5.15748352E+07	 7.02415302E-03	-1.17214507E-02
5.15870432E+07	 7.01690594E-03	-1.17248283E-02
5.15992512E+07	 7.01271207E-03	-1.17287671E-02
5.16114593E+07	 7.01323385E-03	-1.17313571E-02
5.16236673E+07	 7.01773582E-03	-1.17419481E-02
5.16358753E+07	 7.01114571E-03	-1.17343305E-02
5.16480833E+07	 7.01399594E-03	-1.17421694E-02
5.16602914E+07	 7.00636146E-03	-1.17463216E-02
5.16724994E+07	 7.00168014E-03	-1.17443802E-02
5.16847074E+07	 6.99898729E-03	-1.17522198E-02
5.16969154E+07	 6.99651602E-03	-1.17548562E-02
5.17091235E+07	 6.99151669E-03	-1.17594663E-02
5.17213315E+07	 6.99438106E-03	-1.17625505E-02
5.17335395E+07	 6.98862192E-03	-1.17647481E-02
5.17457475E+07	 6.99074994E-03	-1.17654799E-02
5.17579556E+07	 6.98787703E-03	-1.17654991E-02
5.17701636E+07	 6.98049548E-03	-1.17644171E-02
5.17823716E+07	 6.97891656E-03	-1.17750445E-02
5.17945796E+07	 6.97358067E-03	-1.17752424E-02
5.18067877E+07	 6.97473239E-03	-1.17775801E-02
5.18189957E+07	 6.97031789E-03	-1.17769570E-02
5.18312037E+07	 6.96878407E-03	-1.17837548E-02
5.18434117E+07	 6.96660169E-03	-1.17846669E-02
5.18556198E+07	 6.96346061E-03	-1.17910727E-02
5.18678278E+07	 6.96106575E-03	-1.17946019E-02
5.18800358E+07	 6.95672365E-03	-1.17931684E-02
5.18922438E+07	 6.95598775E-03	-1.17988897E-02
5.19044519E+07	 6.95202238E-03	-1.18054297E-02
5.19166599E+07	 6.95023669E-03	-1.18099025E-02
5.19288679E+07	 6.94808522E-03	-1.18070361E-02
5.19410759E+07	 6.95023624E-03	-1.18113906E-02
5.19532840E+07	 6.94205518E-03	-1.18127607E-02
5.19654920E+07	 6.93901034E-03	-1.18099275E-02
5.19777000E+07	 6.93518247E-03	-1.18220472E-02
5.19899080E+07	 6.93388481E-03	-1.18223481E-02
5.20021161E+07	 6.93186996E-03	-1.18290758E-02
5.20143241E+07	 6.92791444E-03	-1.18322554E-02
5.20265321E+07	 6.93077947E-03	-1.18306457E-02
5.20387401E+07	 6.92895183E-03	-1.18314700E-02
5.20509482E+07	 6.91838560E-03	-1.18365361E-02
5.20631562E+07	 6.91776801E-03	-1.18359916E-02
5.20753642E+07	 6.91859627E-03	-1.18381283E-02
5.20875722E+07	 6.91539399E-03	-1.18448055E-02
5.20997803E+07	 6.91396362E-03	-1.18481969E-02
5.21119883E+07	 6.90771339E-03	-1.18497303E-02
5.21241963E+07	 6.90541256E-03	-1.18491713E-02
5.21364043E+07	 6.90273668E-03	-1.18552598E-02
5.21486124E+07	 6.89709766E-03	-1.18572909E-02
5.21608204E+07	 6.89941064E-03	-1.18610225E-02
5.21730284E+07	 6.89276549E-03	-1.18639362E-02
5.21852364E+07	 6.88726045E-03	-1.18711471E-02
5.21974445E+07	 6.89060381E-03	-1.18674890E-02
5.22096525E+07	 6.88401045E-03	-1.18732012E-02
5.22218605E+07	 6.88132109E-03	-1.18769484E-02
5.22340685E+07	 6.88300211E-03	-1.18775176E-02
5.22462766E+07	 6.87539066E-03	-1.18812483E-02
5.22584846E+07	 6.86817457E-03	-1.18839631E-02
5.22706926E+07	 6.87097724E-03	-1.18865101E-02
5.22829006E+07	 6.86996969E-03	-1.18903751E-02
5.22951087E+07	 6.86001719E-03	-1.18901852E-02
5.23073167E+07	 6.85785868E-03	-1.18893875E-02
5.23195247E+07	 6.85988889E-03	-1.18946819E-02
5.23317327E+07	 6.85834652E-03	-1.18983471E-02
5.23439408E+07	 6.85381944E-03	-1.19034373E-02
5.23561488E+07	 6.84992804E-03	-1.18998142E-02
5.23683568E+07	 6.84540552E-03	-1.19097045E-02
5.23805648E+07	 6.84254060E-03	-1.19105117E-02
5.23927728E+07	 6.83568278E-03	-1.19130471E-02
5.24049809E+07	 6.83870938E-03	-1.19127084E-02
5.24171889E+07	 6.83509952E-03	-1.19199599E-02
5.24293969E+07	 6.83307757E-03	-1.19227417E-02
5.24416049E+07	 6.83055701E-03	-1.19260115E-02
5.24538130E+07	 6.82663311E-03	-1.19278440E-02
5.24660210E+07	 6.81908421E-03	-1.19239814E-02
5.24782290E+07	 6.81916422E-03	-1.19229218E-02
5.24904370E+07	 6.81591149E-03	-1.19378908E-02
5.25026451E+07	 6.81480354E-03	-1.19333686E-02
5.25148531E+07	 6.80963299E-03	-1.19411885E-02
5.25270611E+07	 6.80597474E-03	-1.19391964E-02
5.25392691E+07	 6.80551336E-03	-1.19454645E-02
5.25514772E+07	 6.80055006E-03	-1.19532435E-02
5.25636852E+07	 6.80135208E-03	-1.19542683E-02
5.25758932E+07	 6.79285120E-03	-1.19533602E-02
5.25881012E+07	 6.78864022E-03	-1.19593771E-02
5.26003093E+07	 6.79094706E-03	-1.19551096E-02
5.26125173E+07	 6.79143652E-03	-1.19597976E-02
5.26247253E+07	 6.78437223E-03	-1.19638937E-02
5.26369333E+07	 6.77484077E-03	-1.19695259E-02
5.26491414E+07	 6.77859875E-03	-1.19684843E-02
5.26613494E+07	 6.77534688E-03	-1.19683841E-02
5.26735574E+07	 6.77088753E-03	-1.19774007E-02
5.26857654E+07	 6.77134961E-03	-1.19758554E-02
5.26979735E+07	 6.76942288E-03	-1.19785373E-02
5.27101815E+07	 6.76117001E-03	-1.19817077E-02
5.27223895E+07	 6.76636112E-03	-1.19866973E-02
5.27345975E+07	 6.75710271E-03	-1.19879813E-02
5.27468056E+07	 6.75242506E-03	-1.19909073E-02
5.27590136E+07	 6.75290143E-03	-1.19907557E-02
5.27712216E+07	 6.74384673E-03	-1.19947417E-02
5.27834296E+07	 6.74349052E-03	-1.19951251E-02
5.27956377E+07	 6.74427370E-03	-1.20023640E-02
5.28078457E+07	 6.73725864E-03	-1.20079306E-02
5.28200537E+07	 6.73308069E-03	-1.20064184E-02
5.28322617E+07	 6.73263503E-03	-1.20069054E-02
5.28444698E+07	 6.72922059E-03	-1.20170329E-02
5.28566778E+07	 6.73351514E-03	-1.20139266E-02
5.28688858E+07	 6.72236034E-03	-1.20170696E-02
5.28810938E+07	 6.72422088E-03	-1.20220559E-02
5.28933019E+07	 6.71885941E-03	-1.20232323E-02
5.29055099E+07	 6.71434757E-03	-1.20237412E-02
5.29177179E+07	 6.70964903E-03	-1.20275147E-02
5.29299259E+07	 6.70731534E-03	-1.20332602E-02
5.29421340E+07	 6.70690698E-03	-1.20282748E-02
5.29543420E+07	 6.69977179E-03	-1.20353027E-02
5.29665500E+07	 6.69980334E-03	-1.20393788E-02
5.29787580E+07	 6.69620493E-03	-1.20437424E-02
5.29909661E+07	 6.69269618E-03	-1.20485411E-02
5.30031741E+07	 6.69122878E-03	-1.20467728E-02
5.30153821E+07	 6.68744452E-03	-1.20506663E-02
5.30275901E+07	 6.68456360E-03	-1.20532268E-02
5.30397982E+07	 6.68339648E-03	-1.20536295E-02
5.30520062E+07	 6.67964550E-03	-1.20548561E-02
5.30642142E+07	 6.67694205E-03	-1.20677178E-02
5.30764222E+07	 6.67167214E-03	-1.20613763E-02
5.30886303E+07	 6.67376797E-03	-1.20681421E-02
5.31008383E+07	 6.66205752E-03	-1.20664951E-02
5.31130463E+07	 6.67013067E-03	-1.20723969E-02
5.31252543E+07	 6.65822755E-03	-1.20781464E-02
5.31374624E+07	 6.65963946E-03	-1.20752498E-02
5.31496704E+07	 6.65558723E-03	-1.20797477E-02
5.31618784E+07	 6.65045653E-03	-1.20839577E-02
5.31740864E+07	 6.65105383E-03	-1.20860251E-02
5.31862945E+07	 6.65315703E-03	-1.20885441E-02
5.31985025E+07	 6.64372611E-03	-1.20887178E-02
5.32107105E+07	 6.63890044E-03	-1.20930531E-02
5.32229185E+07	 6.64355653E-03	-1.20998606E-02
5.32351266E+07	 6.63685756E-03	-1.20982910E-02
5.32473346E+07	 6.63165496E-03	-1.21008227E-02
5.32595426E+07	 6.63037095E-03	-1.21086555E-02
5.32717506E+07	 6.62623117E-03	-1.21002630E-02
5.32839587E+07	 6.62536322E-03	-1.21032007E-02
5.32961667E+07	 6.62603109E-03	-1.21106256E-02
5.33083747E+07	 6.61771441E-03	-1.21126825E-02
5.33205827E+07	 6.61642441E-03	-1.21187697E-02
5.33327908E+07	 6.61440176E-03	-1.21168770E-02
5.33449988E+07	 6.61298025E-03	-1.21212003E-02
5.33572068E+07	 6.60931354E-03	-1.21244772E-02
5.33694148E+07	 6.60463537E-03	-1.21242290E-02
5.33816229E+07	 6.60235945E-03	-1.21289450E-02
5.33938309E+07	 6.59489242E-03	-1.21360056E-02
5.34060389E+07	 6.59480547E-03	-1.21345906E-02
5.34182469E+07	 6.59611899E-03	-1.21404924E-02
5.34304550E+07	 6.59040524E-03	-1.21415197E-02
5.34426630E+07	 6.58984671E-03	-1.21388218E-02
5.34548710E+07	 6.58611888E-03	-1.21459498E-02
5.34670790E+07	 6.58480112E-03	-1.21474681E-02
5.34792871E+07	 6.57415720E-03	-1.21502689E-02
5.34914951E+07	 6.57276675E-03	-1.21526891E-02
5.35037031E+07	 6.57025021E-03	-1.21524793E-02
5.35159111E+07	 6.57057838E-03	-1.21595579E-02
5.35281192E+07	 6.56760043E-03	-1.21599223E-02
5.35403272E+07	 6.56372448E-03	-1.21660113E-02
5.35525352E+07	 6.56310131E-03	-1.21646670E-02
5.35647432E+07	 6.56231095E-03	-1.21697975E-02
5.35769512E+07	 6.55840998E-03	-1.21739025E-02
5.35891593E+07	 6.55676247E-03	-1.21764579E-02
5.36013673E+07	 6.55214666E-03	-1.21751418E-02
5.36135753E+07	 6.54668165E-03	-1.21794829E-02
5.36257833E+07	 6.54800769E-03	-1.21813503E-02
5.36379914E+07	 6.54415907E-03	-1.21866948E-02
5.36501994E+07	 6.53919883E-03	-1.21868492E-02
5.36624074E+07	 6.53805186E-03	-1.21917383E-02
5.36746154E+07	 6.53604988E-03	-1.21901957E-02
5.36868235E+07	 6.53108070E-03	-1.21985823E-02
5.36990315E+07	 6.52752023E-03	-1.21993707E-02
5.37112395E+07	 6.52456311E-03	-1.22015500E-02
5.37234475E+07	 6.52180161E-03	-1.22083903E-02
5.37356556E+07	 6.51436502E-03	-1.22045772E-02
5.37478636E+07	 6.51618670E-03	-1.22122602E-02
5.37600716E+07	 6.51621923E-03	-1.22088889E-02
5.37722796E+07	 6.50996928E-03	-1.22141589E-02
5.37844877E+07	 6.50863387E-03	-1.22162872E-02
5.37966957E+07	 6.50973156E-03	-1.22156419E-02
5.38089037E+07	 6.50309203E-03	-1.22179269E-02
5.38211117E+07	 6.49630291E-03	-1.22209358E-02
5.38333198E+07	 6.49789813E-03	-1.22243678E-02
5.38455278E+07	 6.49249108E-03	-1.22267458E-02
5.38577358E+07	 6.49174897E-03	-1.22319499E-02
5.38699438E+07	 6.49143363E-03	-1.22348376E-02
5.38821519E+07	 6.48076298E-03	-1.22337404E-02
5.38943599E+07	 6.48088614E-03	-1.22353139E-02
5.39065679E+07	 6.47701469E-03	-1.22406702E-02
5.39187759E+07	 6.47261938E-03	-1.22501947E-02
5.39309840E+07	 6.47403582E-03	-1.22446079E-02
5.39431920E+07	 6.47028850E-03	-1.22539987E-02
5.39554000E+07	 6.46578318E-03	-1.22478915E-02
5.39676080E+07	 6.46758844E-03	-1.22549504E-02
5.39798161E+07	 6.46085915E-03	-1.22579318E-02
5.39920241E+07	 6.45933666E-03	-1.22602442E-02
5.40042321E+07	 6.45784351E-03	-1.22556780E-02
5.40164401E+07	 6.45219388E-03	-1.22669506E-02
5.40286482E+07	 6.44768230E-03	-1.22719987E-02
5.40408562E+07	 6.44718479E-03	-1.22708896E-02
5.40530642E+07	 6.44379818E-03	-1.22769105E-02
5.40652722E+07	 6.43948274E-03	-1.22764205E-02
5.40774803E+07	 6.43724669E-03	-1.22746116E-02
5.40896883E+07	 6.43515571E-03	-1.22811216E-02
5.41018963E+07	 6.42963959E-03	-1.22864320E-02
5.41141043E+07	 6.42714868E-03	-1.22873759E-02
5.41263124E+07	 6.42122175E-03	-1.22865234E-02
5.41385204E+07	 6.41902438E-03	-1.22941104E-02
5.41507284E+07	 6.42103753E-03	-1.22920239E-02
5.41629364E+07	 6.41532151E-03	-1.22967012E-02
5.41751445E+07	 6.41071329E-03	-1.22947452E-02
5.41873525E+07	 6.41104119E-03	-1.23052152E-02
5.41995605E+07	 6.40373690E-03	-1.23050353E-02
5.42117685E+07	 6.40358224E-03	-1.23104583E-02
5.42239766E+07	 6.39619966E-03	-1.23071610E-02
5.42361846E+07	 6.39427142E-03	-1.23063570E-02
5.42483926E+07	 6.39355568E-03	-1.23134880E-02
5.42606006E+07	 6.39197979E-03	-1.23173493E-02
5.42728087E+07	 6.38996374E-03	-1.23186879E-02
5.42850167E+07	 6.38199861E-03	-1.23237529E-02
5.42972247E+07	 6.38000737E-03	-1.23240881E-02
5.43094327E+07	 6.37580005E-03	-1.23232374E-02
5.43216408E+07	 6.37473443E-03	-1.23357682E-02
5.43338488E+07	 6.37140214E-03	-1.23307518E-02
5.43460568E+07	 6.36891726E-03	-1.23403542E-02
5.43582648E+07	 6.36380658E-03	-1.23388497E-02
5.43704729E+07	 6.35859379E-03	-1.23395495E-02
5.43826809E+07	 6.36098371E-03	-1.23412442E-02
5.43948889E+07	 6.35894446E-03	-1.23510653E-02
5.44070969E+07	 6.35400764E-03	-1.23509819E-02
5.44193050E+07	 6.34687537E-03	-1.23485349E-02
5.44315130E+07	 6.34297326E-03	-1.23548032E-02
5.44437210E+07	 6.34241516E-03	-1.23584041E-02
5.44559290E+07	 6.34029457E-03	-1.23601282E-02
5.44681371E+07	 6.33953191E-03	-1.23655160E-02
5.44803451E+07	 6.33573304E-03	-1.23637091E-02
5.44925531E+07	 6.32834699E-03	-1.23698863E-02
5.45047611E+07	 6.32867209E-03	-1.23720993E-02
5.45169692E+07	 6.32477776E-03	-1.23738726E-02
5.45291772E+07	 6.32946919E-03	-1.23712472E-02
5.45413852E+07	 6.31591373E-03	-1.23821733E-02
5.45535932E+07	 6.31467644E-03	-1.23747572E-02
5.45658013E+07	 6.31213693E-03	-1.23828733E-02
5.45780093E+07	 6.31016849E-03	-1.23899395E-02
5.45902173E+07	 6.30311849E-03	-1.23880850E-02
5.46024253E+07	 6.30538771E-03	-1.23923692E-02
5.46146334E+07	 6.30020050E-03	-1.23943610E-02
5.46268414E+07	 6.30001161E-03	-1.23949457E-02
5.46390494E+07	 6.29343528E-03	-1.23974631E-02
5.46512574E+07	 6.28799434E-03	-1.24041211E-02
5.46634655E+07	 6.28692209E-03	-1.24037019E-02
5.46756735E+07	 6.28135650E-03	-1.24042598E-02
5.46878815E+07	 6.28000176E-03	-1.24126467E-02
5.47000895E+07	 6.27714970E-03	-1.24117831E-02
5.47122976E+07	 6.27523916E-03	-1.24123471E-02
5.47245056E+07	 6.27031026E-03	-1.24194871E-02
5.47367136E+07	 6.26135917E-03	-1.24209936E-02
5.47489216E+07	 6.26757053E-03	-1.24262911E-02
5.47611296E+07	 6.26161404E-03	-1.24268145E-02
5.47733377E+07	 6.25640862E-03	-1.24226433E-02
5.47855457E+07	 6.25852371E-03	-1.24244784E-02
5.47977537E+07	 6.24853205E-03	-1.24319058E-02
5.48099617E+07	 6.24593160E-03	-1.24362336E-02
5.48221698E+07	 6.24584653E-03	-1.24370367E-02
5.48343778E+07	 6.24446287E-03	-1.24432464E-02
5.48465858E+07	 6.23960255E-03	-1.24437958E-02
5.48587938E+07	 6.23355372E-03	-1.24434792E-02
5.48710019E+07	 6.23475396E-03	-1.24482239E-02
5.48832099E+07	 6.22652416E-03	-1.24464609E-02
5.48954179E+07	 6.22414012E-03	-1.24534691E-02
5.49076259E+07	 6.22029125E-03	-1.24527043E-02
5.49198340E+07	 6.21916527E-03	-1.24581086E-02
5.49320420E+07	 6.21602402E-03	-1.24613623E-02
5.49442500E+07	 6.21163038E-03	-1.24649988E-02
5.49564580E+07	 6.21250741E-03	-1.24703874E-02
5.49686661E+07	 6.20720211E-03	-1.24703375E-02
5.49808741E+07	 6.20672080E-03	-1.24716340E-02
5.49930821E+07	 6.19995934E-03	-1.24709011E-02
5.50052901E+07	 6.19850338E-03	-1.24796871E-02
5.50174982E+07	 6.19221940E-03	-1.24787645E-02
5.50297062E+07	 6.19093312E-03	-1.24805756E-02
5.50419142E+07	 6.19140481E-03	-1.24824092E-02
5.50541222E+07	 6.18926657E-03	-1.24885753E-02
5.50663303E+07	 6.18385883E-03	-1.24921960E-02
5.50785383E+07	 6.18126837E-03	-1.24918819E-02
5.50907463E+07	 6.17517988E-03	-1.24942969E-02
5.51029543E+07	 6.17154909E-03	-1.25054358E-02
5.51151624E+07	 6.17099784E-03	-1.24964808E-02
5.51273704E+07	 6.17120751E-03	-1.25038413E-02
