! COPPER MOUNTAIN TECHNOLOGIES, PLANAR TR1300/1, 00071119, 20.2.2/1.0
! Date: 1/9/2024 8:00:36 PM
! Data: Format [Calibration Info]
! Freq          	S11: Re/Im F1                  
# HZ S RI R 50
5.00000000E+07	-2.11401651E-02	 8.88525782E-03
5.00122080E+07	-2.15753214E-02	 8.65886393E-03
5.00244160E+07	-2.13560407E-02	 8.73224811E-03
5.00366241E+07	-2.13791230E-02	 8.64098550E-03
5.00488321E+07	-2.10171905E-02	 8.82478662E-03
5.00610401E+07	-2.12064379E-02	 8.83575353E-03
5.00732481E+07	-2.13123568E-02	 8.93539900E-03
5.00854562E+07	-2.13528650E-02	 9.02343166E-03
5.00976642E+07	-2.12836808E-02	 8.93355243E-03
5.01098722E+07	-2.11874220E-02	 8.95273697E-03
5.01220802E+07	-2.11335019E-02	 8.92424772E-03
5.01342883E+07	-2.13105206E-02	 8.76149017E-03
5.01464963E+07	-2.12899248E-02	 8.98237824E-03
5.01587043E+07	-2.14767326E-02	 8.79887294E-03
5.01709123E+07	-2.11656511E-02	 8.95541213E-03
5.01831204E+07	-2.14116013E-02	 8.96379039E-03
5.01953284E+07	-2.15905654E-02	 8.85967562E-03
5.02075364E+07	-2.12172299E-02	 8.89564387E-03
5.02197444E+07	-2.14022509E-02	 8.61642772E-03
5.02319525E+07	-2.13354687E-02	 8.97964355E-03
5.02441605E+07	-2.14258082E-02	 8.79747418E-03
5.02563685E+07	-2.12827093E-02	 8.80434623E-03
5.02685765E+07	-2.11897056E-02	 8.92117252E-03
5.02807846E+07	-2.14010616E-02	 8.83791796E-03
5.02929926E+07	-2.13445173E-02	 8.81427584E-03
5.03052006E+07	-2.14856713E-02	 8.62129554E-03
5.03174086E+07	-2.12734386E-02	 9.35295888E-03
5.03296167E+07	-2.10883365E-02	 8.72169237E-03
5.03418247E+07	-2.10689968E-02	 8.80644365E-03
5.03540327E+07	-2.10846210E-02	 8.61271866E-03
5.03662407E+07	-2.14707660E-02	 8.99770022E-03
5.03784488E+07	-2.14103393E-02	 8.76372527E-03
5.03906568E+07	-2.13190884E-02	 8.98045359E-03
5.04028648E+07	-2.12913041E-02	 8.95202466E-03
5.04150728E+07	-2.12838261E-02	 9.29949339E-03
5.04272809E+07	-2.11285197E-02	 8.80197262E-03
5.04394889E+07	-2.14332660E-02	 8.85273282E-03
5.04516969E+07	-2.11729124E-02	 9.29310858E-03
5.04639049E+07	-2.13440498E-02	 8.75546486E-03
5.04761130E+07	-2.10645450E-02	 8.95698184E-03
5.04883210E+07	-2.13119010E-02	 8.87544843E-03
5.05005290E+07	-2.10491844E-02	 8.91561140E-03
5.05127370E+07	-2.12858657E-02	 8.96483372E-03
5.05249451E+07	-2.11414995E-02	 8.95246131E-03
5.05371531E+07	-2.10511299E-02	 9.15246279E-03
5.05493611E+07	-2.12738771E-02	 8.75660872E-03
5.05615691E+07	-2.12324948E-02	 9.17634532E-03
5.05737772E+07	-2.10772257E-02	 9.14302301E-03
5.05859852E+07	-2.13194719E-02	 9.03762849E-03
5.05981932E+07	-2.10714122E-02	 9.02827435E-03
5.06104012E+07	-2.11841836E-02	 8.81256750E-03
5.06226093E+07	-2.14334519E-02	 8.98421201E-03
5.06348173E+07	-2.12943944E-02	 8.99002289E-03
5.06470253E+07	-2.11011586E-02	 9.23285996E-03
5.06592333E+07	-2.12322728E-02	 9.14964846E-03
5.06714414E+07	-2.09521631E-02	 9.04653508E-03
5.06836494E+07	-2.11322495E-02	 8.76585836E-03
5.06958574E+07	-2.08638316E-02	 9.03101516E-03
5.07080654E+07	-2.14982480E-02	 8.89080217E-03
5.07202735E+07	-2.10748939E-02	 8.91515591E-03
5.07324815E+07	-2.11656680E-02	 9.35197917E-03
5.07446895E+07	-2.12602403E-02	 9.22777701E-03
5.07568975E+07	-2.12026156E-02	 9.42933297E-03
5.07691056E+07	-2.13084025E-02	 9.02558832E-03
5.07813136E+07	-2.11171948E-02	 9.20937177E-03
5.07935216E+07	-2.10684637E-02	 8.89502645E-03
5.08057296E+07	-2.09186818E-02	 9.18971555E-03
5.08179377E+07	-2.10368445E-02	 8.95157319E-03
5.08301457E+07	-2.11245005E-02	 8.70123370E-03
5.08423537E+07	-2.09732112E-02	 9.16593489E-03
5.08545617E+07	-2.10540059E-02	 8.87750280E-03
5.08667698E+07	-2.11747783E-02	 9.22433635E-03
5.08789778E+07	-2.13352696E-02	 9.00123583E-03
5.08911858E+07	-2.10204097E-02	 9.14173259E-03
5.09033938E+07	-2.12546818E-02	 9.25358038E-03
5.09156019E+07	-2.12342497E-02	 9.10559970E-03
5.09278099E+07	-2.08994547E-02	 9.07653292E-03
5.09400179E+07	-2.11013971E-02	 8.87361726E-03
5.09522259E+07	-2.10206488E-02	 9.21022527E-03
5.09644340E+07	-2.09516888E-02	 8.94727051E-03
5.09766420E+07	-2.08322612E-02	 9.23774952E-03
5.09888500E+07	-2.11838492E-02	 9.21489581E-03
5.10010580E+07	-2.11585928E-02	 9.29790855E-03
5.10132661E+07	-2.11126962E-02	 9.00237259E-03
5.10254741E+07	-2.09263553E-02	 8.92503023E-03
5.10376821E+07	-2.09053508E-02	 9.40250569E-03
5.10498901E+07	-2.11326636E-02	 9.07311498E-03
5.10620982E+07	-2.07685660E-02	 9.27548926E-03
5.10743062E+07	-2.10984476E-02	 9.13433299E-03
5.10865142E+07	-2.10427958E-02	 9.29585133E-03
5.10987222E+07	-2.11342610E-02	 9.14718455E-03
5.11109303E+07	-2.08726846E-02	 9.07389922E-03
5.11231383E+07	-2.09223892E-02	 9.15569499E-03
5.11353463E+07	-2.09947215E-02	 9.17892785E-03
5.11475543E+07	-2.07558094E-02	 9.03462900E-03
5.11597624E+07	-2.07759892E-02	 9.01528126E-03
5.11719704E+07	-2.10104503E-02	 9.14394000E-03
5.11841784E+07	-2.09903437E-02	 9.21118834E-03
5.11963864E+07	-2.10695966E-02	 9.16728431E-03
5.12085944E+07	-2.07638379E-02	 9.32001093E-03
5.12208025E+07	-2.12503452E-02	 9.25458837E-03
5.12330105E+07	-2.07097175E-02	 9.35141812E-03
5.12452185E+07	-2.08336447E-02	 9.38215169E-03
5.12574265E+07	-2.09121465E-02	 9.27199943E-03
5.12696346E+07	-2.09596441E-02	 9.03569578E-03
5.12818426E+07	-2.07003644E-02	 9.19881694E-03
5.12940506E+07	-2.09485332E-02	 9.56359351E-03
5.13062586E+07	-2.11432636E-02	 9.25821516E-03
5.13184667E+07	-2.10131376E-02	 9.12314059E-03
5.13306747E+07	-2.12250483E-02	 9.25068331E-03
5.13428827E+07	-2.09911139E-02	 9.31184697E-03
5.13550907E+07	-2.08415236E-02	 9.13121877E-03
5.13672988E+07	-2.08194487E-02	 9.11961478E-03
5.13795068E+07	-2.07614093E-02	 9.07242177E-03
5.13917148E+07	-2.08704802E-02	 9.37930003E-03
5.14039228E+07	-2.07844013E-02	 9.61745507E-03
5.14161309E+07	-2.10070269E-02	 9.40673050E-03
5.14283389E+07	-2.07966590E-02	 9.13063842E-03
5.14405469E+07	-2.09247535E-02	 9.34057447E-03
5.14527549E+07	-2.09232929E-02	 9.47020067E-03
5.14649630E+07	-2.07710071E-02	 9.11386687E-03
5.14771710E+07	-2.10677710E-02	 9.24584384E-03
5.14893790E+07	-2.08328917E-02	 9.23608529E-03
5.15015870E+07	-2.08068864E-02	 9.48281131E-03
5.15137951E+07	-2.07486793E-02	 9.46039686E-03
5.15260031E+07	-2.07627663E-02	 9.26722826E-03
5.15382111E+07	-2.07618761E-02	 9.46735947E-03
5.15504191E+07	-2.08821959E-02	 9.23792283E-03
5.15626272E+07	-2.08920599E-02	 9.43486424E-03
5.15748352E+07	-2.08374990E-02	 9.20363872E-03
5.15870432E+07	-2.07421917E-02	 9.35212859E-03
5.15992512E+07	-2.07360014E-02	 9.36212248E-03
5.16114593E+07	-2.06680410E-02	 9.19782810E-03
5.16236673E+07	-2.07602057E-02	 9.05682461E-03
5.16358753E+07	-2.07466025E-02	 9.17180459E-03
5.16480833E+07	-2.06721094E-02	 9.42370458E-03
5.16602914E+07	-2.08087726E-02	 9.61210355E-03
5.16724994E+07	-2.08352816E-02	 9.43301767E-03
5.16847074E+07	-2.07929636E-02	 9.41534063E-03
5.16969154E+07	-2.07095379E-02	 9.49829726E-03
5.17091235E+07	-2.08916566E-02	 9.28884564E-03
5.17213315E+07	-2.07222411E-02	 9.35061114E-03
5.17335395E+07	-2.08102773E-02	 9.36391909E-03
5.17457475E+07	-2.07663509E-02	 9.43632820E-03
5.17579556E+07	-2.09044100E-02	 9.38146309E-03
5.17701636E+07	-2.09090955E-02	 9.37421063E-03
5.17823716E+07	-2.07541203E-02	 8.91134696E-03
5.17945796E+07	-2.05918975E-02	 9.53337111E-03
5.18067877E+07	-2.08898308E-02	 9.14693047E-03
5.18189957E+07	-2.08640101E-02	 9.45774332E-03
5.18312037E+07	-2.07553265E-02	 9.78831572E-03
5.18434117E+07	-2.09236384E-02	 9.59779132E-03
5.18556198E+07	-2.06247610E-02	 9.38412029E-03
5.18678278E+07	-2.07461122E-02	 9.38374475E-03
5.18800358E+07	-2.06683530E-02	 9.19197196E-03
5.18922438E+07	-2.07704643E-02	 9.56958685E-03
5.19044519E+07	-2.06931757E-02	 9.49673046E-03
5.19166599E+07	-2.05056907E-02	 9.44686959E-03
5.19288679E+07	-2.08049892E-02	 9.68681927E-03
5.19410759E+07	-2.06657796E-02	 9.46603607E-03
5.19532840E+07	-2.09539790E-02	 9.36481924E-03
5.19654920E+07	-2.08240725E-02	 9.53731866E-03
5.19777000E+07	-2.05497165E-02	 9.22938437E-03
5.19899080E+07	-2.04970049E-02	 9.58034884E-03
5.20021161E+07	-2.09664644E-02	 9.60101243E-03
5.20143241E+07	-2.05931005E-02	 9.66539329E-03
5.20265321E+07	-2.07501665E-02	 9.49257999E-03
5.20387401E+07	-2.08190211E-02	 9.44833517E-03
5.20509482E+07	-2.04633817E-02	 9.25586970E-03
5.20631562E+07	-2.04991078E-02	 9.43547046E-03
5.20753642E+07	-2.08197554E-02	 9.58875739E-03
5.20875722E+07	-2.06655376E-02	 9.55644157E-03
5.20997803E+07	-2.05851462E-02	 9.66472454E-03
5.21119883E+07	-2.05498230E-02	 9.54332235E-03
5.21241963E+07	-2.04980084E-02	 9.72472027E-03
5.21364043E+07	-2.04886912E-02	 9.55017982E-03
5.21486124E+07	-2.05452496E-02	 9.64720527E-03
5.21608204E+07	-2.03292019E-02	 9.66270603E-03
5.21730284E+07	-2.06036964E-02	 9.44254899E-03
5.21852364E+07	-2.05561001E-02	 9.64139825E-03
5.21974445E+07	-2.07210727E-02	 9.35000702E-03
5.22096525E+07	-2.07415179E-02	 9.58256696E-03
5.22218605E+07	-2.06188861E-02	 9.47264059E-03
5.22340685E+07	-2.07734352E-02	 9.61003418E-03
5.22462766E+07	-2.03877906E-02	 9.53313809E-03
5.22584846E+07	-2.05843514E-02	 9.71232750E-03
5.22706926E+07	-2.06404176E-02	 9.92221888E-03
5.22829006E+07	-2.06219718E-02	 9.66899221E-03
5.22951087E+07	-2.06241664E-02	 9.63724999E-03
5.23073167E+07	-2.05789580E-02	 9.51625811E-03
5.23195247E+07	-2.03115798E-02	 9.51931626E-03
5.23317327E+07	-2.05436471E-02	 9.57746943E-03
5.23439408E+07	-2.07045454E-02	 9.33871146E-03
5.23561488E+07	-2.02136600E-02	 9.43932691E-03
5.23683568E+07	-2.03960177E-02	 9.43927547E-03
5.23805648E+07	-2.03947940E-02	 9.76525760E-03
5.23927728E+07	-2.03345642E-02	 9.68414889E-03
5.24049809E+07	-2.06374587E-02	 9.70352256E-03
5.24171889E+07	-2.05068579E-02	 9.58696270E-03
5.24293969E+07	-2.07949513E-02	 9.56061458E-03
5.24416049E+07	-2.05458726E-02	 9.69147683E-03
5.24538130E+07	-2.06164418E-02	 9.65204692E-03
5.24660210E+07	-2.04999028E-02	 9.55150393E-03
5.24782290E+07	-2.04216668E-02	 9.62888769E-03
5.24904370E+07	-2.04778122E-02	 9.84101412E-03
5.25026451E+07	-2.04266568E-02	 9.61144269E-03
5.25148531E+07	-2.03048534E-02	 9.54121766E-03
5.25270611E+07	-2.06592760E-02	 9.66770979E-03
5.25392691E+07	-2.05397114E-02	 9.91266224E-03
5.25514772E+07	-2.04399823E-02	 9.58178085E-03
5.25636852E+07	-2.03387959E-02	 9.82785954E-03
5.25758932E+07	-2.05173761E-02	 9.64005205E-03
5.25881012E+07	-2.06064334E-02	 9.55971961E-03
5.26003093E+07	-2.08519406E-02	 9.69533729E-03
5.26125173E+07	-2.04494109E-02	 9.94068393E-03
5.26247253E+07	-2.05243820E-02	 9.81571921E-03
5.26369333E+07	-2.03002120E-02	 9.49890005E-03
5.26491414E+07	-2.04797883E-02	 9.58209338E-03
5.26613494E+07	-2.06301831E-02	 9.67354815E-03
5.26735574E+07	-2.04750998E-02	 9.93121820E-03
5.26857654E+07	-2.03455243E-02	 9.79074770E-03
5.26979735E+07	-2.03182086E-02	 9.77073988E-03
5.27101815E+07	-2.03932676E-02	 9.67200382E-03
5.27223895E+07	-2.05493627E-02	 9.69187239E-03
5.27345975E+07	-2.03757231E-02	 9.80430968E-03
5.27468056E+07	-2.02218324E-02	 9.73726809E-03
5.27590136E+07	-2.03226384E-02	 9.77699287E-03
5.27712216E+07	-2.07085395E-02	 9.92591133E-03
5.27834296E+07	-2.04027406E-02	 9.55111833E-03
5.27956377E+07	-2.04183918E-02	 9.71452945E-03
5.28078457E+07	-2.05419536E-02	 9.91683566E-03
5.28200537E+07	-2.04849677E-02	 9.64011556E-03
5.28322617E+07	-2.05167608E-02	 9.95858550E-03
5.28444698E+07	-2.04547611E-02	 9.64171045E-03
5.28566778E+07	-2.05205623E-02	 9.79305723E-03
5.28688858E+07	-2.04364882E-02	 9.90988964E-03
5.28810938E+07	-2.03654754E-02	 9.65304312E-03
5.28933019E+07	-2.06790160E-02	 1.00539261E-02
5.29055099E+07	-2.02757997E-02	 9.54996338E-03
5.29177179E+07	-2.03349644E-02	 9.71948019E-03
5.29299259E+07	-2.05274163E-02	 9.73089651E-03
5.29421340E+07	-2.03706372E-02	 9.92036655E-03
5.29543420E+07	-2.02055568E-02	 9.69818966E-03
5.29665500E+07	-2.06528204E-02	 1.01042489E-02
5.29787580E+07	-2.03565668E-02	 9.96168306E-03
5.29909661E+07	-2.05414147E-02	 9.67997153E-03
5.30031741E+07	-2.04584794E-02	 9.95393899E-03
5.30153821E+07	-2.03049303E-02	 9.99991409E-03
5.30275901E+07	-2.06865531E-02	 9.80007040E-03
5.30397982E+07	-2.02137682E-02	 9.58025457E-03
5.30520062E+07	-2.04779271E-02	 9.73493093E-03
5.30642142E+07	-2.04012291E-02	 9.87686526E-03
5.30764222E+07	-2.01401927E-02	 9.66210005E-03
5.30886303E+07	-2.03944622E-02	 1.01757345E-02
5.31008383E+07	-2.04481443E-02	 1.00553010E-02
5.31130463E+07	-2.04131115E-02	 9.66758493E-03
5.31252543E+07	-2.03156509E-02	 9.80767164E-03
5.31374624E+07	-2.02910792E-02	 9.81819267E-03
5.31496704E+07	-2.02355312E-02	 9.99559019E-03
5.31618784E+07	-2.02478427E-02	 1.00590679E-02
5.31740864E+07	-2.03226633E-02	 9.85729470E-03
5.31862945E+07	-2.04750772E-02	 9.88363211E-03
5.31985025E+07	-2.00919333E-02	 9.71526489E-03
5.32107105E+07	-2.00940067E-02	 1.00843744E-02
5.32229185E+07	-2.04086593E-02	 1.02540386E-02
5.32351266E+07	-2.00046415E-02	 9.77928435E-03
5.32473346E+07	-2.06393507E-02	 9.74580201E-03
5.32595426E+07	-2.00062525E-02	 1.00027034E-02
5.32717506E+07	-2.04607164E-02	 9.68431350E-03
5.32839587E+07	-2.03942808E-02	 9.85634462E-03
5.32961667E+07	-2.02311796E-02	 9.80928080E-03
5.33083747E+07	-2.03518206E-02	 9.75567265E-03
5.33205827E+07	-2.04790925E-02	 9.78779105E-03
5.33327908E+07	-2.03291556E-02	 9.89285996E-03
5.33449988E+07	-2.01644254E-02	 9.86286846E-03
5.33572068E+07	-2.04791960E-02	 1.00086560E-02
5.33694148E+07	-2.01609571E-02	 9.88113605E-03
5.33816229E+07	-2.04246005E-02	 1.00291312E-02
5.33938309E+07	-2.03983907E-02	 1.00687748E-02
5.34060389E+07	-2.04911700E-02	 9.91487109E-03
5.34182469E+07	-2.02218084E-02	 1.01504967E-02
5.34304550E+07	-2.05160299E-02	 9.92437028E-03
5.34426630E+07	-2.02121699E-02	 9.93468863E-03
5.34548710E+07	-2.05269019E-02	 9.98308015E-03
5.34670790E+07	-2.01982431E-02	 9.90738548E-03
5.34792871E+07	-2.04388321E-02	 9.93852545E-03
5.34914951E+07	-2.01285062E-02	 9.85143375E-03
5.35037031E+07	-2.01918003E-02	 9.79253062E-03
5.35159111E+07	-2.00719378E-02	 9.97827375E-03
5.35281192E+07	-2.04044216E-02	 9.87720889E-03
5.35403272E+07	-2.01819231E-02	 1.02392110E-02
5.35525352E+07	-2.00839717E-02	 1.00190918E-02
5.35647432E+07	-2.03252428E-02	 1.00840184E-02
5.35769512E+07	-2.01311507E-02	 1.02040667E-02
5.35891593E+07	-1.99600586E-02	 9.85687023E-03
5.36013673E+07	-2.02235274E-02	 1.00162987E-02
5.36135753E+07	-2.03033316E-02	 1.00342957E-02
5.36257833E+07	-1.99482402E-02	 9.92148110E-03
5.36379914E+07	-2.02906710E-02	 1.00788430E-02
5.36501994E+07	-2.01966330E-02	 1.00159040E-02
5.36624074E+07	-2.02553552E-02	 9.84659954E-03
5.36746154E+07	-2.00382583E-02	 1.01423289E-02
5.36868235E+07	-2.00888391E-02	 9.91882576E-03
5.36990315E+07	-1.99012030E-02	 1.00233514E-02
5.37112395E+07	-2.02477119E-02	 9.91722902E-03
5.37234475E+07	-2.00527575E-02	 1.01904198E-02
5.37356556E+07	-2.04184765E-02	 1.00815073E-02
5.37478636E+07	-2.03097380E-02	 1.00352464E-02
5.37600716E+07	-1.99683193E-02	 9.99566540E-03
5.37722796E+07	-2.01718726E-02	 1.01610412E-02
5.37844877E+07	-2.02586105E-02	 1.00288831E-02
5.37966957E+07	-2.01428007E-02	 1.01238972E-02
5.38089037E+07	-2.03826379E-02	 1.01605093E-02
5.38211117E+07	-1.99063616E-02	 1.02917825E-02
5.38333198E+07	-2.01026530E-02	 9.98506756E-03
5.38455278E+07	-2.00256885E-02	 1.02379196E-02
5.38577358E+07	-2.03481904E-02	 1.01125477E-02
5.38699438E+07	-2.02181508E-02	 9.93343815E-03
5.38821519E+07	-2.00219678E-02	 1.02482205E-02
5.38943599E+07	-2.00818400E-02	 1.03265642E-02
5.39065679E+07	-2.00837311E-02	 9.95809443E-03
5.39187759E+07	-1.99799261E-02	 9.95531289E-03
5.39309840E+07	-1.99127700E-02	 1.01007164E-02
5.39431920E+07	-2.01801758E-02	 1.00369860E-02
5.39554000E+07	-2.01604043E-02	 9.86146409E-03
5.39676080E+07	-2.00021618E-02	 1.00968636E-02
5.39798161E+07	-2.04136536E-02	 1.04664661E-02
5.39920241E+07	-2.01875635E-02	 1.01363096E-02
5.40042321E+07	-2.02434280E-02	 9.95591214E-03
5.40164401E+07	-1.99615560E-02	 1.00108389E-02
5.40286482E+07	-1.99068875E-02	 1.00249689E-02
5.40408562E+07	-2.00150345E-02	 1.02549044E-02
5.40530642E+07	-1.99749907E-02	 1.01414193E-02
5.40652722E+07	-2.03480049E-02	 1.03504456E-02
5.40774803E+07	-2.01903847E-02	 1.01809677E-02
5.40896883E+07	-1.99797032E-02	 1.02892657E-02
5.41018963E+07	-2.00968703E-02	 1.00323137E-02
5.41141043E+07	-2.00228797E-02	 1.04642607E-02
5.41263124E+07	-1.96987088E-02	 1.03407743E-02
5.41385204E+07	-2.02512563E-02	 1.00942432E-02
5.41507284E+07	-2.01291947E-02	 1.00783364E-02
5.41629364E+07	-2.00210843E-02	 1.01630553E-02
5.41751445E+07	-1.98611258E-02	 9.90154640E-03
5.41873525E+07	-2.01873658E-02	 1.03614385E-02
5.41995605E+07	-2.00825611E-02	 1.00797829E-02
5.42117685E+07	-2.01176689E-02	 1.01081250E-02
5.42239766E+07	-1.97623388E-02	 1.02738969E-02
5.42361846E+07	-2.00049575E-02	 1.02106542E-02
5.42483926E+07	-2.00261692E-02	 1.04172701E-02
5.42606006E+07	-1.99532546E-02	 1.02331748E-02
5.42728087E+07	-1.97394508E-02	 1.04445869E-02
5.42850167E+07	-1.98650632E-02	 1.02669654E-02
5.42972247E+07	-2.00373443E-02	 1.04676375E-02
5.43094327E+07	-1.97118330E-02	 1.04469170E-02
5.43216408E+07	-2.01763805E-02	 1.05301513E-02
5.43338488E+07	-1.96954081E-02	 1.03354686E-02
5.43460568E+07	-1.98042453E-02	 1.04063042E-02
5.43582648E+07	-1.99663576E-02	 1.03346819E-02
5.43704729E+07	-1.99368557E-02	 1.01300518E-02
5.43826809E+07	-2.01736738E-02	 1.01680960E-02
5.43948889E+07	-2.01035202E-02	 1.00957307E-02
5.44070969E+07	-1.99670462E-02	 1.04180130E-02
5.44193050E+07	-1.97759224E-02	 1.04161206E-02
5.44315130E+07	-2.01163893E-02	 1.03754960E-02
5.44437210E+07	-1.97950301E-02	 1.03073649E-02
5.44559290E+07	-1.98778256E-02	 1.01912101E-02
5.44681371E+07	-2.00233831E-02	 1.01980033E-02
5.44803451E+07	-2.02762096E-02	 1.04556096E-02
5.44925531E+07	-2.01337160E-02	 1.04918017E-02
5.45047611E+07	-1.99739278E-02	 1.03563556E-02
5.45169692E+07	-1.97082936E-02	 1.02483663E-02
5.45291772E+07	-1.97863388E-02	 1.05971847E-02
5.45413852E+07	-1.97151140E-02	 1.03860474E-02
5.45535932E+07	-1.98565292E-02	 1.05012818E-02
5.45658013E+07	-2.00132132E-02	 1.02195653E-02
5.45780093E+07	-2.00122306E-02	 1.03829964E-02
5.45902173E+07	-1.97944024E-02	 1.06213841E-02
5.46024253E+07	-1.99017641E-02	 1.02244819E-02
5.46146334E+07	-2.00751930E-02	 1.02904605E-02
5.46268414E+07	-2.02456100E-02	 1.03369650E-02
5.46390494E+07	-1.99620553E-02	 1.04262313E-02
5.46512574E+07	-1.99074143E-02	 1.05602200E-02
5.46634655E+07	-1.98428542E-02	 1.03223686E-02
5.46756735E+07	-1.97904812E-02	 1.04550615E-02
5.46878815E+07	-1.95980471E-02	 1.02865962E-02
5.47000895E+07	-1.98136077E-02	 1.02385960E-02
5.47122976E+07	-1.97059146E-02	 1.04248254E-02
5.47245056E+07	-1.99164210E-02	 1.04961388E-02
5.47367136E+07	-2.00500536E-02	 1.05191764E-02
5.47489216E+07	-2.02810218E-02	 1.03956801E-02
5.47611296E+07	-2.01175986E-02	 1.02603206E-02
5.47733377E+07	-1.99474596E-02	 1.03191974E-02
5.47855457E+07	-1.96454432E-02	 1.03119814E-02
5.47977537E+07	-1.98623312E-02	 1.06510614E-02
5.48099617E+07	-1.98601942E-02	 1.02097396E-02
5.48221698E+07	-1.98468008E-02	 1.07489008E-02
5.48343778E+07	-1.96949392E-02	 1.05926105E-02
5.48465858E+07	-1.98188955E-02	 1.06391395E-02
5.48587938E+07	-2.00248793E-02	 1.04809283E-02
5.48710019E+07	-1.99119444E-02	 1.04494707E-02
5.48832099E+07	-1.96562139E-02	 1.04025981E-02
5.48954179E+07	-1.98490817E-02	 1.04566516E-02
5.49076259E+07	-1.97705030E-02	 1.06280576E-02
5.49198340E+07	-1.97674410E-02	 1.03499120E-02
5.49320420E+07	-1.98369735E-02	 1.02976095E-02
5.49442500E+07	-2.00034636E-02	 1.05636792E-02
5.49564580E+07	-1.99474267E-02	 1.04125123E-02
5.49686661E+07	-1.98595216E-02	 1.04720773E-02
5.49808741E+07	-1.98637654E-02	 1.04788648E-02
5.49930821E+07	-1.98590785E-02	 1.04204155E-02
5.50052901E+07	-1.98706987E-02	 1.05127857E-02
5.50174982E+07	-1.95778389E-02	 1.04794447E-02
5.50297062E+07	-1.98508077E-02	 1.03962008E-02
5.50419142E+07	-1.97228169E-02	 1.04598691E-02
5.50541222E+07	-1.95545801E-02	 1.05920725E-02
5.50663303E+07	-1.97628943E-02	 1.03758288E-02
5.50785383E+07	-1.96629328E-02	 1.02201749E-02
5.50907463E+07	-1.96724992E-02	 1.07146949E-02
5.51029543E+07	-1.97114615E-02	 1.07038726E-02
5.51151624E+07	-1.96994715E-02	 1.05304331E-02
5.51273704E+07	-1.97991313E-02	 1.01656756E-02
