! COPPER MOUNTAIN TECHNOLOGIES, PLANAR TR1300/1, 00071119, 20.2.2/1.0
! Date: 1/9/2024 7:40:48 PM
! Data: Format [Calibration Info]
! Freq          	S11: Re/Im F1                  
# HZ S RI R 50
5.00000000E+07	 1.79577714E-01	-2.81915626E-01
5.00122080E+07	 1.79510817E-01	-2.81952706E-01
5.00244160E+07	 1.79444913E-01	-2.81993613E-01
5.00366241E+07	 1.79372541E-01	-2.82045858E-01
5.00488321E+07	 1.79300477E-01	-2.82090415E-01
5.00610401E+07	 1.79233065E-01	-2.82141643E-01
5.00732481E+07	 1.79160405E-01	-2.82179081E-01
5.00854562E+07	 1.79091406E-01	-2.82228500E-01
5.00976642E+07	 1.79024431E-01	-2.82267675E-01
5.01098722E+07	 1.78952539E-01	-2.82311505E-01
5.01220802E+07	 1.78881477E-01	-2.82348588E-01
5.01342883E+07	 1.78811945E-01	-2.82410118E-01
5.01464963E+07	 1.78744768E-01	-2.82441955E-01
5.01587043E+07	 1.78676390E-01	-2.82485240E-01
5.01709123E+07	 1.78606198E-01	-2.82530139E-01
5.01831204E+07	 1.78536916E-01	-2.82576316E-01
5.01953284E+07	 1.78465964E-01	-2.82618216E-01
5.02075364E+07	 1.78392117E-01	-2.82672881E-01
5.02197444E+07	 1.78330775E-01	-2.82710742E-01
5.02319525E+07	 1.78257659E-01	-2.82752129E-01
5.02441605E+07	 1.78181695E-01	-2.82800461E-01
5.02563685E+07	 1.78116182E-01	-2.82840878E-01
5.02685765E+07	 1.78048411E-01	-2.82884990E-01
5.02807846E+07	 1.77981226E-01	-2.82932465E-01
5.02929926E+07	 1.77905967E-01	-2.82980891E-01
5.03052006E+07	 1.77833680E-01	-2.83019039E-01
5.03174086E+07	 1.77769149E-01	-2.83061293E-01
5.03296167E+07	 1.77700759E-01	-2.83108715E-01
5.03418247E+07	 1.77635743E-01	-2.83149885E-01
5.03540327E+07	 1.77562761E-01	-2.83197769E-01
5.03662407E+07	 1.77487627E-01	-2.83241404E-01
5.03784488E+07	 1.77420366E-01	-2.83280240E-01
5.03906568E+07	 1.77351217E-01	-2.83327510E-01
5.04028648E+07	 1.77283710E-01	-2.83372241E-01
5.04150728E+07	 1.77208598E-01	-2.83415756E-01
5.04272809E+07	 1.77149961E-01	-2.83460816E-01
5.04394889E+07	 1.77074306E-01	-2.83504091E-01
5.04516969E+07	 1.77008232E-01	-2.83550606E-01
5.04639049E+07	 1.76938569E-01	-2.83582981E-01
5.04761130E+07	 1.76863950E-01	-2.83639408E-01
5.04883210E+07	 1.76793913E-01	-2.83679100E-01
5.05005290E+07	 1.76732999E-01	-2.83722323E-01
5.05127370E+07	 1.76655180E-01	-2.83768694E-01
5.05249451E+07	 1.76581717E-01	-2.83811947E-01
5.05371531E+07	 1.76522129E-01	-2.83849649E-01
5.05493611E+07	 1.76446795E-01	-2.83895656E-01
5.05615691E+07	 1.76382015E-01	-2.83937783E-01
5.05737772E+07	 1.76309311E-01	-2.83986590E-01
5.05859852E+07	 1.76243904E-01	-2.84021972E-01
5.05981932E+07	 1.76165361E-01	-2.84068491E-01
5.06104012E+07	 1.76098384E-01	-2.84117163E-01
5.06226093E+07	 1.76032850E-01	-2.84161384E-01
5.06348173E+07	 1.75962854E-01	-2.84204188E-01
5.06470253E+07	 1.75883862E-01	-2.84243791E-01
5.06592333E+07	 1.75821161E-01	-2.84296336E-01
5.06714414E+07	 1.75754716E-01	-2.84336885E-01
5.06836494E+07	 1.75683118E-01	-2.84378167E-01
5.06958574E+07	 1.75614755E-01	-2.84422670E-01
5.07080654E+07	 1.75543561E-01	-2.84461089E-01
5.07202735E+07	 1.75470508E-01	-2.84507701E-01
5.07324815E+07	 1.75397852E-01	-2.84554904E-01
5.07446895E+07	 1.75332721E-01	-2.84592431E-01
5.07568975E+07	 1.75265697E-01	-2.84633558E-01
5.07691056E+07	 1.75188872E-01	-2.84688030E-01
5.07813136E+07	 1.75124321E-01	-2.84730173E-01
5.07935216E+07	 1.75060207E-01	-2.84771832E-01
5.08057296E+07	 1.74988296E-01	-2.84809991E-01
5.08179377E+07	 1.74918257E-01	-2.84861302E-01
5.08301457E+07	 1.74844453E-01	-2.84909100E-01
5.08423537E+07	 1.74777008E-01	-2.84945293E-01
5.08545617E+07	 1.74705667E-01	-2.84986225E-01
5.08667698E+07	 1.74637430E-01	-2.85033298E-01
5.08789778E+07	 1.74565155E-01	-2.85074702E-01
5.08911858E+07	 1.74491928E-01	-2.85123162E-01
5.09033938E+07	 1.74423211E-01	-2.85165423E-01
5.09156019E+07	 1.74354298E-01	-2.85206023E-01
5.09278099E+07	 1.74283879E-01	-2.85250911E-01
5.09400179E+07	 1.74215053E-01	-2.85287113E-01
5.09522259E+07	 1.74145042E-01	-2.85336044E-01
5.09644340E+07	 1.74072881E-01	-2.85381489E-01
5.09766420E+07	 1.73994764E-01	-2.85426350E-01
5.09888500E+07	 1.73930168E-01	-2.85461608E-01
5.10010580E+07	 1.73858830E-01	-2.85508466E-01
5.10132661E+07	 1.73797558E-01	-2.85550186E-01
5.10254741E+07	 1.73729270E-01	-2.85596925E-01
5.10376821E+07	 1.73652676E-01	-2.85639047E-01
5.10498901E+07	 1.73580076E-01	-2.85683666E-01
5.10620982E+07	 1.73516334E-01	-2.85729892E-01
5.10743062E+07	 1.73445186E-01	-2.85766631E-01
5.10865142E+07	 1.73380163E-01	-2.85809099E-01
5.10987222E+07	 1.73306404E-01	-2.85846023E-01
5.11109303E+07	 1.73238682E-01	-2.85890582E-01
5.11231383E+07	 1.73165977E-01	-2.85938297E-01
5.11353463E+07	 1.73096714E-01	-2.85978985E-01
5.11475543E+07	 1.73030859E-01	-2.86028773E-01
5.11597624E+07	 1.72961310E-01	-2.86063449E-01
5.11719704E+07	 1.72894697E-01	-2.86109381E-01
5.11841784E+07	 1.72818313E-01	-2.86151939E-01
5.11963864E+07	 1.72752648E-01	-2.86197227E-01
5.12085944E+07	 1.72675791E-01	-2.86234645E-01
5.12208025E+07	 1.72609763E-01	-2.86281340E-01
5.12330105E+07	 1.72546038E-01	-2.86322290E-01
5.12452185E+07	 1.72473744E-01	-2.86370535E-01
5.12574265E+07	 1.72407322E-01	-2.86408924E-01
5.12696346E+07	 1.72328834E-01	-2.86452269E-01
5.12818426E+07	 1.72263741E-01	-2.86496150E-01
5.12940506E+07	 1.72198071E-01	-2.86531107E-01
5.13062586E+07	 1.72118929E-01	-2.86576284E-01
5.13184667E+07	 1.72059797E-01	-2.86620814E-01
5.13306747E+07	 1.71985807E-01	-2.86662920E-01
5.13428827E+07	 1.71911032E-01	-2.86704512E-01
5.13550907E+07	 1.71845618E-01	-2.86749908E-01
5.13672988E+07	 1.71776230E-01	-2.86791624E-01
5.13795068E+07	 1.71705957E-01	-2.86836389E-01
5.13917148E+07	 1.71634999E-01	-2.86873256E-01
5.14039228E+07	 1.71564263E-01	-2.86915336E-01
5.14161309E+07	 1.71493159E-01	-2.86954960E-01
5.14283389E+07	 1.71422963E-01	-2.86997472E-01
5.14405469E+07	 1.71348730E-01	-2.87046282E-01
5.14527549E+07	 1.71282160E-01	-2.87088998E-01
5.14649630E+07	 1.71213444E-01	-2.87134068E-01
5.14771710E+07	 1.71140095E-01	-2.87174318E-01
5.14893790E+07	 1.71071452E-01	-2.87221128E-01
5.15015870E+07	 1.71005623E-01	-2.87259525E-01
5.15137951E+07	 1.70930227E-01	-2.87303328E-01
5.15260031E+07	 1.70860664E-01	-2.87339840E-01
5.15382111E+07	 1.70788687E-01	-2.87381544E-01
5.15504191E+07	 1.70720465E-01	-2.87425020E-01
5.15626272E+07	 1.70650344E-01	-2.87466613E-01
5.15748352E+07	 1.70580485E-01	-2.87500849E-01
5.15870432E+07	 1.70511236E-01	-2.87551836E-01
5.15992512E+07	 1.70437839E-01	-2.87593837E-01
5.16114593E+07	 1.70372533E-01	-2.87631345E-01
5.16236673E+07	 1.70304833E-01	-2.87678715E-01
5.16358753E+07	 1.70239486E-01	-2.87716312E-01
5.16480833E+07	 1.70174571E-01	-2.87768938E-01
5.16602914E+07	 1.70102192E-01	-2.87801577E-01
5.16724994E+07	 1.70023414E-01	-2.87843239E-01
5.16847074E+07	 1.69957385E-01	-2.87892656E-01
5.16969154E+07	 1.69884075E-01	-2.87933435E-01
5.17091235E+07	 1.69816464E-01	-2.87971024E-01
5.17213315E+07	 1.69747912E-01	-2.88014453E-01
5.17335395E+07	 1.69675822E-01	-2.88059186E-01
5.17457475E+07	 1.69608056E-01	-2.88098907E-01
5.17579556E+07	 1.69538005E-01	-2.88134941E-01
5.17701636E+07	 1.69460337E-01	-2.88179282E-01
5.17823716E+07	 1.69393582E-01	-2.88231730E-01
5.17945796E+07	 1.69329737E-01	-2.88260880E-01
5.18067877E+07	 1.69257690E-01	-2.88304335E-01
5.18189957E+07	 1.69188562E-01	-2.88349822E-01
5.18312037E+07	 1.69110949E-01	-2.88390852E-01
5.18434117E+07	 1.69049241E-01	-2.88432933E-01
5.18556198E+07	 1.68975247E-01	-2.88478319E-01
5.18678278E+07	 1.68909937E-01	-2.88518349E-01
5.18800358E+07	 1.68834310E-01	-2.88556431E-01
5.18922438E+07	 1.68758822E-01	-2.88607385E-01
5.19044519E+07	 1.68695143E-01	-2.88646205E-01
5.19166599E+07	 1.68624233E-01	-2.88685080E-01
5.19288679E+07	 1.68551957E-01	-2.88726069E-01
5.19410759E+07	 1.68481813E-01	-2.88765979E-01
5.19532840E+07	 1.68410959E-01	-2.88809604E-01
5.19654920E+07	 1.68335506E-01	-2.88851795E-01
5.19777000E+07	 1.68272859E-01	-2.88897670E-01
5.19899080E+07	 1.68199874E-01	-2.88936213E-01
5.20021161E+07	 1.68131250E-01	-2.88983496E-01
5.20143241E+07	 1.68060154E-01	-2.89017797E-01
5.20265321E+07	 1.67992087E-01	-2.89062802E-01
5.20387401E+07	 1.67917528E-01	-2.89097617E-01
5.20509482E+07	 1.67843447E-01	-2.89137209E-01
5.20631562E+07	 1.67774693E-01	-2.89181867E-01
5.20753642E+07	 1.67707702E-01	-2.89222036E-01
5.20875722E+07	 1.67635436E-01	-2.89270799E-01
5.20997803E+07	 1.67562360E-01	-2.89306903E-01
5.21119883E+07	 1.67496545E-01	-2.89345916E-01
5.21241963E+07	 1.67422398E-01	-2.89393290E-01
5.21364043E+07	 1.67349215E-01	-2.89431331E-01
5.21486124E+07	 1.67279172E-01	-2.89471548E-01
5.21608204E+07	 1.67207298E-01	-2.89514304E-01
5.21730284E+07	 1.67140400E-01	-2.89559583E-01
5.21852364E+07	 1.67061541E-01	-2.89602863E-01
5.21974445E+07	 1.66999802E-01	-2.89634987E-01
5.22096525E+07	 1.66929414E-01	-2.89676131E-01
5.22218605E+07	 1.66858259E-01	-2.89720044E-01
5.22340685E+07	 1.66783323E-01	-2.89762819E-01
5.22462766E+07	 1.66710508E-01	-2.89805525E-01
5.22584846E+07	 1.66639447E-01	-2.89844627E-01
5.22706926E+07	 1.66566207E-01	-2.89888230E-01
5.22829006E+07	 1.66497389E-01	-2.89923713E-01
5.22951087E+07	 1.66432214E-01	-2.89964026E-01
5.23073167E+07	 1.66352444E-01	-2.90004032E-01
5.23195247E+07	 1.66287586E-01	-2.90046001E-01
5.23317327E+07	 1.66210474E-01	-2.90089817E-01
5.23439408E+07	 1.66145257E-01	-2.90135185E-01
5.23561488E+07	 1.66072069E-01	-2.90168992E-01
5.23683568E+07	 1.66001718E-01	-2.90206990E-01
5.23805648E+07	 1.65927033E-01	-2.90248105E-01
5.23927728E+07	 1.65857178E-01	-2.90293513E-01
5.24049809E+07	 1.65783499E-01	-2.90337461E-01
5.24171889E+07	 1.65717765E-01	-2.90373258E-01
5.24293969E+07	 1.65643646E-01	-2.90421401E-01
5.24416049E+07	 1.65572547E-01	-2.90458217E-01
5.24538130E+07	 1.65500840E-01	-2.90497121E-01
5.24660210E+07	 1.65427563E-01	-2.90534651E-01
5.24782290E+07	 1.65356036E-01	-2.90574964E-01
5.24904370E+07	 1.65281175E-01	-2.90628775E-01
5.25026451E+07	 1.65222814E-01	-2.90655387E-01
5.25148531E+07	 1.65142363E-01	-2.90705419E-01
5.25270611E+07	 1.65069597E-01	-2.90740995E-01
5.25392691E+07	 1.65000865E-01	-2.90784608E-01
5.25514772E+07	 1.64929148E-01	-2.90827564E-01
5.25636852E+07	 1.64857389E-01	-2.90868732E-01
5.25758932E+07	 1.64778481E-01	-2.90907119E-01
5.25881012E+07	 1.64710301E-01	-2.90945577E-01
5.26003093E+07	 1.64641736E-01	-2.90982970E-01
5.26125173E+07	 1.64581148E-01	-2.91021776E-01
5.26247253E+07	 1.64500231E-01	-2.91067781E-01
5.26369333E+07	 1.64433621E-01	-2.91112106E-01
5.26491414E+07	 1.64356758E-01	-2.91149129E-01
5.26613494E+07	 1.64284156E-01	-2.91190914E-01
5.26735574E+07	 1.64218791E-01	-2.91235263E-01
5.26857654E+07	 1.64147596E-01	-2.91275341E-01
5.26979735E+07	 1.64078428E-01	-2.91306954E-01
5.27101815E+07	 1.64001426E-01	-2.91347185E-01
5.27223895E+07	 1.63939596E-01	-2.91390085E-01
5.27345975E+07	 1.63860578E-01	-2.91430820E-01
5.27468056E+07	 1.63783447E-01	-2.91474342E-01
5.27590136E+07	 1.63713710E-01	-2.91517032E-01
5.27712216E+07	 1.63640060E-01	-2.91554721E-01
5.27834296E+07	 1.63569668E-01	-2.91596679E-01
5.27956377E+07	 1.63503677E-01	-2.91635429E-01
5.28078457E+07	 1.63425214E-01	-2.91679383E-01
5.28200537E+07	 1.63358083E-01	-2.91708757E-01
5.28322617E+07	 1.63287786E-01	-2.91753642E-01
5.28444698E+07	 1.63214915E-01	-2.91795288E-01
5.28566778E+07	 1.63143694E-01	-2.91833877E-01
5.28688858E+07	 1.63073418E-01	-2.91882485E-01
5.28810938E+07	 1.62994842E-01	-2.91915084E-01
5.28933019E+07	 1.62928061E-01	-2.91963628E-01
5.29055099E+07	 1.62854759E-01	-2.91998666E-01
5.29177179E+07	 1.62786230E-01	-2.92040242E-01
5.29299259E+07	 1.62712314E-01	-2.92082277E-01
5.29421340E+07	 1.62639758E-01	-2.92120291E-01
5.29543420E+07	 1.62568156E-01	-2.92159446E-01
5.29665500E+07	 1.62496679E-01	-2.92197264E-01
5.29787580E+07	 1.62423763E-01	-2.92242831E-01
5.29909661E+07	 1.62353703E-01	-2.92287501E-01
5.30031741E+07	 1.62281282E-01	-2.92322179E-01
5.30153821E+07	 1.62207807E-01	-2.92358682E-01
5.30275901E+07	 1.62139414E-01	-2.92395813E-01
5.30397982E+07	 1.62070233E-01	-2.92434151E-01
5.30520062E+07	 1.61996635E-01	-2.92469656E-01
5.30642142E+07	 1.61921470E-01	-2.92522596E-01
5.30764222E+07	 1.61846255E-01	-2.92552048E-01
5.30886303E+07	 1.61788396E-01	-2.92592463E-01
5.31008383E+07	 1.61715751E-01	-2.92631210E-01
5.31130463E+07	 1.61648077E-01	-2.92676874E-01
5.31252543E+07	 1.61565431E-01	-2.92722031E-01
5.31374624E+07	 1.61500996E-01	-2.92752575E-01
5.31496704E+07	 1.61425133E-01	-2.92795720E-01
5.31618784E+07	 1.61350812E-01	-2.92834705E-01
5.31740864E+07	 1.61279634E-01	-2.92868282E-01
5.31862945E+07	 1.61213906E-01	-2.92916449E-01
5.31985025E+07	 1.61144056E-01	-2.92955165E-01
5.32107105E+07	 1.61072099E-01	-2.92986872E-01
5.32229185E+07	 1.60997177E-01	-2.93030805E-01
5.32351266E+07	 1.60927792E-01	-2.93071034E-01
5.32473346E+07	 1.60857182E-01	-2.93114497E-01
5.32595426E+07	 1.60791889E-01	-2.93155757E-01
5.32717506E+07	 1.60707922E-01	-2.93189703E-01
5.32839587E+07	 1.60644070E-01	-2.93232836E-01
5.32961667E+07	 1.60576637E-01	-2.93274255E-01
5.33083747E+07	 1.60500903E-01	-2.93304109E-01
5.33205827E+07	 1.60428425E-01	-2.93353743E-01
5.33327908E+07	 1.60353017E-01	-2.93393320E-01
5.33449988E+07	 1.60287996E-01	-2.93426792E-01
5.33572068E+07	 1.60210506E-01	-2.93469955E-01
5.33694148E+07	 1.60144229E-01	-2.93504805E-01
5.33816229E+07	 1.60067403E-01	-2.93546955E-01
5.33938309E+07	 1.59991508E-01	-2.93589800E-01
5.34060389E+07	 1.59929564E-01	-2.93622589E-01
5.34182469E+07	 1.59857804E-01	-2.93669031E-01
5.34304550E+07	 1.59786355E-01	-2.93708963E-01
5.34426630E+07	 1.59718865E-01	-2.93740757E-01
5.34548710E+07	 1.59640962E-01	-2.93777202E-01
5.34670790E+07	 1.59562663E-01	-2.93822828E-01
5.34792871E+07	 1.59491822E-01	-2.93864364E-01
5.34914951E+07	 1.59425784E-01	-2.93900593E-01
5.35037031E+07	 1.59354698E-01	-2.93942686E-01
5.35159111E+07	 1.59280007E-01	-2.93972934E-01
5.35281192E+07	 1.59202524E-01	-2.94012871E-01
5.35403272E+07	 1.59140947E-01	-2.94060525E-01
5.35525352E+07	 1.59065802E-01	-2.94094673E-01
5.35647432E+07	 1.58997733E-01	-2.94133012E-01
5.35769512E+07	 1.58931185E-01	-2.94174624E-01
5.35891593E+07	 1.58860066E-01	-2.94213048E-01
5.36013673E+07	 1.58779209E-01	-2.94254666E-01
5.36135753E+07	 1.58707193E-01	-2.94290757E-01
5.36257833E+07	 1.58645176E-01	-2.94327074E-01
5.36379914E+07	 1.58565446E-01	-2.94370751E-01
5.36501994E+07	 1.58497046E-01	-2.94410394E-01
5.36624074E+07	 1.58432337E-01	-2.94446024E-01
5.36746154E+07	 1.58359938E-01	-2.94485151E-01
5.36868235E+07	 1.58276040E-01	-2.94531430E-01
5.36990315E+07	 1.58209054E-01	-2.94561011E-01
5.37112395E+07	 1.58134873E-01	-2.94598921E-01
5.37234475E+07	 1.58065600E-01	-2.94646307E-01
5.37356556E+07	 1.57987894E-01	-2.94683736E-01
5.37478636E+07	 1.57921422E-01	-2.94718568E-01
5.37600716E+07	 1.57852663E-01	-2.94760997E-01
5.37722796E+07	 1.57773551E-01	-2.94801404E-01
5.37844877E+07	 1.57707690E-01	-2.94834741E-01
5.37966957E+07	 1.57636297E-01	-2.94875031E-01
5.38089037E+07	 1.57555926E-01	-2.94909687E-01
5.38211117E+07	 1.57490960E-01	-2.94947213E-01
5.38333198E+07	 1.57423239E-01	-2.94992127E-01
5.38455278E+07	 1.57349959E-01	-2.95031708E-01
5.38577358E+07	 1.57277899E-01	-2.95069988E-01
5.38699438E+07	 1.57209617E-01	-2.95108636E-01
5.38821519E+07	 1.57120486E-01	-2.95144980E-01
5.38943599E+07	 1.57058690E-01	-2.95178073E-01
5.39065679E+07	 1.56977400E-01	-2.95223453E-01
5.39187759E+07	 1.56912694E-01	-2.95264333E-01
5.39309840E+07	 1.56843307E-01	-2.95304797E-01
5.39431920E+07	 1.56773586E-01	-2.95347113E-01
5.39554000E+07	 1.56696884E-01	-2.95375497E-01
5.39676080E+07	 1.56631870E-01	-2.95421653E-01
5.39798161E+07	 1.56552223E-01	-2.95455481E-01
5.39920241E+07	 1.56486396E-01	-2.95493028E-01
5.40042321E+07	 1.56406854E-01	-2.95532741E-01
5.40164401E+07	 1.56337371E-01	-2.95572223E-01
5.40286482E+07	 1.56269266E-01	-2.95612480E-01
5.40408562E+07	 1.56193268E-01	-2.95645178E-01
5.40530642E+07	 1.56118212E-01	-2.95687981E-01
5.40652722E+07	 1.56047773E-01	-2.95722026E-01
5.40774803E+07	 1.55977519E-01	-2.95765456E-01
5.40896883E+07	 1.55908174E-01	-2.95799034E-01
5.41018963E+07	 1.55827135E-01	-2.95844831E-01
5.41141043E+07	 1.55757513E-01	-2.95880442E-01
5.41263124E+07	 1.55685400E-01	-2.95915846E-01
5.41385204E+07	 1.55606841E-01	-2.95959500E-01
5.41507284E+07	 1.55541125E-01	-2.95993462E-01
5.41629364E+07	 1.55464100E-01	-2.96036424E-01
5.41751445E+07	 1.55390063E-01	-2.96075546E-01
5.41873525E+07	 1.55319423E-01	-2.96115090E-01
5.41995605E+07	 1.55244871E-01	-2.96149452E-01
5.42117685E+07	 1.55168802E-01	-2.96189603E-01
5.42239766E+07	 1.55099859E-01	-2.96225821E-01
5.42361846E+07	 1.55025416E-01	-2.96265492E-01
5.42483926E+07	 1.54959158E-01	-2.96298978E-01
5.42606006E+07	 1.54888165E-01	-2.96337286E-01
5.42728087E+07	 1.54810873E-01	-2.96381447E-01
5.42850167E+07	 1.54735922E-01	-2.96419405E-01
5.42972247E+07	 1.54666580E-01	-2.96460435E-01
5.43094327E+07	 1.54588443E-01	-2.96487852E-01
5.43216408E+07	 1.54520165E-01	-2.96534293E-01
5.43338488E+07	 1.54442951E-01	-2.96571333E-01
5.43460568E+07	 1.54375755E-01	-2.96611945E-01
5.43582648E+07	 1.54297297E-01	-2.96651116E-01
5.43704729E+07	 1.54227069E-01	-2.96687266E-01
5.43826809E+07	 1.54155230E-01	-2.96719313E-01
5.43948889E+07	 1.54087238E-01	-2.96766915E-01
5.44070969E+07	 1.54008133E-01	-2.96807461E-01
5.44193050E+07	 1.53932070E-01	-2.96838000E-01
5.44315130E+07	 1.53856814E-01	-2.96878114E-01
5.44437210E+07	 1.53787399E-01	-2.96923000E-01
5.44559290E+07	 1.53717614E-01	-2.96953136E-01
5.44681371E+07	 1.53647123E-01	-2.96999381E-01
5.44803451E+07	 1.53560832E-01	-2.97031413E-01
5.44925531E+07	 1.53491817E-01	-2.97075847E-01
5.45047611E+07	 1.53415863E-01	-2.97116998E-01
5.45169692E+07	 1.53342065E-01	-2.97154952E-01
5.45291772E+07	 1.53277170E-01	-2.97182527E-01
5.45413852E+07	 1.53205663E-01	-2.97218929E-01
5.45535932E+07	 1.53128901E-01	-2.97253345E-01
5.45658013E+07	 1.53063869E-01	-2.97298013E-01
5.45780093E+07	 1.52986360E-01	-2.97342134E-01
5.45902173E+07	 1.52907992E-01	-2.97370533E-01
5.46024253E+07	 1.52843854E-01	-2.97405334E-01
5.46146334E+07	 1.52765891E-01	-2.97448308E-01
5.46268414E+07	 1.52697401E-01	-2.97481268E-01
5.46390494E+07	 1.52623744E-01	-2.97528896E-01
5.46512574E+07	 1.52546802E-01	-2.97566503E-01
5.46634655E+07	 1.52476424E-01	-2.97602638E-01
5.46756735E+07	 1.52399241E-01	-2.97635574E-01
5.46878815E+07	 1.52331171E-01	-2.97678424E-01
5.47000895E+07	 1.52252891E-01	-2.97716115E-01
5.47122976E+07	 1.52181979E-01	-2.97749768E-01
5.47245056E+07	 1.52112683E-01	-2.97788467E-01
5.47367136E+07	 1.52038207E-01	-2.97830757E-01
5.47489216E+07	 1.51961592E-01	-2.97867526E-01
5.47611296E+07	 1.51893417E-01	-2.97902281E-01
5.47733377E+07	 1.51815524E-01	-2.97938974E-01
5.47855457E+07	 1.51742868E-01	-2.97976133E-01
5.47977537E+07	 1.51668992E-01	-2.98011858E-01
5.48099617E+07	 1.51596305E-01	-2.98050491E-01
5.48221698E+07	 1.51519846E-01	-2.98092115E-01
5.48343778E+07	 1.51454655E-01	-2.98134352E-01
5.48465858E+07	 1.51381565E-01	-2.98164448E-01
5.48587938E+07	 1.51303511E-01	-2.98202383E-01
5.48710019E+07	 1.51235353E-01	-2.98236960E-01
5.48832099E+07	 1.51158397E-01	-2.98277228E-01
5.48954179E+07	 1.51082647E-01	-2.98320078E-01
5.49076259E+07	 1.51011837E-01	-2.98357324E-01
5.49198340E+07	 1.50936302E-01	-2.98394213E-01
5.49320420E+07	 1.50865620E-01	-2.98427379E-01
5.49442500E+07	 1.50777394E-01	-2.98474503E-01
5.49564580E+07	 1.50726459E-01	-2.98504202E-01
5.49686661E+07	 1.50645915E-01	-2.98540790E-01
5.49808741E+07	 1.50576245E-01	-2.98579976E-01
5.49930821E+07	 1.50503946E-01	-2.98611479E-01
5.50052901E+07	 1.50426702E-01	-2.98654963E-01
5.50174982E+07	 1.50351094E-01	-2.98689139E-01
5.50297062E+07	 1.50284859E-01	-2.98726402E-01
5.50419142E+07	 1.50212353E-01	-2.98766814E-01
5.50541222E+07	 1.50139879E-01	-2.98803437E-01
5.50663303E+07	 1.50064717E-01	-2.98828600E-01
5.50785383E+07	 1.49986325E-01	-2.98875618E-01
5.50907463E+07	 1.49911500E-01	-2.98912037E-01
5.51029543E+07	 1.49844441E-01	-2.98949595E-01
5.51151624E+07	 1.49774637E-01	-2.98980921E-01
5.51273704E+07	 1.49696117E-01	-2.99025764E-01
