! COPPER MOUNTAIN TECHNOLOGIES, PLANAR TR1300/1, 00071119, 20.2.2/1.0
! Date: 1/9/2024 7:38:12 PM
! Data: Format [Calibration Info]
! Freq          	S11: Re/Im F1                  
# HZ S RI R 50
5.00000000E+07	-1.71037397E-01	 2.74359948E-01
5.00122080E+07	-1.70971995E-01	 2.74398241E-01
5.00244160E+07	-1.70904325E-01	 2.74443716E-01
5.00366241E+07	-1.70838617E-01	 2.74481991E-01
5.00488321E+07	-1.70769676E-01	 2.74515649E-01
5.00610401E+07	-1.70697276E-01	 2.74566838E-01
5.00732481E+07	-1.70630829E-01	 2.74611928E-01
5.00854562E+07	-1.70561590E-01	 2.74644285E-01
5.00976642E+07	-1.70494516E-01	 2.74687641E-01
5.01098722E+07	-1.70423607E-01	 2.74722855E-01
5.01220802E+07	-1.70362896E-01	 2.74766322E-01
5.01342883E+07	-1.70297414E-01	 2.74795758E-01
5.01464963E+07	-1.70224788E-01	 2.74847125E-01
5.01587043E+07	-1.70163308E-01	 2.74885079E-01
5.01709123E+07	-1.70085345E-01	 2.74930712E-01
5.01831204E+07	-1.70021314E-01	 2.74967027E-01
5.01953284E+07	-1.69954432E-01	 2.75004703E-01
5.02075364E+07	-1.69891670E-01	 2.75049331E-01
5.02197444E+07	-1.69819013E-01	 2.75086627E-01
5.02319525E+07	-1.69749630E-01	 2.75124599E-01
5.02441605E+07	-1.69680391E-01	 2.75161127E-01
5.02563685E+07	-1.69619326E-01	 2.75212473E-01
5.02685765E+07	-1.69546811E-01	 2.75243672E-01
5.02807846E+07	-1.69475809E-01	 2.75289879E-01
5.02929926E+07	-1.69404969E-01	 2.75328624E-01
5.03052006E+07	-1.69341010E-01	 2.75371034E-01
5.03174086E+07	-1.69278266E-01	 2.75406790E-01
5.03296167E+07	-1.69200593E-01	 2.75448468E-01
5.03418247E+07	-1.69142793E-01	 2.75491464E-01
5.03540327E+07	-1.69073875E-01	 2.75535211E-01
5.03662407E+07	-1.69002519E-01	 2.75570541E-01
5.03784488E+07	-1.68939665E-01	 2.75607203E-01
5.03906568E+07	-1.68863612E-01	 2.75649678E-01
5.04028648E+07	-1.68797968E-01	 2.75689866E-01
5.04150728E+07	-1.68735036E-01	 2.75733008E-01
5.04272809E+07	-1.68668921E-01	 2.75773883E-01
5.04394889E+07	-1.68590938E-01	 2.75806522E-01
5.04516969E+07	-1.68526250E-01	 2.75845622E-01
5.04639049E+07	-1.68460306E-01	 2.75890578E-01
5.04761130E+07	-1.68393938E-01	 2.75921927E-01
5.04883210E+07	-1.68322464E-01	 2.75971335E-01
5.05005290E+07	-1.68257133E-01	 2.76013983E-01
5.05127370E+07	-1.68191034E-01	 2.76053170E-01
5.05249451E+07	-1.68124677E-01	 2.76088787E-01
5.05371531E+07	-1.68056663E-01	 2.76132548E-01
5.05493611E+07	-1.67994465E-01	 2.76171538E-01
5.05615691E+07	-1.67925754E-01	 2.76209092E-01
5.05737772E+07	-1.67849453E-01	 2.76244786E-01
5.05859852E+07	-1.67783994E-01	 2.76292849E-01
5.05981932E+07	-1.67716317E-01	 2.76328053E-01
5.06104012E+07	-1.67648504E-01	 2.76370253E-01
5.06226093E+07	-1.67580545E-01	 2.76410576E-01
5.06348173E+07	-1.67509073E-01	 2.76450414E-01
5.06470253E+07	-1.67438628E-01	 2.76491826E-01
5.06592333E+07	-1.67371681E-01	 2.76529420E-01
5.06714414E+07	-1.67307729E-01	 2.76570202E-01
5.06836494E+07	-1.67241506E-01	 2.76611850E-01
5.06958574E+07	-1.67168614E-01	 2.76646848E-01
5.07080654E+07	-1.67105644E-01	 2.76689340E-01
5.07202735E+07	-1.67032133E-01	 2.76732009E-01
5.07324815E+07	-1.66965388E-01	 2.76773349E-01
5.07446895E+07	-1.66903180E-01	 2.76808025E-01
5.07568975E+07	-1.66833210E-01	 2.76841225E-01
5.07691056E+07	-1.66760998E-01	 2.76892723E-01
5.07813136E+07	-1.66697206E-01	 2.76924676E-01
5.07935216E+07	-1.66624459E-01	 2.76971249E-01
5.08057296E+07	-1.66550275E-01	 2.77003732E-01
5.08179377E+07	-1.66487458E-01	 2.77042052E-01
5.08301457E+07	-1.66423887E-01	 2.77085834E-01
5.08423537E+07	-1.66360022E-01	 2.77127839E-01
5.08545617E+07	-1.66282475E-01	 2.77161637E-01
5.08667698E+07	-1.66220273E-01	 2.77201545E-01
5.08789778E+07	-1.66145891E-01	 2.77246290E-01
5.08911858E+07	-1.66079665E-01	 2.77280513E-01
5.09033938E+07	-1.66015511E-01	 2.77314025E-01
5.09156019E+07	-1.65939162E-01	 2.77355367E-01
5.09278099E+07	-1.65872946E-01	 2.77405805E-01
5.09400179E+07	-1.65809250E-01	 2.77440659E-01
5.09522259E+07	-1.65738907E-01	 2.77481066E-01
5.09644340E+07	-1.65672739E-01	 2.77520015E-01
5.09766420E+07	-1.65602384E-01	 2.77554530E-01
5.09888500E+07	-1.65538505E-01	 2.77598035E-01
5.10010580E+07	-1.65465019E-01	 2.77636337E-01
5.10132661E+07	-1.65403387E-01	 2.77674796E-01
5.10254741E+07	-1.65328371E-01	 2.77715445E-01
5.10376821E+07	-1.65263629E-01	 2.77748097E-01
5.10498901E+07	-1.65184441E-01	 2.77784832E-01
5.10620982E+07	-1.65120880E-01	 2.77826697E-01
5.10743062E+07	-1.65056857E-01	 2.77873782E-01
5.10865142E+07	-1.64984429E-01	 2.77904054E-01
5.10987222E+07	-1.64916652E-01	 2.77950490E-01
5.11109303E+07	-1.64851557E-01	 2.77986571E-01
5.11231383E+07	-1.64781305E-01	 2.78026872E-01
5.11353463E+07	-1.64708085E-01	 2.78058609E-01
5.11475543E+07	-1.64640946E-01	 2.78103182E-01
5.11597624E+07	-1.64579269E-01	 2.78139329E-01
5.11719704E+07	-1.64500694E-01	 2.78181820E-01
5.11841784E+07	-1.64431243E-01	 2.78220256E-01
5.11963864E+07	-1.64364996E-01	 2.78256001E-01
5.12085944E+07	-1.64298191E-01	 2.78291433E-01
5.12208025E+07	-1.64222727E-01	 2.78335426E-01
5.12330105E+07	-1.64153466E-01	 2.78380398E-01
5.12452185E+07	-1.64087941E-01	 2.78410701E-01
5.12574265E+07	-1.64023120E-01	 2.78457685E-01
5.12696346E+07	-1.63952669E-01	 2.78484760E-01
5.12818426E+07	-1.63882465E-01	 2.78529811E-01
5.12940506E+07	-1.63813577E-01	 2.78571133E-01
5.13062586E+07	-1.63745288E-01	 2.78601786E-01
5.13184667E+07	-1.63672981E-01	 2.78645686E-01
5.13306747E+07	-1.63600641E-01	 2.78686134E-01
5.13428827E+07	-1.63538624E-01	 2.78721876E-01
5.13550907E+07	-1.63464324E-01	 2.78757382E-01
5.13672988E+07	-1.63396413E-01	 2.78797663E-01
5.13795068E+07	-1.63324102E-01	 2.78837478E-01
5.13917148E+07	-1.63264725E-01	 2.78873982E-01
5.14039228E+07	-1.63187562E-01	 2.78908707E-01
5.14161309E+07	-1.63130571E-01	 2.78955659E-01
5.14283389E+07	-1.63051250E-01	 2.78984864E-01
5.14405469E+07	-1.62984607E-01	 2.79034566E-01
5.14527549E+07	-1.62913148E-01	 2.79066420E-01
5.14649630E+07	-1.62845184E-01	 2.79105914E-01
5.14771710E+07	-1.62775901E-01	 2.79156720E-01
5.14893790E+07	-1.62702237E-01	 2.79183877E-01
5.15015870E+07	-1.62632726E-01	 2.79222359E-01
5.15137951E+07	-1.62563314E-01	 2.79267260E-01
5.15260031E+07	-1.62495624E-01	 2.79301096E-01
5.15382111E+07	-1.62430195E-01	 2.79343588E-01
5.15504191E+07	-1.62361868E-01	 2.79371808E-01
5.15626272E+07	-1.62295965E-01	 2.79415166E-01
5.15748352E+07	-1.62220490E-01	 2.79450377E-01
5.15870432E+07	-1.62157695E-01	 2.79491866E-01
5.15992512E+07	-1.62084304E-01	 2.79533320E-01
5.16114593E+07	-1.62018855E-01	 2.79571258E-01
5.16236673E+07	-1.61944632E-01	 2.79601549E-01
5.16358753E+07	-1.61879139E-01	 2.79640352E-01
5.16480833E+07	-1.61807087E-01	 2.79686181E-01
5.16602914E+07	-1.61744707E-01	 2.79716317E-01
5.16724994E+07	-1.61665138E-01	 2.79755493E-01
5.16847074E+07	-1.61606050E-01	 2.79799263E-01
5.16969154E+07	-1.61532008E-01	 2.79831437E-01
5.17091235E+07	-1.61464953E-01	 2.79869299E-01
5.17213315E+07	-1.61390744E-01	 2.79912108E-01
5.17335395E+07	-1.61324774E-01	 2.79950980E-01
5.17457475E+07	-1.61251790E-01	 2.79988296E-01
5.17579556E+07	-1.61184411E-01	 2.80021463E-01
5.17701636E+07	-1.61114970E-01	 2.80067190E-01
5.17823716E+07	-1.61047140E-01	 2.80104172E-01
5.17945796E+07	-1.60983190E-01	 2.80140293E-01
5.18067877E+07	-1.60908480E-01	 2.80175969E-01
5.18189957E+07	-1.60837834E-01	 2.80217880E-01
5.18312037E+07	-1.60772028E-01	 2.80253645E-01
5.18434117E+07	-1.60697941E-01	 2.80292210E-01
5.18556198E+07	-1.60627564E-01	 2.80328543E-01
5.18678278E+07	-1.60560760E-01	 2.80371256E-01
5.18800358E+07	-1.60492836E-01	 2.80408441E-01
5.18922438E+07	-1.60424190E-01	 2.80445986E-01
5.19044519E+07	-1.60360570E-01	 2.80480902E-01
5.19166599E+07	-1.60283547E-01	 2.80517916E-01
5.19288679E+07	-1.60208757E-01	 2.80560578E-01
5.19410759E+07	-1.60143491E-01	 2.80598141E-01
5.19532840E+07	-1.60070047E-01	 2.80629588E-01
5.19654920E+07	-1.60001689E-01	 2.80673043E-01
5.19777000E+07	-1.59937635E-01	 2.80705798E-01
5.19899080E+07	-1.59867472E-01	 2.80744109E-01
5.20021161E+07	-1.59800413E-01	 2.80788653E-01
5.20143241E+07	-1.59734496E-01	 2.80818654E-01
5.20265321E+07	-1.59660126E-01	 2.80854094E-01
5.20387401E+07	-1.59590420E-01	 2.80899335E-01
5.20509482E+07	-1.59522042E-01	 2.80931741E-01
5.20631562E+07	-1.59453530E-01	 2.80974448E-01
5.20753642E+07	-1.59383653E-01	 2.81010961E-01
5.20875722E+07	-1.59311255E-01	 2.81047185E-01
5.20997803E+07	-1.59240091E-01	 2.81084219E-01
5.21119883E+07	-1.59180070E-01	 2.81122140E-01
5.21241963E+07	-1.59111183E-01	 2.81160624E-01
5.21364043E+07	-1.59037259E-01	 2.81198670E-01
5.21486124E+07	-1.58972892E-01	 2.81234949E-01
5.21608204E+07	-1.58893051E-01	 2.81278039E-01
5.21730284E+07	-1.58834250E-01	 2.81308328E-01
5.21852364E+07	-1.58762639E-01	 2.81352797E-01
5.21974445E+07	-1.58686808E-01	 2.81385840E-01
5.22096525E+07	-1.58619217E-01	 2.81422314E-01
5.22218605E+07	-1.58549827E-01	 2.81460508E-01
5.22340685E+07	-1.58479032E-01	 2.81500631E-01
5.22462766E+07	-1.58412734E-01	 2.81536966E-01
5.22584846E+07	-1.58342532E-01	 2.81567800E-01
5.22706926E+07	-1.58276546E-01	 2.81607075E-01
5.22829006E+07	-1.58202374E-01	 2.81644420E-01
5.22951087E+07	-1.58137200E-01	 2.81684044E-01
5.23073167E+07	-1.58067567E-01	 2.81727323E-01
5.23195247E+07	-1.57994037E-01	 2.81759324E-01
5.23317327E+07	-1.57925590E-01	 2.81800466E-01
5.23439408E+07	-1.57857053E-01	 2.81838255E-01
5.23561488E+07	-1.57790149E-01	 2.81870721E-01
5.23683568E+07	-1.57721443E-01	 2.81900346E-01
5.23805648E+07	-1.57652053E-01	 2.81944715E-01
5.23927728E+07	-1.57587179E-01	 2.81979344E-01
5.24049809E+07	-1.57509878E-01	 2.82018509E-01
5.24171889E+07	-1.57444040E-01	 2.82055950E-01
5.24293969E+07	-1.57364822E-01	 2.82090577E-01
5.24416049E+07	-1.57301070E-01	 2.82129546E-01
5.24538130E+07	-1.57233078E-01	 2.82162573E-01
5.24660210E+07	-1.57168393E-01	 2.82204115E-01
5.24782290E+07	-1.57090298E-01	 2.82242180E-01
5.24904370E+07	-1.57023364E-01	 2.82277274E-01
5.25026451E+07	-1.56957142E-01	 2.82315845E-01
5.25148531E+07	-1.56889085E-01	 2.82352551E-01
5.25270611E+07	-1.56818013E-01	 2.82389532E-01
5.25392691E+07	-1.56751628E-01	 2.82423102E-01
5.25514772E+07	-1.56679695E-01	 2.82460294E-01
5.25636852E+07	-1.56608325E-01	 2.82502067E-01
5.25758932E+07	-1.56538362E-01	 2.82536762E-01
5.25881012E+07	-1.56466639E-01	 2.82569341E-01
5.26003093E+07	-1.56401610E-01	 2.82611469E-01
5.26125173E+07	-1.56328047E-01	 2.82648250E-01
5.26247253E+07	-1.56257893E-01	 2.82683811E-01
5.26369333E+07	-1.56190907E-01	 2.82719758E-01
5.26491414E+07	-1.56120391E-01	 2.82757591E-01
5.26613494E+07	-1.56050172E-01	 2.82797207E-01
5.26735574E+07	-1.55988972E-01	 2.82834308E-01
5.26857654E+07	-1.55911601E-01	 2.82864511E-01
5.26979735E+07	-1.55843976E-01	 2.82901647E-01
5.27101815E+07	-1.55778211E-01	 2.82945261E-01
5.27223895E+07	-1.55704821E-01	 2.82978798E-01
5.27345975E+07	-1.55639516E-01	 2.83015932E-01
5.27468056E+07	-1.55565835E-01	 2.83052845E-01
5.27590136E+07	-1.55495943E-01	 2.83086712E-01
5.27712216E+07	-1.55425097E-01	 2.83125768E-01
5.27834296E+07	-1.55354249E-01	 2.83157886E-01
5.27956377E+07	-1.55282806E-01	 2.83201719E-01
5.28078457E+07	-1.55214442E-01	 2.83234708E-01
5.28200537E+07	-1.55146707E-01	 2.83272041E-01
5.28322617E+07	-1.55079319E-01	 2.83312559E-01
5.28444698E+07	-1.55011328E-01	 2.83343873E-01
5.28566778E+07	-1.54933743E-01	 2.83380082E-01
5.28688858E+07	-1.54873218E-01	 2.83420523E-01
5.28810938E+07	-1.54797937E-01	 2.83456054E-01
5.28933019E+07	-1.54731839E-01	 2.83490904E-01
5.29055099E+07	-1.54659294E-01	 2.83530918E-01
5.29177179E+07	-1.54590402E-01	 2.83565391E-01
5.29299259E+07	-1.54514848E-01	 2.83598362E-01
5.29421340E+07	-1.54451078E-01	 2.83642487E-01
5.29543420E+07	-1.54376630E-01	 2.83673027E-01
5.29665500E+07	-1.54308911E-01	 2.83712795E-01
5.29787580E+07	-1.54241504E-01	 2.83742642E-01
5.29909661E+07	-1.54167826E-01	 2.83780185E-01
5.30031741E+07	-1.54097903E-01	 2.83821296E-01
5.30153821E+07	-1.54025083E-01	 2.83859395E-01
5.30275901E+07	-1.53958784E-01	 2.83892551E-01
5.30397982E+07	-1.53886788E-01	 2.83930264E-01
5.30520062E+07	-1.53819675E-01	 2.83959928E-01
5.30642142E+07	-1.53744898E-01	 2.83999695E-01
5.30764222E+07	-1.53683251E-01	 2.84031835E-01
5.30886303E+07	-1.53610928E-01	 2.84070336E-01
5.31008383E+07	-1.53545643E-01	 2.84116059E-01
5.31130463E+07	-1.53469021E-01	 2.84141790E-01
5.31252543E+07	-1.53404777E-01	 2.84179538E-01
5.31374624E+07	-1.53331849E-01	 2.84218830E-01
5.31496704E+07	-1.53259369E-01	 2.84257834E-01
5.31618784E+07	-1.53189419E-01	 2.84287247E-01
5.31740864E+07	-1.53118036E-01	 2.84325140E-01
5.31862945E+07	-1.53051792E-01	 2.84360154E-01
5.31985025E+07	-1.52978119E-01	 2.84394155E-01
5.32107105E+07	-1.52911851E-01	 2.84438936E-01
5.32229185E+07	-1.52837074E-01	 2.84468395E-01
5.32351266E+07	-1.52774369E-01	 2.84501305E-01
5.32473346E+07	-1.52697594E-01	 2.84544032E-01
5.32595426E+07	-1.52629778E-01	 2.84575662E-01
5.32717506E+07	-1.52562582E-01	 2.84619879E-01
5.32839587E+07	-1.52495208E-01	 2.84662637E-01
5.32961667E+07	-1.52425603E-01	 2.84688278E-01
5.33083747E+07	-1.52349550E-01	 2.84726320E-01
5.33205827E+07	-1.52279912E-01	 2.84761228E-01
5.33327908E+07	-1.52205373E-01	 2.84796399E-01
5.33449988E+07	-1.52136744E-01	 2.84827143E-01
5.33572068E+07	-1.52066230E-01	 2.84864535E-01
5.33694148E+07	-1.52001136E-01	 2.84902063E-01
5.33816229E+07	-1.51932080E-01	 2.84938310E-01
5.33938309E+07	-1.51861119E-01	 2.84973466E-01
5.34060389E+07	-1.51794337E-01	 2.85009032E-01
5.34182469E+07	-1.51718777E-01	 2.85042103E-01
5.34304550E+07	-1.51652623E-01	 2.85084723E-01
5.34426630E+07	-1.51580894E-01	 2.85121380E-01
5.34548710E+07	-1.51508315E-01	 2.85153698E-01
5.34670790E+07	-1.51440071E-01	 2.85189812E-01
5.34792871E+07	-1.51369127E-01	 2.85231521E-01
5.34914951E+07	-1.51306756E-01	 2.85263929E-01
5.35037031E+07	-1.51226839E-01	 2.85302550E-01
5.35159111E+07	-1.51156999E-01	 2.85335055E-01
5.35281192E+07	-1.51088957E-01	 2.85362597E-01
5.35403272E+07	-1.51019913E-01	 2.85403423E-01
5.35525352E+07	-1.50944652E-01	 2.85441000E-01
5.35647432E+07	-1.50877459E-01	 2.85476423E-01
5.35769512E+07	-1.50806464E-01	 2.85512597E-01
5.35891593E+07	-1.50728095E-01	 2.85542316E-01
5.36013673E+07	-1.50666613E-01	 2.85586529E-01
5.36135753E+07	-1.50600164E-01	 2.85616664E-01
5.36257833E+07	-1.50518743E-01	 2.85655417E-01
5.36379914E+07	-1.50449214E-01	 2.85699793E-01
5.36501994E+07	-1.50379946E-01	 2.85727346E-01
5.36624074E+07	-1.50313639E-01	 2.85756335E-01
5.36746154E+07	-1.50244694E-01	 2.85794226E-01
5.36868235E+07	-1.50169932E-01	 2.85831335E-01
5.36990315E+07	-1.50105756E-01	 2.85868753E-01
5.37112395E+07	-1.50032246E-01	 2.85897686E-01
5.37234475E+07	-1.49966113E-01	 2.85939211E-01
5.37356556E+07	-1.49897764E-01	 2.85982553E-01
5.37478636E+07	-1.49820747E-01	 2.86004561E-01
5.37600716E+07	-1.49745598E-01	 2.86048260E-01
5.37722796E+07	-1.49678970E-01	 2.86077640E-01
5.37844877E+07	-1.49604546E-01	 2.86112963E-01
5.37966957E+07	-1.49534364E-01	 2.86151460E-01
5.38089037E+07	-1.49465790E-01	 2.86187700E-01
5.38211117E+07	-1.49403311E-01	 2.86223210E-01
5.38333198E+07	-1.49326929E-01	 2.86260191E-01
5.38455278E+07	-1.49260977E-01	 2.86293864E-01
5.38577358E+07	-1.49182065E-01	 2.86325559E-01
5.38699438E+07	-1.49115116E-01	 2.86360999E-01
5.38821519E+07	-1.49040942E-01	 2.86400352E-01
5.38943599E+07	-1.48975442E-01	 2.86431201E-01
5.39065679E+07	-1.48903793E-01	 2.86469567E-01
5.39187759E+07	-1.48831576E-01	 2.86496604E-01
5.39309840E+07	-1.48768772E-01	 2.86535208E-01
5.39431920E+07	-1.48692476E-01	 2.86568359E-01
5.39554000E+07	-1.48630407E-01	 2.86619634E-01
5.39676080E+07	-1.48548093E-01	 2.86642460E-01
5.39798161E+07	-1.48478909E-01	 2.86675304E-01
5.39920241E+07	-1.48410552E-01	 2.86715804E-01
5.40042321E+07	-1.48342630E-01	 2.86748383E-01
5.40164401E+07	-1.48269562E-01	 2.86774339E-01
5.40286482E+07	-1.48202377E-01	 2.86816871E-01
5.40408562E+07	-1.48125029E-01	 2.86851899E-01
5.40530642E+07	-1.48053474E-01	 2.86887301E-01
5.40652722E+07	-1.47994490E-01	 2.86917604E-01
5.40774803E+07	-1.47918176E-01	 2.86954785E-01
5.40896883E+07	-1.47848018E-01	 2.86991160E-01
5.41018963E+07	-1.47782972E-01	 2.87022759E-01
5.41141043E+07	-1.47713375E-01	 2.87055885E-01
5.41263124E+07	-1.47636890E-01	 2.87091884E-01
5.41385204E+07	-1.47567882E-01	 2.87122634E-01
5.41507284E+07	-1.47494802E-01	 2.87163591E-01
5.41629364E+07	-1.47421133E-01	 2.87197478E-01
5.41751445E+07	-1.47354866E-01	 2.87236504E-01
5.41873525E+07	-1.47280075E-01	 2.87263860E-01
5.41995605E+07	-1.47209350E-01	 2.87298040E-01
5.42117685E+07	-1.47138520E-01	 2.87333325E-01
5.42239766E+07	-1.47065604E-01	 2.87369988E-01
5.42361846E+07	-1.47000900E-01	 2.87404264E-01
5.42483926E+07	-1.46926119E-01	 2.87439822E-01
5.42606006E+07	-1.46864207E-01	 2.87479850E-01
5.42728087E+07	-1.46788053E-01	 2.87511330E-01
5.42850167E+07	-1.46717873E-01	 2.87538254E-01
5.42972247E+07	-1.46654942E-01	 2.87576672E-01
5.43094327E+07	-1.46577982E-01	 2.87614879E-01
5.43216408E+07	-1.46502879E-01	 2.87644642E-01
5.43338488E+07	-1.46435956E-01	 2.87679095E-01
5.43460568E+07	-1.46357211E-01	 2.87714424E-01
5.43582648E+07	-1.46286602E-01	 2.87746236E-01
5.43704729E+07	-1.46216790E-01	 2.87787230E-01
5.43826809E+07	-1.46149066E-01	 2.87822942E-01
5.43948889E+07	-1.46078139E-01	 2.87849184E-01
5.44070969E+07	-1.46008293E-01	 2.87886752E-01
5.44193050E+07	-1.45935337E-01	 2.87926749E-01
5.44315130E+07	-1.45866007E-01	 2.87947628E-01
5.44437210E+07	-1.45792064E-01	 2.87985799E-01
5.44559290E+07	-1.45717761E-01	 2.88018125E-01
5.44681371E+07	-1.45651738E-01	 2.88053322E-01
5.44803451E+07	-1.45571523E-01	 2.88092018E-01
5.44925531E+07	-1.45511881E-01	 2.88125922E-01
5.45047611E+07	-1.45438737E-01	 2.88153706E-01
5.45169692E+07	-1.45366975E-01	 2.88196297E-01
5.45291772E+07	-1.45290352E-01	 2.88225878E-01
5.45413852E+07	-1.45231936E-01	 2.88252492E-01
5.45535932E+07	-1.45155438E-01	 2.88299665E-01
5.45658013E+07	-1.45093127E-01	 2.88328492E-01
5.45780093E+07	-1.45011672E-01	 2.88363007E-01
5.45902173E+07	-1.44943152E-01	 2.88398899E-01
5.46024253E+07	-1.44870371E-01	 2.88429244E-01
5.46146334E+07	-1.44806028E-01	 2.88461642E-01
5.46268414E+07	-1.44727529E-01	 2.88499693E-01
5.46390494E+07	-1.44661869E-01	 2.88528771E-01
5.46512574E+07	-1.44593738E-01	 2.88572952E-01
5.46634655E+07	-1.44519274E-01	 2.88606370E-01
5.46756735E+07	-1.44441886E-01	 2.88632709E-01
5.46878815E+07	-1.44379191E-01	 2.88661510E-01
5.47000895E+07	-1.44306848E-01	 2.88705571E-01
5.47122976E+07	-1.44237312E-01	 2.88735714E-01
5.47245056E+07	-1.44166188E-01	 2.88761045E-01
5.47367136E+07	-1.44095068E-01	 2.88800945E-01
5.47489216E+07	-1.44023499E-01	 2.88835128E-01
5.47611296E+07	-1.43955521E-01	 2.88872978E-01
5.47733377E+07	-1.43882547E-01	 2.88908792E-01
5.47855457E+07	-1.43808769E-01	 2.88939705E-01
5.47977537E+07	-1.43742298E-01	 2.88973159E-01
5.48099617E+07	-1.43668829E-01	 2.89007789E-01
5.48221698E+07	-1.43592447E-01	 2.89039728E-01
5.48343778E+07	-1.43525919E-01	 2.89069683E-01
5.48465858E+07	-1.43456383E-01	 2.89106472E-01
5.48587938E+07	-1.43386168E-01	 2.89142453E-01
5.48710019E+07	-1.43312371E-01	 2.89181159E-01
5.48832099E+07	-1.43238731E-01	 2.89213434E-01
5.48954179E+07	-1.43169194E-01	 2.89249799E-01
5.49076259E+07	-1.43101819E-01	 2.89277775E-01
5.49198340E+07	-1.43026889E-01	 2.89307406E-01
5.49320420E+07	-1.42954163E-01	 2.89341923E-01
5.49442500E+07	-1.42878471E-01	 2.89377809E-01
5.49564580E+07	-1.42814270E-01	 2.89406688E-01
5.49686661E+07	-1.42740285E-01	 2.89448179E-01
5.49808741E+07	-1.42672197E-01	 2.89483512E-01
5.49930821E+07	-1.42604546E-01	 2.89515560E-01
5.50052901E+07	-1.42528198E-01	 2.89542705E-01
5.50174982E+07	-1.42457585E-01	 2.89576914E-01
5.50297062E+07	-1.42394061E-01	 2.89605844E-01
5.50419142E+07	-1.42317005E-01	 2.89647363E-01
5.50541222E+07	-1.42246836E-01	 2.89678697E-01
5.50663303E+07	-1.42171455E-01	 2.89708173E-01
5.50785383E+07	-1.42098198E-01	 2.89744025E-01
5.50907463E+07	-1.42025245E-01	 2.89776240E-01
5.51029543E+07	-1.41956363E-01	 2.89801268E-01
5.51151624E+07	-1.41890668E-01	 2.89842500E-01
5.51273704E+07	-1.41817667E-01	 2.89871918E-01
