! COPPER MOUNTAIN TECHNOLOGIES, PLANAR TR1300/1, 00071119, 20.2.2/1.0
! Date: 1/9/2024 7:57:40 PM
! Data: Format [Calibration Info]
! Freq          	S11: Re/Im F1                  
# HZ S RI R 50
5.00000000E+07	-1.86641075E-02	 1.92565651E-03
5.00122080E+07	-1.88823194E-02	 1.41277578E-03
5.00244160E+07	-1.86295176E-02	 1.83021328E-03
5.00366241E+07	-1.86893891E-02	 1.59840609E-03
5.00488321E+07	-1.85946773E-02	 1.77193602E-03
5.00610401E+07	-1.87852728E-02	 1.59680182E-03
5.00732481E+07	-1.90670404E-02	 1.48949855E-03
5.00854562E+07	-1.85593944E-02	 1.91392481E-03
5.00976642E+07	-1.87821685E-02	 1.83308854E-03
5.01098722E+07	-1.87665914E-02	 1.60348420E-03
5.01220802E+07	-1.86321294E-02	 1.64701985E-03
5.01342883E+07	-1.86442176E-02	 1.69836313E-03
5.01464963E+07	-1.87703602E-02	 1.81102319E-03
5.01587043E+07	-1.90895229E-02	 1.66755151E-03
5.01709123E+07	-1.87416142E-02	 1.65777416E-03
5.01831204E+07	-1.87611918E-02	 1.59649983E-03
5.01953284E+07	-1.87160004E-02	 1.64841143E-03
5.02075364E+07	-1.87029940E-02	 1.85936338E-03
5.02197444E+07	-1.90731321E-02	 1.71224201E-03
5.02319525E+07	-1.87861362E-02	 1.60271655E-03
5.02441605E+07	-1.89102227E-02	 1.72310936E-03
5.02563685E+07	-1.86614615E-02	 1.78585992E-03
5.02685765E+07	-1.85565109E-02	 1.70168107E-03
5.02807846E+07	-1.87822270E-02	 1.65470058E-03
5.02929926E+07	-1.86025719E-02	 1.51131941E-03
5.03052006E+07	-1.90171031E-02	 1.33499204E-03
5.03174086E+07	-1.88442965E-02	 1.77990013E-03
5.03296167E+07	-1.85459762E-02	 1.77153744E-03
5.03418247E+07	-1.86089678E-02	 1.61566930E-03
5.03540327E+07	-1.85536601E-02	 1.56910054E-03
5.03662407E+07	-1.87434574E-02	 1.90703890E-03
5.03784488E+07	-1.88547166E-02	 1.61474097E-03
5.03906568E+07	-1.89113378E-02	 1.66514048E-03
5.04028648E+07	-1.91171105E-02	 2.07085319E-03
5.04150728E+07	-1.87901948E-02	 2.18300616E-03
5.04272809E+07	-1.87208008E-02	 1.77301082E-03
5.04394889E+07	-1.88541788E-02	 1.60871371E-03
5.04516969E+07	-1.87019236E-02	 1.83014728E-03
5.04639049E+07	-1.86881580E-02	 1.51096251E-03
5.04761130E+07	-1.88156905E-02	 1.72377362E-03
5.04883210E+07	-1.89340974E-02	 1.70724975E-03
5.05005290E+07	-1.86817586E-02	 1.67910889E-03
5.05127370E+07	-1.88816718E-02	 1.78660485E-03
5.05249451E+07	-1.84208730E-02	 1.47145111E-03
5.05371531E+07	-1.85804188E-02	 1.82700165E-03
5.05493611E+07	-1.87422329E-02	 1.63559437E-03
5.05615691E+07	-1.88562925E-02	 1.67092120E-03
5.05737772E+07	-1.88850552E-02	 1.74008658E-03
5.05859852E+07	-1.89609424E-02	 1.65104325E-03
5.05981932E+07	-1.86907949E-02	 1.74973166E-03
5.06104012E+07	-1.88924513E-02	 1.66318416E-03
5.06226093E+07	-1.90034123E-02	 1.68630112E-03
5.06348173E+07	-1.88372124E-02	 1.74811985E-03
5.06470253E+07	-1.90121137E-02	 1.80657566E-03
5.06592333E+07	-1.89607330E-02	 1.85058918E-03
5.06714414E+07	-1.86491180E-02	 1.76361088E-03
5.06836494E+07	-1.88811326E-02	 1.52550471E-03
5.06958574E+07	-1.87442346E-02	 1.70374221E-03
5.07080654E+07	-1.88393937E-02	 1.64354988E-03
5.07202735E+07	-1.87843172E-02	 1.69844941E-03
5.07324815E+07	-1.90302303E-02	 1.69643081E-03
5.07446895E+07	-1.87731967E-02	 1.85911914E-03
5.07568975E+07	-1.90207093E-02	 1.83710326E-03
5.07691056E+07	-1.89523859E-02	 1.87715551E-03
5.07813136E+07	-1.88122933E-02	 1.85077442E-03
5.07935216E+07	-1.87142673E-02	 1.46770934E-03
5.08057296E+07	-1.85938677E-02	 1.56687131E-03
5.08179377E+07	-1.89136629E-02	 1.64243176E-03
5.08301457E+07	-1.89496176E-02	 1.42996383E-03
5.08423537E+07	-1.87635758E-02	 1.58527762E-03
5.08545617E+07	-1.87548862E-02	 1.60612610E-03
5.08667698E+07	-1.88544014E-02	 1.77743039E-03
5.08789778E+07	-1.88141421E-02	 1.70839798E-03
5.08911858E+07	-1.85423067E-02	 1.61395248E-03
5.09033938E+07	-1.88126233E-02	 1.81672107E-03
5.09156019E+07	-1.88829441E-02	 1.50921854E-03
5.09278099E+07	-1.85745793E-02	 1.56718603E-03
5.09400179E+07	-1.88927269E-02	 1.68846924E-03
5.09522259E+07	-1.88987939E-02	 1.68025710E-03
5.09644340E+07	-1.89101663E-02	 1.60205327E-03
5.09766420E+07	-1.84099901E-02	 1.78344595E-03
5.09888500E+07	-1.88371094E-02	 1.69800494E-03
5.10010580E+07	-1.90420927E-02	 1.42705681E-03
5.10132661E+07	-1.90903944E-02	 1.36806491E-03
5.10254741E+07	-1.84061168E-02	 1.58211594E-03
5.10376821E+07	-1.88505347E-02	 1.75907481E-03
5.10498901E+07	-1.89230536E-02	 1.74584413E-03
5.10620982E+07	-1.84829088E-02	 1.70029222E-03
5.10743062E+07	-1.87868617E-02	 1.59250105E-03
5.10865142E+07	-1.85258076E-02	 1.96261556E-03
5.10987222E+07	-1.87994961E-02	 1.64911295E-03
5.11109303E+07	-1.86937321E-02	 1.60675917E-03
5.11231383E+07	-1.89155017E-02	 1.45797775E-03
5.11353463E+07	-1.89490433E-02	 1.55280682E-03
5.11475543E+07	-1.85488399E-02	 1.39790925E-03
5.11597624E+07	-1.86971298E-02	 1.51858283E-03
5.11719704E+07	-1.86772121E-02	 1.42345182E-03
5.11841784E+07	-1.87332521E-02	 1.60828968E-03
5.11963864E+07	-1.86423821E-02	 1.56448766E-03
5.12085944E+07	-1.87180368E-02	 1.61590229E-03
5.12208025E+07	-1.88039366E-02	 1.64778238E-03
5.12330105E+07	-1.88661747E-02	 1.82675247E-03
5.12452185E+07	-1.86000894E-02	 1.89616000E-03
5.12574265E+07	-1.88330822E-02	 1.45743522E-03
5.12696346E+07	-1.86305401E-02	 1.60946261E-03
5.12818426E+07	-1.89376790E-02	 1.65168392E-03
5.12940506E+07	-1.86851995E-02	 1.71122814E-03
5.13062586E+07	-1.88797039E-02	 1.54867905E-03
5.13184667E+07	-1.89172928E-02	 1.61914786E-03
5.13306747E+07	-1.88961607E-02	 1.92420713E-03
5.13428827E+07	-1.89073729E-02	 1.53753313E-03
5.13550907E+07	-1.86896333E-02	 1.54338390E-03
5.13672988E+07	-1.88690537E-02	 1.76095170E-03
5.13795068E+07	-1.86516199E-02	 1.33606164E-03
5.13917148E+07	-1.86467760E-02	 1.93708099E-03
5.14039228E+07	-1.88317438E-02	 1.92061378E-03
5.14161309E+07	-1.86836754E-02	 1.73049049E-03
5.14283389E+07	-1.87290774E-02	 1.48331004E-03
5.14405469E+07	-1.89663462E-02	 1.97156216E-03
5.14527549E+07	-1.87852381E-02	 1.75133790E-03
5.14649630E+07	-1.87693179E-02	 1.59125365E-03
5.14771710E+07	-1.88514933E-02	 1.60011652E-03
5.14893790E+07	-1.90071800E-02	 1.85475649E-03
5.15015870E+07	-1.88379188E-02	 1.87270116E-03
5.15137951E+07	-1.87995543E-02	 1.91914858E-03
5.15260031E+07	-1.86648712E-02	 1.72149037E-03
5.15382111E+07	-1.86405598E-02	 1.79455071E-03
5.15504191E+07	-1.87990572E-02	 1.71949149E-03
5.15626272E+07	-1.89870104E-02	 1.92687218E-03
5.15748352E+07	-1.88999799E-02	 1.58788417E-03
5.15870432E+07	-1.86588272E-02	 1.66724909E-03
5.15992512E+07	-1.88727286E-02	 1.81668400E-03
5.16114593E+07	-1.85224854E-02	 1.69132557E-03
5.16236673E+07	-1.88626870E-02	 1.79437463E-03
5.16358753E+07	-1.85983015E-02	 1.58371055E-03
5.16480833E+07	-1.87344285E-02	 1.70957905E-03
5.16602914E+07	-1.87225460E-02	 2.11944648E-03
5.16724994E+07	-1.89150257E-02	 1.59398579E-03
5.16847074E+07	-1.85158082E-02	 1.57610179E-03
5.16969154E+07	-1.86335632E-02	 1.73112994E-03
5.17091235E+07	-1.88910979E-02	 1.67423453E-03
5.17213315E+07	-1.88698489E-02	 1.67368449E-03
5.17335395E+07	-1.87937570E-02	 1.69210084E-03
5.17457475E+07	-1.88861662E-02	 1.93619343E-03
5.17579556E+07	-1.87255022E-02	 1.65512175E-03
5.17701636E+07	-1.88143430E-02	 1.53655391E-03
5.17823716E+07	-1.88298974E-02	 1.48058360E-03
5.17945796E+07	-1.86945474E-02	 1.62886726E-03
5.18067877E+07	-1.87685310E-02	 1.72551210E-03
5.18189957E+07	-1.88156350E-02	 1.95159698E-03
5.18312037E+07	-1.87289204E-02	 1.89630065E-03
5.18434117E+07	-1.86572290E-02	 2.18537508E-03
5.18556198E+07	-1.87323180E-02	 1.65855307E-03
5.18678278E+07	-1.88882996E-02	 1.72547114E-03
5.18800358E+07	-1.87558396E-02	 1.53770884E-03
5.18922438E+07	-1.86792252E-02	 1.87882097E-03
5.19044519E+07	-1.87710887E-02	 1.63576440E-03
5.19166599E+07	-1.85679771E-02	 1.62096717E-03
5.19288679E+07	-1.88564485E-02	 1.83792789E-03
5.19410759E+07	-1.89650195E-02	 1.74407177E-03
5.19532840E+07	-1.89457966E-02	 1.62740432E-03
5.19654920E+07	-1.88380687E-02	 1.84647277E-03
5.19777000E+07	-1.86087169E-02	 1.58894363E-03
5.19899080E+07	-1.84102335E-02	 1.69363833E-03
5.20021161E+07	-1.90269268E-02	 1.57237893E-03
5.20143241E+07	-1.86991290E-02	 1.66468642E-03
5.20265321E+07	-1.87978623E-02	 1.78255745E-03
5.20387401E+07	-1.87364109E-02	 1.70711435E-03
5.20509482E+07	-1.86992224E-02	 1.44269464E-03
5.20631562E+07	-1.84712844E-02	 1.72425868E-03
5.20753642E+07	-1.88893171E-02	 1.91263863E-03
5.20875722E+07	-1.87851619E-02	 1.85180888E-03
5.20997803E+07	-1.86307643E-02	 1.65849850E-03
5.21119883E+07	-1.89353321E-02	 1.65426891E-03
5.21241963E+07	-1.87165966E-02	 1.92913885E-03
5.21364043E+07	-1.87301055E-02	 1.81145489E-03
5.21486124E+07	-1.87674571E-02	 1.90553832E-03
5.21608204E+07	-1.85688098E-02	 2.00440565E-03
5.21730284E+07	-1.87565909E-02	 1.63377772E-03
5.21852364E+07	-1.88875243E-02	 1.79440123E-03
5.21974445E+07	-1.88368978E-02	 1.67903705E-03
5.22096525E+07	-1.88185289E-02	 1.90429204E-03
5.22218605E+07	-1.88046589E-02	 1.63473956E-03
5.22340685E+07	-1.88331016E-02	 1.50709402E-03
5.22462766E+07	-1.86760009E-02	 1.73918884E-03
5.22584846E+07	-1.87167083E-02	 1.74207289E-03
5.22706926E+07	-1.89216701E-02	 1.94892450E-03
5.22829006E+07	-1.85749894E-02	 1.82322262E-03
5.22951087E+07	-1.89656034E-02	 1.62869068E-03
5.23073167E+07	-1.85867879E-02	 1.50364886E-03
5.23195247E+07	-1.86613207E-02	 1.76881669E-03
5.23317327E+07	-1.86256175E-02	 1.85693110E-03
5.23439408E+07	-1.89082021E-02	 1.68344046E-03
5.23561488E+07	-1.83785493E-02	 1.83277668E-03
5.23683568E+07	-1.87811877E-02	 1.60470775E-03
5.23805648E+07	-1.86386870E-02	 1.85269820E-03
5.23927728E+07	-1.87257209E-02	 1.67151186E-03
5.24049809E+07	-1.87144412E-02	 1.67674560E-03
5.24171889E+07	-1.85777162E-02	 1.79919074E-03
5.24293969E+07	-1.86284407E-02	 1.65532659E-03
5.24416049E+07	-1.85608300E-02	 1.65300093E-03
5.24538130E+07	-1.89099797E-02	 1.60909438E-03
5.24660210E+07	-1.87721823E-02	 1.44244274E-03
5.24782290E+07	-1.85284327E-02	 1.81722245E-03
5.24904370E+07	-1.88318923E-02	 1.82513809E-03
5.25026451E+07	-1.85676530E-02	 1.54515544E-03
5.25148531E+07	-1.87104068E-02	 1.75182973E-03
5.25270611E+07	-1.89589458E-02	 1.65641961E-03
5.25392691E+07	-1.85301912E-02	 1.79039276E-03
5.25514772E+07	-1.86079376E-02	 1.49532017E-03
5.25636852E+07	-1.86642170E-02	 1.78660396E-03
5.25758932E+07	-1.87969518E-02	 1.66929088E-03
5.25881012E+07	-1.89581026E-02	 1.87454303E-03
5.26003093E+07	-1.88801712E-02	 1.84861351E-03
5.26125173E+07	-1.85865782E-02	 1.92871046E-03
5.26247253E+07	-1.88380600E-02	 1.87409311E-03
5.26369333E+07	-1.85874555E-02	 1.53143229E-03
5.26491414E+07	-1.86784887E-02	 1.73864049E-03
5.26613494E+07	-1.88783278E-02	 1.81495551E-03
5.26735574E+07	-1.86818024E-02	 1.89332161E-03
5.26857654E+07	-1.88501039E-02	 1.65562639E-03
5.26979735E+07	-1.84905450E-02	 1.81092720E-03
5.27101815E+07	-1.86641119E-02	 1.81439983E-03
5.27223895E+07	-1.87122910E-02	 1.82196688E-03
5.27345975E+07	-1.88952580E-02	 1.87572101E-03
5.27468056E+07	-1.88905388E-02	 1.82067465E-03
5.27590136E+07	-1.89039914E-02	 1.85788477E-03
5.27712216E+07	-1.91128869E-02	 1.92958784E-03
5.27834296E+07	-1.86067604E-02	 1.61948504E-03
5.27956377E+07	-1.86710628E-02	 1.67789764E-03
5.28078457E+07	-1.88791627E-02	 1.97768245E-03
5.28200537E+07	-1.90196849E-02	 2.09894978E-03
5.28322617E+07	-1.90513088E-02	 1.76655948E-03
5.28444698E+07	-1.87864496E-02	 1.53360582E-03
5.28566778E+07	-1.87408086E-02	 1.74715446E-03
5.28688858E+07	-1.87454559E-02	 1.69533837E-03
5.28810938E+07	-1.87674923E-02	 1.80851893E-03
5.28933019E+07	-1.88538163E-02	 2.03557414E-03
5.29055099E+07	-1.87549245E-02	 1.53204497E-03
5.29177179E+07	-1.88679791E-02	 1.58028167E-03
5.29299259E+07	-1.89073686E-02	 1.76361142E-03
5.29421340E+07	-1.86561201E-02	 1.92233199E-03
5.29543420E+07	-1.88566429E-02	 1.78794765E-03
5.29665500E+07	-1.90933581E-02	 1.82883725E-03
5.29787580E+07	-1.85992507E-02	 1.71518444E-03
5.29909661E+07	-1.90231405E-02	 1.57813900E-03
5.30031741E+07	-1.88117662E-02	 1.82493842E-03
5.30153821E+07	-1.89476400E-02	 2.15475671E-03
5.30275901E+07	-1.88045696E-02	 1.77383928E-03
5.30397982E+07	-1.86983500E-02	 1.55937173E-03
5.30520062E+07	-1.87920249E-02	 1.57272296E-03
5.30642142E+07	-1.86870777E-02	 1.81045469E-03
5.30764222E+07	-1.87382679E-02	 1.99792417E-03
5.30886303E+07	-1.85800519E-02	 1.75126498E-03
5.31008383E+07	-1.86908397E-02	 2.11108809E-03
5.31130463E+07	-1.87958556E-02	 1.64262947E-03
5.31252543E+07	-1.88223575E-02	 1.43140641E-03
5.31374624E+07	-1.84873517E-02	 1.68263972E-03
5.31496704E+07	-1.87642809E-02	 2.06921160E-03
5.31618784E+07	-1.89060093E-02	 1.81910457E-03
5.31740864E+07	-1.86991340E-02	 1.61216743E-03
5.31862945E+07	-1.86979480E-02	 1.65974266E-03
5.31985025E+07	-1.84126153E-02	 1.65213494E-03
5.32107105E+07	-1.84709916E-02	 1.80096151E-03
5.32229185E+07	-1.87857449E-02	 1.97538047E-03
5.32351266E+07	-1.84628518E-02	 1.72539167E-03
5.32473346E+07	-1.90934123E-02	 1.59112973E-03
5.32595426E+07	-1.88303542E-02	 1.80567674E-03
5.32717506E+07	-1.86519672E-02	 1.58571127E-03
5.32839587E+07	-1.88027382E-02	 1.79508513E-03
5.32961667E+07	-1.86403993E-02	 1.65102301E-03
5.33083747E+07	-1.88029965E-02	 1.67944076E-03
5.33205827E+07	-1.90462585E-02	 1.68331183E-03
5.33327908E+07	-1.87263643E-02	 1.80313515E-03
5.33449988E+07	-1.84729102E-02	 1.60266158E-03
5.33572068E+07	-1.88732194E-02	 1.79887834E-03
5.33694148E+07	-1.87113972E-02	 1.54722433E-03
5.33816229E+07	-1.88426731E-02	 1.89329559E-03
5.33938309E+07	-1.88884790E-02	 1.77151446E-03
5.34060389E+07	-1.88249208E-02	 1.78107785E-03
5.34182469E+07	-1.87068927E-02	 1.94219544E-03
5.34304550E+07	-1.89683088E-02	 1.67145509E-03
5.34426630E+07	-1.86379171E-02	 1.89589146E-03
5.34548710E+07	-1.87895938E-02	 1.64852679E-03
5.34670790E+07	-1.85803048E-02	 1.77841043E-03
5.34792871E+07	-1.90584185E-02	 1.71396849E-03
5.34914951E+07	-1.86775263E-02	 1.70201314E-03
5.35037031E+07	-1.88779884E-02	 1.80140191E-03
5.35159111E+07	-1.87250644E-02	 1.70101724E-03
5.35281192E+07	-1.89595846E-02	 1.68771714E-03
5.35403272E+07	-1.88981647E-02	 1.83635283E-03
5.35525352E+07	-1.83822394E-02	 1.86089713E-03
5.35647432E+07	-1.87643033E-02	 1.89710479E-03
5.35769512E+07	-1.85784828E-02	 1.97656466E-03
5.35891593E+07	-1.83885157E-02	 1.92693098E-03
5.36013673E+07	-1.87687229E-02	 1.70705230E-03
5.36135753E+07	-1.89627042E-02	 1.72988425E-03
5.36257833E+07	-1.84925540E-02	 1.63303559E-03
5.36379914E+07	-1.86717664E-02	 1.81924954E-03
5.36501994E+07	-1.86015775E-02	 1.81547573E-03
5.36624074E+07	-1.88386637E-02	 1.69587512E-03
5.36746154E+07	-1.86323665E-02	 1.72878168E-03
5.36868235E+07	-1.88202338E-02	 1.55272022E-03
5.36990315E+07	-1.86652229E-02	 1.93154882E-03
5.37112395E+07	-1.88544848E-02	 1.65603272E-03
5.37234475E+07	-1.87781862E-02	 1.88419192E-03
5.37356556E+07	-1.91457819E-02	 1.69199746E-03
5.37478636E+07	-1.89790052E-02	 1.55398043E-03
5.37600716E+07	-1.85586997E-02	 1.55195890E-03
5.37722796E+07	-1.90071968E-02	 1.83341016E-03
5.37844877E+07	-1.86824570E-02	 1.70344054E-03
5.37966957E+07	-1.87982267E-02	 1.63174920E-03
5.38089037E+07	-1.86063149E-02	 1.75752330E-03
5.38211117E+07	-1.86830887E-02	 1.91993773E-03
5.38333198E+07	-1.90184298E-02	 1.95482002E-03
5.38455278E+07	-1.88515020E-02	 1.84451873E-03
5.38577358E+07	-1.87723690E-02	 1.71703020E-03
5.38699438E+07	-1.87011912E-02	 1.89875937E-03
5.38821519E+07	-1.86187103E-02	 1.83437705E-03
5.38943599E+07	-1.86494651E-02	 1.63454805E-03
5.39065679E+07	-1.89818824E-02	 1.80499499E-03
5.39187759E+07	-1.87064514E-02	 1.59967784E-03
5.39309840E+07	-1.87940722E-02	 1.59020481E-03
5.39431920E+07	-1.86921799E-02	 1.61949420E-03
5.39554000E+07	-1.87764850E-02	 1.79210800E-03
5.39676080E+07	-1.86283272E-02	 1.89149108E-03
5.39798161E+07	-1.87787563E-02	 1.96554915E-03
5.39920241E+07	-1.85900918E-02	 1.77029991E-03
5.40042321E+07	-1.89744283E-02	 1.61100673E-03
5.40164401E+07	-1.88146415E-02	 1.69185695E-03
5.40286482E+07	-1.89251584E-02	 1.67259044E-03
5.40408562E+07	-1.86928464E-02	 1.91180037E-03
5.40530642E+07	-1.87969067E-02	 1.85284297E-03
5.40652722E+07	-1.88275657E-02	 1.93172894E-03
5.40774803E+07	-1.88554737E-02	 1.95380074E-03
5.40896883E+07	-1.88655626E-02	 1.92423292E-03
5.41018963E+07	-1.85981494E-02	 1.79315257E-03
5.41141043E+07	-1.84923056E-02	 2.00799804E-03
5.41263124E+07	-1.84675054E-02	 1.64893098E-03
5.41385204E+07	-1.86778641E-02	 1.61165121E-03
5.41507284E+07	-1.88419726E-02	 1.74704930E-03
5.41629364E+07	-1.88294631E-02	 2.00019963E-03
5.41751445E+07	-1.87859898E-02	 1.79934789E-03
5.41873525E+07	-1.88780854E-02	 1.82570457E-03
5.41995605E+07	-1.86954804E-02	 1.87235929E-03
5.42117685E+07	-1.88576208E-02	 1.77807616E-03
5.42239766E+07	-1.87891565E-02	 1.82703693E-03
5.42361846E+07	-1.86951812E-02	 1.92090882E-03
5.42483926E+07	-1.87626699E-02	 1.54197005E-03
5.42606006E+07	-1.87745949E-02	 1.58337814E-03
5.42728087E+07	-1.87589095E-02	 1.83035648E-03
5.42850167E+07	-1.89425894E-02	 1.93844060E-03
5.42972247E+07	-1.85646094E-02	 2.03519884E-03
5.43094327E+07	-1.85533930E-02	 1.90502402E-03
5.43216408E+07	-1.86979213E-02	 1.75428298E-03
5.43338488E+07	-1.88366365E-02	 1.77117724E-03
5.43460568E+07	-1.86807336E-02	 1.96290719E-03
5.43582648E+07	-1.87872351E-02	 1.77782561E-03
5.43704729E+07	-1.84611549E-02	 1.55734107E-03
5.43826809E+07	-1.88500276E-02	 1.80317466E-03
5.43948889E+07	-1.87894070E-02	 1.56505983E-03
5.44070969E+07	-1.86423388E-02	 1.71952358E-03
5.44193050E+07	-1.86300802E-02	 1.60400150E-03
5.44315130E+07	-1.87921619E-02	 1.69374955E-03
5.44437210E+07	-1.88234999E-02	 1.58930766E-03
5.44559290E+07	-1.86836948E-02	 1.68265746E-03
5.44681371E+07	-1.87980082E-02	 1.74045797E-03
5.44803451E+07	-1.92289189E-02	 1.63876194E-03
5.44925531E+07	-1.87840068E-02	 1.90393628E-03
5.45047611E+07	-1.89082115E-02	 1.85548162E-03
5.45169692E+07	-1.88417855E-02	 1.76339930E-03
5.45291772E+07	-1.87856106E-02	 2.20366277E-03
5.45413852E+07	-1.85432405E-02	 1.68825731E-03
5.45535932E+07	-1.86182382E-02	 1.93488160E-03
5.45658013E+07	-1.87820952E-02	 1.62171012E-03
5.45780093E+07	-1.88446742E-02	 1.87291367E-03
5.45902173E+07	-1.84176416E-02	 1.83278831E-03
5.46024253E+07	-1.86414084E-02	 1.72037539E-03
5.46146334E+07	-1.89084521E-02	 1.71920349E-03
5.46268414E+07	-1.89248122E-02	 1.84214661E-03
5.46390494E+07	-1.88530418E-02	 1.70933135E-03
5.46512574E+07	-1.88667712E-02	 2.10835021E-03
5.46634655E+07	-1.86382569E-02	 1.74594614E-03
5.46756735E+07	-1.84710983E-02	 1.74537756E-03
5.46878815E+07	-1.86693181E-02	 1.71828910E-03
5.47000895E+07	-1.89387927E-02	 1.79634265E-03
5.47122976E+07	-1.88249864E-02	 1.75656290E-03
5.47245056E+07	-1.87234475E-02	 1.82531821E-03
5.47367136E+07	-1.87864308E-02	 1.98561491E-03
5.47489216E+07	-1.87860732E-02	 1.66134661E-03
5.47611296E+07	-1.87023196E-02	 1.69902678E-03
5.47733377E+07	-1.88628143E-02	 1.79094338E-03
5.47855457E+07	-1.86741554E-02	 1.55081653E-03
5.47977537E+07	-1.88175134E-02	 1.88781499E-03
5.48099617E+07	-1.89192192E-02	 1.73238171E-03
5.48221698E+07	-1.88325609E-02	 1.95938786E-03
5.48343778E+07	-1.84437821E-02	 2.01221332E-03
5.48465858E+07	-1.87778943E-02	 1.87983784E-03
5.48587938E+07	-1.86783637E-02	 1.84517148E-03
5.48710019E+07	-1.86876885E-02	 1.66861026E-03
5.48832099E+07	-1.85312665E-02	 1.86330640E-03
5.48954179E+07	-1.86898662E-02	 1.57849959E-03
5.49076259E+07	-1.88297712E-02	 1.93680442E-03
5.49198340E+07	-1.86715018E-02	 1.76451088E-03
5.49320420E+07	-1.86871617E-02	 1.78190930E-03
5.49442500E+07	-1.88302005E-02	 1.72455780E-03
5.49564580E+07	-1.89002864E-02	 1.72991189E-03
5.49686661E+07	-1.87019009E-02	 1.88456265E-03
5.49808741E+07	-1.85883247E-02	 1.87781806E-03
5.49930821E+07	-1.87514433E-02	 1.89137551E-03
5.50052901E+07	-1.88981724E-02	 1.88666534E-03
5.50174982E+07	-1.86479452E-02	 1.65584304E-03
5.50297062E+07	-1.87634479E-02	 1.83962592E-03
5.50419142E+07	-1.86138856E-02	 1.80078713E-03
5.50541222E+07	-1.86593950E-02	 1.83156488E-03
5.50663303E+07	-1.86154693E-02	 1.77409755E-03
5.50785383E+07	-1.89310949E-02	 1.63377255E-03
5.50907463E+07	-1.87358230E-02	 2.05977500E-03
5.51029543E+07	-1.86671475E-02	 1.85435376E-03
5.51151624E+07	-1.86177689E-02	 1.92175884E-03
5.51273704E+07	-1.88413689E-02	 1.45601328E-03
