! COPPER MOUNTAIN TECHNOLOGIES, PLANAR TR1300/1, 00071119, 20.2.2/1.0
! Date: 1/7/2024 7:42:37 PM
! Data: Format [Calibration Info]
! Freq          	S11: Re/Im F1                  
# HZ S RI R 50
5.00000000E+07	 3.83938575E-01	 5.56410542E-02
5.00122080E+07	 3.83174103E-01	 5.45447947E-02
5.00244160E+07	 3.82425301E-01	 5.34540681E-02
5.00366241E+07	 3.81659574E-01	 5.23664309E-02
5.00488321E+07	 3.80897549E-01	 5.12747715E-02
5.00610401E+07	 3.80135339E-01	 5.01975550E-02
5.00732481E+07	 3.79357702E-01	 4.91158363E-02
5.00854562E+07	 3.78590259E-01	 4.80495995E-02
5.00976642E+07	 3.77816333E-01	 4.69675982E-02
5.01098722E+07	 3.77041363E-01	 4.59095692E-02
5.01220802E+07	 3.76252628E-01	 4.48482145E-02
5.01342883E+07	 3.75478697E-01	 4.37838248E-02
5.01464963E+07	 3.74693079E-01	 4.27281989E-02
5.01587043E+07	 3.73899121E-01	 4.16778856E-02
5.01709123E+07	 3.73104378E-01	 4.06321892E-02
5.01831204E+07	 3.72310965E-01	 3.95884152E-02
5.01953284E+07	 3.71514762E-01	 3.85557753E-02
5.02075364E+07	 3.70702352E-01	 3.75241652E-02
5.02197444E+07	 3.69909411E-01	 3.64840945E-02
5.02319525E+07	 3.69100303E-01	 3.54543111E-02
5.02441605E+07	 3.68292899E-01	 3.44273959E-02
5.02563685E+07	 3.67481967E-01	 3.34042094E-02
5.02685765E+07	 3.66654414E-01	 3.23950312E-02
5.02807846E+07	 3.65852506E-01	 3.13770307E-02
5.02929926E+07	 3.65022645E-01	 3.03682522E-02
5.03052006E+07	 3.64197820E-01	 2.93637333E-02
5.03174086E+07	 3.63371967E-01	 2.83685641E-02
5.03296167E+07	 3.62547099E-01	 2.73649561E-02
5.03418247E+07	 3.61718190E-01	 2.63716251E-02
5.03540327E+07	 3.60883093E-01	 2.53842698E-02
5.03662407E+07	 3.60044188E-01	 2.43957327E-02
5.03784488E+07	 3.59205879E-01	 2.34128186E-02
5.03906568E+07	 3.58349500E-01	 2.24492269E-02
5.04028648E+07	 3.57514848E-01	 2.14666162E-02
5.04150728E+07	 3.56674530E-01	 2.04999723E-02
5.04272809E+07	 3.55819486E-01	 1.95366834E-02
5.04394889E+07	 3.54960619E-01	 1.85866134E-02
5.04516969E+07	 3.54110403E-01	 1.76115029E-02
5.04639049E+07	 3.53254827E-01	 1.66589590E-02
5.04761130E+07	 3.52395751E-01	 1.57079570E-02
5.04883210E+07	 3.51539434E-01	 1.47604632E-02
5.05005290E+07	 3.50668367E-01	 1.38244890E-02
5.05127370E+07	 3.49803833E-01	 1.28891805E-02
5.05249451E+07	 3.48934228E-01	 1.19604318E-02
5.05371531E+07	 3.48065135E-01	 1.10229322E-02
5.05493611E+07	 3.47188299E-01	 1.01070830E-02
5.05615691E+07	 3.46309911E-01	 9.18242232E-03
5.05737772E+07	 3.45428715E-01	 8.26658193E-03
5.05859852E+07	 3.44546179E-01	 7.35695462E-03
5.05981932E+07	 3.43668878E-01	 6.44367197E-03
5.06104012E+07	 3.42781321E-01	 5.53913774E-03
5.06226093E+07	 3.41892065E-01	 4.64221663E-03
5.06348173E+07	 3.41001176E-01	 3.75206016E-03
5.06470253E+07	 3.40110366E-01	 2.85578680E-03
5.06592333E+07	 3.39210011E-01	 1.96752974E-03
5.06714414E+07	 3.38315015E-01	 1.08022888E-03
5.06836494E+07	 3.37416377E-01	 2.01643576E-04
5.06958574E+07	 3.36518061E-01	-6.68327415E-04
5.07080654E+07	 3.35617859E-01	-1.53930201E-03
5.07202735E+07	 3.34708287E-01	-2.40998608E-03
5.07324815E+07	 3.33800286E-01	-3.27427255E-03
5.07446895E+07	 3.32885371E-01	-4.13472974E-03
5.07568975E+07	 3.31976040E-01	-4.98610105E-03
5.07691056E+07	 3.31061610E-01	-5.83656177E-03
5.07813136E+07	 3.30146016E-01	-6.68362022E-03
5.07935216E+07	 3.29230995E-01	-7.52862766E-03
5.08057296E+07	 3.28307648E-01	-8.36374152E-03
5.08179377E+07	 3.27382544E-01	-9.20047768E-03
5.08301457E+07	 3.26454765E-01	-1.00332123E-02
5.08423537E+07	 3.25533760E-01	-1.08555755E-02
5.08545617E+07	 3.24611139E-01	-1.16752005E-02
5.08667698E+07	 3.23676260E-01	-1.24965038E-02
5.08789778E+07	 3.22740040E-01	-1.33010264E-02
5.08911858E+07	 3.21812094E-01	-1.41044154E-02
5.09033938E+07	 3.20874777E-01	-1.49164280E-02
5.09156019E+07	 3.19937890E-01	-1.57175470E-02
5.09278099E+07	 3.18994233E-01	-1.65098471E-02
5.09400179E+07	 3.18059214E-01	-1.72964772E-02
5.09522259E+07	 3.17114996E-01	-1.80891540E-02
5.09644340E+07	 3.16167396E-01	-1.88788269E-02
5.09766420E+07	 3.15224574E-01	-1.96447651E-02
5.09888500E+07	 3.14267965E-01	-2.04289608E-02
5.10010580E+07	 3.13328333E-01	-2.11931025E-02
5.10132661E+07	 3.12373553E-01	-2.19620129E-02
5.10254741E+07	 3.11412262E-01	-2.27259819E-02
5.10376821E+07	 3.10466652E-01	-2.34824023E-02
5.10498901E+07	 3.09509750E-01	-2.42373947E-02
5.10620982E+07	 3.08549431E-01	-2.49814059E-02
5.10743062E+07	 3.07589529E-01	-2.57250435E-02
5.10865142E+07	 3.06637231E-01	-2.64655561E-02
5.10987222E+07	 3.05666654E-01	-2.72040300E-02
5.11109303E+07	 3.04707788E-01	-2.79305211E-02
5.11231383E+07	 3.03740416E-01	-2.86585098E-02
5.11353463E+07	 3.02770765E-01	-2.93890415E-02
5.11475543E+07	 3.01806429E-01	-3.01095748E-02
5.11597624E+07	 3.00828963E-01	-3.08121068E-02
5.11719704E+07	 2.99860167E-01	-3.15218969E-02
5.11841784E+07	 2.98895928E-01	-3.22354337E-02
5.11963864E+07	 2.97912808E-01	-3.29393164E-02
5.12085944E+07	 2.96935189E-01	-3.36360768E-02
5.12208025E+07	 2.95960247E-01	-3.43263537E-02
5.12330105E+07	 2.94984793E-01	-3.50127842E-02
5.12452185E+07	 2.94003300E-01	-3.56982904E-02
5.12574265E+07	 2.93027601E-01	-3.63807134E-02
5.12696346E+07	 2.92032717E-01	-3.70571153E-02
5.12818426E+07	 2.91055163E-01	-3.77212810E-02
5.12940506E+07	 2.90068402E-01	-3.83899690E-02
5.13062586E+07	 2.89082654E-01	-3.90503573E-02
5.13184667E+07	 2.88095829E-01	-3.97070866E-02
5.13306747E+07	 2.87104841E-01	-4.03604749E-02
5.13428827E+07	 2.86115544E-01	-4.10105005E-02
5.13550907E+07	 2.85123920E-01	-4.16538297E-02
5.13672988E+07	 2.84131566E-01	-4.22950482E-02
5.13795068E+07	 2.83144224E-01	-4.29336251E-02
5.13917148E+07	 2.82143378E-01	-4.35670760E-02
5.14039228E+07	 2.81148874E-01	-4.41967571E-02
5.14161309E+07	 2.80147689E-01	-4.48165724E-02
5.14283389E+07	 2.79157094E-01	-4.54345943E-02
5.14405469E+07	 2.78151576E-01	-4.60486968E-02
5.14527549E+07	 2.77149154E-01	-4.66676960E-02
5.14649630E+07	 2.76157291E-01	-4.72618573E-02
5.14771710E+07	 2.75148909E-01	-4.78695192E-02
5.14893790E+07	 2.74147398E-01	-4.84665804E-02
5.15015870E+07	 2.73141018E-01	-4.90567987E-02
5.15137951E+07	 2.72134937E-01	-4.96504424E-02
5.15260031E+07	 2.71129796E-01	-5.02335036E-02
5.15382111E+07	 2.70122464E-01	-5.08198372E-02
5.15504191E+07	 2.69116795E-01	-5.13881354E-02
5.15626272E+07	 2.68108656E-01	-5.19605609E-02
5.15748352E+07	 2.67098977E-01	-5.25270045E-02
5.15870432E+07	 2.66085590E-01	-5.30913851E-02
5.15992512E+07	 2.65077165E-01	-5.36521233E-02
5.16114593E+07	 2.64062856E-01	-5.42048042E-02
5.16236673E+07	 2.63047766E-01	-5.47566849E-02
5.16358753E+07	 2.62036427E-01	-5.53004347E-02
5.16480833E+07	 2.61026553E-01	-5.58446824E-02
5.16602914E+07	 2.60006872E-01	-5.63759353E-02
5.16724994E+07	 2.58984649E-01	-5.69137205E-02
5.16847074E+07	 2.57972610E-01	-5.74409554E-02
5.16969154E+07	 2.56956817E-01	-5.79704399E-02
5.17091235E+07	 2.55936113E-01	-5.84839594E-02
5.17213315E+07	 2.54916196E-01	-5.89959929E-02
5.17335395E+07	 2.53900360E-01	-5.95064998E-02
5.17457475E+07	 2.52881365E-01	-6.00195286E-02
5.17579556E+07	 2.51854782E-01	-6.05180240E-02
5.17701636E+07	 2.50835374E-01	-6.10167448E-02
5.17823716E+07	 2.49814222E-01	-6.15141609E-02
5.17945796E+07	 2.48793308E-01	-6.20066851E-02
5.18067877E+07	 2.47766999E-01	-6.24848897E-02
5.18189957E+07	 2.46747091E-01	-6.29662109E-02
5.18312037E+07	 2.45718644E-01	-6.34498286E-02
5.18434117E+07	 2.44700311E-01	-6.39162971E-02
5.18556198E+07	 2.43669505E-01	-6.43846051E-02
5.18678278E+07	 2.42647432E-01	-6.48549654E-02
5.18800358E+07	 2.41620076E-01	-6.53091252E-02
5.18922438E+07	 2.40594083E-01	-6.57702804E-02
5.19044519E+07	 2.39569525E-01	-6.62140030E-02
5.19166599E+07	 2.38542267E-01	-6.66679307E-02
5.19288679E+07	 2.37512494E-01	-6.71029683E-02
5.19410759E+07	 2.36491881E-01	-6.75499505E-02
5.19532840E+07	 2.35459321E-01	-6.79758464E-02
5.19654920E+07	 2.34433284E-01	-6.84093583E-02
5.19777000E+07	 2.33403975E-01	-6.88337075E-02
5.19899080E+07	 2.32378982E-01	-6.92539039E-02
5.20021161E+07	 2.31338045E-01	-6.96761478E-02
5.20143241E+07	 2.30312059E-01	-7.00850526E-02
5.20265321E+07	 2.29284272E-01	-7.04921317E-02
5.20387401E+07	 2.28252103E-01	-7.08962069E-02
5.20509482E+07	 2.27221671E-01	-7.12972254E-02
5.20631562E+07	 2.26191206E-01	-7.16897847E-02
5.20753642E+07	 2.25159984E-01	-7.20826315E-02
5.20875722E+07	 2.24128968E-01	-7.24735687E-02
5.20997803E+07	 2.23102599E-01	-7.28527106E-02
5.21119883E+07	 2.22062461E-01	-7.32282303E-02
5.21241963E+07	 2.21035025E-01	-7.36024113E-02
5.21364043E+07	 2.20007896E-01	-7.39775707E-02
5.21486124E+07	 2.18974312E-01	-7.43440814E-02
5.21608204E+07	 2.17940446E-01	-7.47012494E-02
5.21730284E+07	 2.16905097E-01	-7.50637768E-02
5.21852364E+07	 2.15878893E-01	-7.54136323E-02
5.21974445E+07	 2.14843568E-01	-7.57629013E-02
5.22096525E+07	 2.13821989E-01	-7.61034536E-02
5.22218605E+07	 2.12783885E-01	-7.64468225E-02
5.22340685E+07	 2.11748526E-01	-7.67843705E-02
5.22462766E+07	 2.10724533E-01	-7.71226758E-02
5.22584846E+07	 2.09693096E-01	-7.74469595E-02
5.22706926E+07	 2.08662073E-01	-7.77634195E-02
5.22829006E+07	 2.07622234E-01	-7.80863503E-02
5.22951087E+07	 2.06594688E-01	-7.84035171E-02
5.23073167E+07	 2.05567975E-01	-7.87072774E-02
5.23195247E+07	 2.04534844E-01	-7.90198920E-02
5.23317327E+07	 2.03500385E-01	-7.93211975E-02
5.23439408E+07	 2.02473856E-01	-7.96240465E-02
5.23561488E+07	 2.01444530E-01	-7.99223152E-02
5.23683568E+07	 2.00412464E-01	-8.02039236E-02
5.23805648E+07	 1.99380409E-01	-8.04918132E-02
5.23927728E+07	 1.98350516E-01	-8.07774666E-02
5.24049809E+07	 1.97323584E-01	-8.10516417E-02
5.24171889E+07	 1.96299093E-01	-8.13249975E-02
5.24293969E+07	 1.95265374E-01	-8.15964722E-02
5.24416049E+07	 1.94233393E-01	-8.18548941E-02
5.24538130E+07	 1.93205282E-01	-8.21243063E-02
5.24660210E+07	 1.92177680E-01	-8.23865423E-02
5.24782290E+07	 1.91157509E-01	-8.26369310E-02
5.24904370E+07	 1.90122641E-01	-8.28892209E-02
5.25026451E+07	 1.89103399E-01	-8.31304724E-02
5.25148531E+07	 1.88079849E-01	-8.33660001E-02
5.25270611E+07	 1.87052810E-01	-8.36084202E-02
5.25392691E+07	 1.86025328E-01	-8.38387627E-02
5.25514772E+07	 1.84999093E-01	-8.40677252E-02
5.25636852E+07	 1.83974692E-01	-8.42948634E-02
5.25758932E+07	 1.82950108E-01	-8.45147014E-02
5.25881012E+07	 1.81931174E-01	-8.47277299E-02
5.26003093E+07	 1.80902557E-01	-8.49497965E-02
5.26125173E+07	 1.79880520E-01	-8.51570943E-02
5.26247253E+07	 1.78863198E-01	-8.53622393E-02
5.26369333E+07	 1.77839844E-01	-8.55558209E-02
5.26491414E+07	 1.76813940E-01	-8.57543641E-02
5.26613494E+07	 1.75797268E-01	-8.59465790E-02
5.26735574E+07	 1.74781370E-01	-8.61347417E-02
5.26857654E+07	 1.73761454E-01	-8.63277378E-02
5.26979735E+07	 1.72738114E-01	-8.65009587E-02
5.27101815E+07	 1.71723327E-01	-8.66798293E-02
5.27223895E+07	 1.70705863E-01	-8.68522995E-02
5.27345975E+07	 1.69687029E-01	-8.70193171E-02
5.27468056E+07	 1.68677451E-01	-8.71798880E-02
5.27590136E+07	 1.67659251E-01	-8.73392546E-02
5.27712216E+07	 1.66645898E-01	-8.75096741E-02
5.27834296E+07	 1.65630291E-01	-8.76590097E-02
5.27956377E+07	 1.64615625E-01	-8.78081586E-02
5.28078457E+07	 1.63604883E-01	-8.79467323E-02
5.28200537E+07	 1.62586689E-01	-8.80943602E-02
5.28322617E+07	 1.61586635E-01	-8.82323067E-02
5.28444698E+07	 1.60575292E-01	-8.83592475E-02
5.28566778E+07	 1.59564495E-01	-8.84902468E-02
5.28688858E+07	 1.58558278E-01	-8.86159905E-02
5.28810938E+07	 1.57546612E-01	-8.87403977E-02
5.28933019E+07	 1.56543054E-01	-8.88598382E-02
5.29055099E+07	 1.55532638E-01	-8.89702167E-02
5.29177179E+07	 1.54525621E-01	-8.90804293E-02
5.29299259E+07	 1.53531092E-01	-8.91843111E-02
5.29421340E+07	 1.52521679E-01	-8.92884795E-02
5.29543420E+07	 1.51524157E-01	-8.93883607E-02
5.29665500E+07	 1.50522759E-01	-8.94849761E-02
5.29787580E+07	 1.49529038E-01	-8.95767983E-02
5.29909661E+07	 1.48528043E-01	-8.96630457E-02
5.30031741E+07	 1.47530046E-01	-8.97421225E-02
5.30153821E+07	 1.46524450E-01	-8.98233763E-02
5.30275901E+07	 1.45534060E-01	-8.99026008E-02
5.30397982E+07	 1.44535328E-01	-8.99754300E-02
5.30520062E+07	 1.43540122E-01	-9.00349747E-02
5.30642142E+07	 1.42547698E-01	-9.01038949E-02
5.30764222E+07	 1.41560101E-01	-9.01641557E-02
5.30886303E+07	 1.40565480E-01	-9.02185506E-02
5.31008383E+07	 1.39582015E-01	-9.02755182E-02
5.31130463E+07	 1.38589986E-01	-9.03203973E-02
5.31252543E+07	 1.37602613E-01	-9.03711081E-02
5.31374624E+07	 1.36615531E-01	-9.04047924E-02
5.31496704E+07	 1.35628998E-01	-9.04477995E-02
5.31618784E+07	 1.34644523E-01	-9.04827879E-02
5.31740864E+07	 1.33661932E-01	-9.05111657E-02
5.31862945E+07	 1.32679826E-01	-9.05401216E-02
5.31985025E+07	 1.31697547E-01	-9.05674397E-02
5.32107105E+07	 1.30719574E-01	-9.05759768E-02
5.32229185E+07	 1.29743385E-01	-9.05989858E-02
5.32351266E+07	 1.28766375E-01	-9.06105475E-02
5.32473346E+07	 1.27784706E-01	-9.06166181E-02
5.32595426E+07	 1.26813849E-01	-9.06259613E-02
5.32717506E+07	 1.25839408E-01	-9.06284534E-02
5.32839587E+07	 1.24872831E-01	-9.06212230E-02
5.32961667E+07	 1.23901604E-01	-9.06168627E-02
5.33083747E+07	 1.22933610E-01	-9.06059245E-02
5.33205827E+07	 1.21967627E-01	-9.05931307E-02
5.33327908E+07	 1.20987812E-01	-9.05815907E-02
5.33449988E+07	 1.20029878E-01	-9.05580538E-02
5.33572068E+07	 1.19068045E-01	-9.05359388E-02
5.33694148E+07	 1.18104647E-01	-9.05062597E-02
5.33816229E+07	 1.17139229E-01	-9.04836303E-02
5.33938309E+07	 1.16179898E-01	-9.04392936E-02
5.34060389E+07	 1.15221196E-01	-9.04058052E-02
5.34182469E+07	 1.14263893E-01	-9.03677411E-02
5.34304550E+07	 1.13308023E-01	-9.03219650E-02
5.34426630E+07	 1.12362121E-01	-9.02718120E-02
5.34548710E+07	 1.11404175E-01	-9.02198153E-02
5.34670790E+07	 1.10450783E-01	-9.01644536E-02
5.34792871E+07	 1.09497343E-01	-9.01117631E-02
5.34914951E+07	 1.08551002E-01	-9.00406894E-02
5.35037031E+07	 1.07604664E-01	-8.99807822E-02
5.35159111E+07	 1.06659764E-01	-8.99085839E-02
5.35281192E+07	 1.05708970E-01	-8.98318522E-02
5.35403272E+07	 1.04775067E-01	-8.97594272E-02
5.35525352E+07	 1.03833641E-01	-8.96851658E-02
5.35647432E+07	 1.02892203E-01	-8.95961524E-02
5.35769512E+07	 1.01950903E-01	-8.95101034E-02
5.35891593E+07	 1.01019906E-01	-8.94245567E-02
5.36013673E+07	 1.00078257E-01	-8.93276337E-02
5.36135753E+07	 9.91451873E-02	-8.92401689E-02
5.36257833E+07	 9.82122115E-02	-8.91360238E-02
5.36379914E+07	 9.72837449E-02	-8.90339699E-02
5.36501994E+07	 9.63578747E-02	-8.89296378E-02
5.36624074E+07	 9.54292678E-02	-8.88194439E-02
5.36746154E+07	 9.45060401E-02	-8.87047997E-02
5.36868235E+07	 9.35798636E-02	-8.85821891E-02
5.36990315E+07	 9.26583760E-02	-8.84634793E-02
5.37112395E+07	 9.17412707E-02	-8.83482612E-02
5.37234475E+07	 9.08226426E-02	-8.82175980E-02
5.37356556E+07	 8.99012253E-02	-8.80901863E-02
5.37478636E+07	 8.89842025E-02	-8.79523235E-02
5.37600716E+07	 8.80725590E-02	-8.78205143E-02
5.37722796E+07	 8.71628151E-02	-8.76844681E-02
5.37844877E+07	 8.62518500E-02	-8.75399953E-02
5.37966957E+07	 8.53406980E-02	-8.73908591E-02
5.38089037E+07	 8.44326607E-02	-8.72474537E-02
5.38211117E+07	 8.35290643E-02	-8.70929757E-02
5.38333198E+07	 8.26292360E-02	-8.69369989E-02
5.38455278E+07	 8.17219074E-02	-8.67788637E-02
5.38577358E+07	 8.08235253E-02	-8.66218620E-02
5.38699438E+07	 7.99288662E-02	-8.64539938E-02
5.38821519E+07	 7.90304210E-02	-8.62878789E-02
5.38943599E+07	 7.81316284E-02	-8.61076888E-02
5.39065679E+07	 7.72445156E-02	-8.59427387E-02
5.39187759E+07	 7.63544610E-02	-8.57658821E-02
5.39309840E+07	 7.54643434E-02	-8.55820205E-02
5.39431920E+07	 7.45722665E-02	-8.54001275E-02
5.39554000E+07	 7.36945784E-02	-8.52110712E-02
5.39676080E+07	 7.28105093E-02	-8.50232409E-02
5.39798161E+07	 7.19319349E-02	-8.48284566E-02
5.39920241E+07	 7.10447390E-02	-8.46351587E-02
5.40042321E+07	 7.01658974E-02	-8.44385862E-02
5.40164401E+07	 6.92897865E-02	-8.42381334E-02
5.40286482E+07	 6.84183684E-02	-8.40251144E-02
5.40408562E+07	 6.75440647E-02	-8.38264169E-02
5.40530642E+07	 6.66821303E-02	-8.36122914E-02
5.40652722E+07	 6.58076856E-02	-8.33981387E-02
5.40774803E+07	 6.49404014E-02	-8.31864571E-02
5.40896883E+07	 6.40805819E-02	-8.29627586E-02
5.41018963E+07	 6.32149718E-02	-8.27414841E-02
5.41141043E+07	 6.23476032E-02	-8.25148440E-02
5.41263124E+07	 6.14980720E-02	-8.22868571E-02
5.41385204E+07	 6.06409131E-02	-8.20610725E-02
5.41507284E+07	 5.97850230E-02	-8.18193049E-02
5.41629364E+07	 5.89320420E-02	-8.15846020E-02
5.41751445E+07	 5.80806000E-02	-8.13439948E-02
5.41873525E+07	 5.72317775E-02	-8.10987973E-02
5.41995605E+07	 5.63871790E-02	-8.08566618E-02
5.42117685E+07	 5.55421129E-02	-8.06085244E-02
5.42239766E+07	 5.46992607E-02	-8.03600431E-02
5.42361846E+07	 5.38585296E-02	-8.01031954E-02
5.42483926E+07	 5.30129109E-02	-7.98459325E-02
5.42606006E+07	 5.21840177E-02	-7.95824320E-02
5.42728087E+07	 5.13528845E-02	-7.93208532E-02
5.42850167E+07	 5.05218838E-02	-7.90535464E-02
5.42972247E+07	 4.96873677E-02	-7.87823496E-02
5.43094327E+07	 4.88616867E-02	-7.85171937E-02
5.43216408E+07	 4.80374186E-02	-7.82412707E-02
5.43338488E+07	 4.72093320E-02	-7.79625356E-02
5.43460568E+07	 4.63845677E-02	-7.76884693E-02
5.43582648E+07	 4.55652407E-02	-7.74070069E-02
5.43704729E+07	 4.47521969E-02	-7.71178219E-02
5.43826809E+07	 4.39351002E-02	-7.68354339E-02
5.43948889E+07	 4.31234540E-02	-7.65409782E-02
5.44070969E+07	 4.23118748E-02	-7.62498108E-02
5.44193050E+07	 4.15022892E-02	-7.59488070E-02
5.44315130E+07	 4.06912210E-02	-7.56514870E-02
5.44437210E+07	 3.98863424E-02	-7.53514581E-02
5.44559290E+07	 3.90901479E-02	-7.50543360E-02
5.44681371E+07	 3.82881259E-02	-7.47456946E-02
5.44803451E+07	 3.74906837E-02	-7.44331297E-02
5.44925531E+07	 3.66926804E-02	-7.41250781E-02
5.45047611E+07	 3.59005790E-02	-7.38135857E-02
5.45169692E+07	 3.51103452E-02	-7.34937585E-02
5.45291772E+07	 3.43202915E-02	-7.31756835E-02
5.45413852E+07	 3.35315472E-02	-7.28518243E-02
5.45535932E+07	 3.27487108E-02	-7.25238547E-02
5.45658013E+07	 3.19689783E-02	-7.22001150E-02
5.45780093E+07	 3.11889816E-02	-7.18740923E-02
5.45902173E+07	 3.04161015E-02	-7.15410979E-02
5.46024253E+07	 2.96279616E-02	-7.12073495E-02
5.46146334E+07	 2.88592264E-02	-7.08663671E-02
5.46268414E+07	 2.80917207E-02	-7.05317638E-02
5.46390494E+07	 2.73194772E-02	-7.01902229E-02
5.46512574E+07	 2.65519184E-02	-6.98440751E-02
5.46634655E+07	 2.57890702E-02	-6.94923700E-02
5.46756735E+07	 2.50244905E-02	-6.91507078E-02
5.46878815E+07	 2.42726038E-02	-6.87966626E-02
5.47000895E+07	 2.35105437E-02	-6.84416587E-02
5.47122976E+07	 2.27561167E-02	-6.80860955E-02
5.47245056E+07	 2.19968790E-02	-6.77270311E-02
5.47367136E+07	 2.12521994E-02	-6.73685206E-02
5.47489216E+07	 2.05043286E-02	-6.69984690E-02
5.47611296E+07	 1.97566038E-02	-6.66368238E-02
5.47733377E+07	 1.90118923E-02	-6.62685108E-02
5.47855457E+07	 1.82754789E-02	-6.58944447E-02
5.47977537E+07	 1.75304405E-02	-6.55246763E-02
5.48099617E+07	 1.67958815E-02	-6.51496422E-02
5.48221698E+07	 1.60629398E-02	-6.47713844E-02
5.48343778E+07	 1.53275727E-02	-6.43945884E-02
5.48465858E+07	 1.45983479E-02	-6.40096150E-02
5.48587938E+07	 1.38746715E-02	-6.36272940E-02
5.48710019E+07	 1.31495504E-02	-6.32371112E-02
5.48832099E+07	 1.24295410E-02	-6.28492866E-02
5.48954179E+07	 1.17059428E-02	-6.24569099E-02
5.49076259E+07	 1.09897520E-02	-6.20590951E-02
5.49198340E+07	 1.02802255E-02	-6.16666572E-02
5.49320420E+07	 9.56035090E-03	-6.12681330E-02
5.49442500E+07	 8.85500941E-03	-6.08675080E-02
5.49564580E+07	 8.14483240E-03	-6.04664734E-02
5.49686661E+07	 7.43935953E-03	-6.00671652E-02
5.49808741E+07	 6.74142943E-03	-5.96526254E-02
5.49930821E+07	 6.04100183E-03	-5.92480987E-02
5.50052901E+07	 5.34250152E-03	-5.88410040E-02
5.50174982E+07	 4.64341944E-03	-5.84185433E-02
5.50297062E+07	 3.95262782E-03	-5.80098544E-02
5.50419142E+07	 3.26425286E-03	-5.75901443E-02
5.50541222E+07	 2.57919133E-03	-5.71716288E-02
5.50663303E+07	 1.89429829E-03	-5.67514910E-02
5.50785383E+07	 1.20874375E-03	-5.63346937E-02
5.50907463E+07	 5.33775632E-04	-5.59038792E-02
5.51029543E+07	-1.43500166E-04	-5.54698451E-02
5.51151624E+07	-8.26489671E-04	-5.50504354E-02
5.51273704E+07	-1.49748643E-03	-5.46133684E-02
