! COPPER MOUNTAIN TECHNOLOGIES, PLANAR TR1300/1, 00071119, 20.2.2/1.0
! Date: 1/7/2024 7:25:33 PM
! Data: Format [Calibration Info]
! Freq          	S11: Re/Im F1                  
# HZ S RI R 50
5.00000000E+07	 4.87417487E-01	-6.79198693E-01
5.00122080E+07	 4.83034400E-01	-6.82303661E-01
5.00244160E+07	 4.78618007E-01	-6.85394196E-01
5.00366241E+07	 4.74186421E-01	-6.88455311E-01
5.00488321E+07	 4.69742836E-01	-6.91489781E-01
5.00610401E+07	 4.65271278E-01	-6.94520342E-01
5.00732481E+07	 4.60788083E-01	-6.97481586E-01
5.00854562E+07	 4.56286429E-01	-7.00414369E-01
5.00976642E+07	 4.51762795E-01	-7.03347888E-01
5.01098722E+07	 4.47214012E-01	-7.06210985E-01
5.01220802E+07	 4.42630267E-01	-7.09035711E-01
5.01342883E+07	 4.38094524E-01	-7.11922118E-01
5.01464963E+07	 4.33486025E-01	-7.14728638E-01
5.01587043E+07	 4.28870805E-01	-7.17483249E-01
5.01709123E+07	 4.24239797E-01	-7.20229348E-01
5.01831204E+07	 4.19592664E-01	-7.22938351E-01
5.01953284E+07	 4.14902148E-01	-7.25610403E-01
5.02075364E+07	 4.10216227E-01	-7.28218452E-01
5.02197444E+07	 4.05566711E-01	-7.30870498E-01
5.02319525E+07	 4.00812673E-01	-7.33469030E-01
5.02441605E+07	 3.96083551E-01	-7.36010733E-01
5.02563685E+07	 3.91338036E-01	-7.38542046E-01
5.02685765E+07	 3.86534494E-01	-7.40985268E-01
5.02807846E+07	 3.81784712E-01	-7.43498646E-01
5.02929926E+07	 3.76992259E-01	-7.45933632E-01
5.03052006E+07	 3.72193600E-01	-7.48320253E-01
5.03174086E+07	 3.67356699E-01	-7.50681828E-01
5.03296167E+07	 3.62508562E-01	-7.53035748E-01
5.03418247E+07	 3.57661380E-01	-7.55338881E-01
5.03540327E+07	 3.52790398E-01	-7.57612290E-01
5.03662407E+07	 3.47904075E-01	-7.59852693E-01
5.03784488E+07	 3.43010182E-01	-7.62062240E-01
5.03906568E+07	 3.38059362E-01	-7.64183286E-01
5.04028648E+07	 3.33159553E-01	-7.66381302E-01
5.04150728E+07	 3.28229834E-01	-7.68516293E-01
5.04272809E+07	 3.23262804E-01	-7.70589728E-01
5.04394889E+07	 3.18276130E-01	-7.72589068E-01
5.04516969E+07	 3.13318027E-01	-7.74668241E-01
5.04639049E+07	 3.08330744E-01	-7.76618984E-01
5.04761130E+07	 3.03310807E-01	-7.78583442E-01
5.04883210E+07	 2.98270067E-01	-7.80481401E-01
5.05005290E+07	 2.93279051E-01	-7.82369809E-01
5.05127370E+07	 2.88228374E-01	-7.84237156E-01
5.05249451E+07	 2.83174410E-01	-7.86044949E-01
5.05371531E+07	 2.78113426E-01	-7.87850600E-01
5.05493611E+07	 2.73044237E-01	-7.89594719E-01
5.05615691E+07	 2.67949718E-01	-7.91315944E-01
5.05737772E+07	 2.62860277E-01	-7.92983997E-01
5.05859852E+07	 2.57760899E-01	-7.94649005E-01
5.05981932E+07	 2.52651245E-01	-7.96266516E-01
5.06104012E+07	 2.47518112E-01	-7.97881607E-01
5.06226093E+07	 2.42388076E-01	-7.99418157E-01
5.06348173E+07	 2.37224349E-01	-8.00933651E-01
5.06470253E+07	 2.32081346E-01	-8.02421163E-01
5.06592333E+07	 2.26921623E-01	-8.03890686E-01
5.06714414E+07	 2.21746519E-01	-8.05307455E-01
5.06836494E+07	 2.16568359E-01	-8.06701645E-01
5.06958574E+07	 2.11373362E-01	-8.08033378E-01
5.07080654E+07	 2.06177550E-01	-8.09360333E-01
5.07202735E+07	 2.00976933E-01	-8.10656922E-01
5.07324815E+07	 1.95740420E-01	-8.11903001E-01
5.07446895E+07	 1.90520195E-01	-8.13110471E-01
5.07568975E+07	 1.85309437E-01	-8.14283623E-01
5.07691056E+07	 1.80085176E-01	-8.15461297E-01
5.07813136E+07	 1.74830900E-01	-8.16567053E-01
5.07935216E+07	 1.69588501E-01	-8.17638571E-01
5.08057296E+07	 1.64328851E-01	-8.18686534E-01
5.08179377E+07	 1.59068830E-01	-8.19694005E-01
5.08301457E+07	 1.53805932E-01	-8.20671888E-01
5.08423537E+07	 1.48523814E-01	-8.21628938E-01
5.08545617E+07	 1.43253561E-01	-8.22546767E-01
5.08667698E+07	 1.37980098E-01	-8.23414251E-01
5.08789778E+07	 1.32707759E-01	-8.24257518E-01
5.08911858E+07	 1.27403623E-01	-8.25069936E-01
5.09033938E+07	 1.22113959E-01	-8.25836670E-01
5.09156019E+07	 1.16798817E-01	-8.26583320E-01
5.09278099E+07	 1.11485011E-01	-8.27285396E-01
5.09400179E+07	 1.06196300E-01	-8.27962179E-01
5.09522259E+07	 1.00891653E-01	-8.28586017E-01
5.09644340E+07	 9.55561657E-02	-8.29197830E-01
5.09766420E+07	 9.02419619E-02	-8.29756100E-01
5.09888500E+07	 8.49170178E-02	-8.30285993E-01
5.10010580E+07	 7.96101957E-02	-8.30786931E-01
5.10132661E+07	 7.42795185E-02	-8.31252037E-01
5.10254741E+07	 6.89441818E-02	-8.31690699E-01
5.10376821E+07	 6.36267999E-02	-8.32085582E-01
5.10498901E+07	 5.82836549E-02	-8.32449377E-01
5.10620982E+07	 5.29618494E-02	-8.32763002E-01
5.10743062E+07	 4.76213308E-02	-8.33047409E-01
5.10865142E+07	 4.22953249E-02	-8.33297399E-01
5.10987222E+07	 3.69497647E-02	-8.33537752E-01
5.11109303E+07	 3.16242986E-02	-8.33708386E-01
5.11231383E+07	 2.62847181E-02	-8.33874835E-01
5.11353463E+07	 2.09491566E-02	-8.33984578E-01
5.11475543E+07	 1.56090926E-02	-8.34085760E-01
5.11597624E+07	 1.02699999E-02	-8.34129297E-01
5.11719704E+07	 4.93502570E-03	-8.34138577E-01
5.11841784E+07	-4.08844988E-04	-8.34138298E-01
5.11963864E+07	-5.74273585E-03	-8.34062322E-01
5.12085944E+07	-1.10777108E-02	-8.33988519E-01
5.12208025E+07	-1.63935417E-02	-8.33860519E-01
5.12330105E+07	-2.17232259E-02	-8.33703229E-01
5.12452185E+07	-2.70667885E-02	-8.33513605E-01
5.12574265E+07	-3.23848348E-02	-8.33300657E-01
5.12696346E+07	-3.77122796E-02	-8.33030681E-01
5.12818426E+07	-4.30380740E-02	-8.32731748E-01
5.12940506E+07	-4.83580888E-02	-8.32408410E-01
5.13062586E+07	-5.36748957E-02	-8.32042668E-01
5.13184667E+07	-5.89784400E-02	-8.31649802E-01
5.13306747E+07	-6.42884071E-02	-8.31223495E-01
5.13428827E+07	-6.96001276E-02	-8.30756455E-01
5.13550907E+07	-7.48885252E-02	-8.30255856E-01
5.13672988E+07	-8.01971936E-02	-8.29715514E-01
5.13795068E+07	-8.54951006E-02	-8.29157529E-01
5.13917148E+07	-9.07723324E-02	-8.28549485E-01
5.14039228E+07	-9.60545715E-02	-8.27925639E-01
5.14161309E+07	-1.01346207E-01	-8.27236054E-01
5.14283389E+07	-1.06611208E-01	-8.26542239E-01
5.14405469E+07	-1.11883029E-01	-8.25805233E-01
5.14527549E+07	-1.17150043E-01	-8.25036725E-01
5.14649630E+07	-1.22391112E-01	-8.24241602E-01
5.14771710E+07	-1.27651088E-01	-8.23391485E-01
5.14893790E+07	-1.32894660E-01	-8.22518962E-01
5.15015870E+07	-1.38131574E-01	-8.21618963E-01
5.15137951E+07	-1.43368911E-01	-8.20674458E-01
5.15260031E+07	-1.48589302E-01	-8.19712136E-01
5.15382111E+07	-1.53822903E-01	-8.18707798E-01
5.15504191E+07	-1.59020755E-01	-8.17671711E-01
5.15626272E+07	-1.64208257E-01	-8.16596436E-01
5.15748352E+07	-1.69406559E-01	-8.15480301E-01
5.15870432E+07	-1.74589911E-01	-8.14361204E-01
5.15992512E+07	-1.79780209E-01	-8.13192129E-01
5.16114593E+07	-1.84949807E-01	-8.11989981E-01
5.16236673E+07	-1.90120288E-01	-8.10736266E-01
5.16358753E+07	-1.95277400E-01	-8.09470467E-01
5.16480833E+07	-2.00400904E-01	-8.08185796E-01
5.16602914E+07	-2.05535655E-01	-8.06823299E-01
5.16724994E+07	-2.10668887E-01	-8.05439051E-01
5.16847074E+07	-2.15791659E-01	-8.04058947E-01
5.16969154E+07	-2.20888792E-01	-8.02620465E-01
5.17091235E+07	-2.25982556E-01	-8.01146003E-01
5.17213315E+07	-2.31073448E-01	-7.99643765E-01
5.17335395E+07	-2.36135222E-01	-7.98135269E-01
5.17457475E+07	-2.41215485E-01	-7.96565812E-01
5.17579556E+07	-2.46253928E-01	-7.94964879E-01
5.17701636E+07	-2.51298976E-01	-7.93344694E-01
5.17823716E+07	-2.56324002E-01	-7.91690058E-01
5.17945796E+07	-2.61330990E-01	-7.89988285E-01
5.18067877E+07	-2.66346695E-01	-7.88258569E-01
5.18189957E+07	-2.71329977E-01	-7.86519040E-01
5.18312037E+07	-2.76328438E-01	-7.84734442E-01
5.18434117E+07	-2.81291579E-01	-7.82908781E-01
5.18556198E+07	-2.86256365E-01	-7.81048343E-01
5.18678278E+07	-2.91193868E-01	-7.79181753E-01
5.18800358E+07	-2.96150681E-01	-7.77272455E-01
5.18922438E+07	-3.01044775E-01	-7.75320226E-01
5.19044519E+07	-3.05958694E-01	-7.73347534E-01
5.19166599E+07	-3.10848838E-01	-7.71352443E-01
5.19288679E+07	-3.15716149E-01	-7.69315774E-01
5.19410759E+07	-3.20585279E-01	-7.67245380E-01
5.19532840E+07	-3.25438815E-01	-7.65142817E-01
5.19654920E+07	-3.30281235E-01	-7.63002833E-01
5.19777000E+07	-3.35093450E-01	-7.60867962E-01
5.19899080E+07	-3.39894463E-01	-7.58661469E-01
5.20021161E+07	-3.44698613E-01	-7.56462937E-01
5.20143241E+07	-3.49463345E-01	-7.54180822E-01
5.20265321E+07	-3.54233553E-01	-7.51918703E-01
5.20387401E+07	-3.58960478E-01	-7.49596770E-01
5.20509482E+07	-3.63701515E-01	-7.47270031E-01
5.20631562E+07	-3.68418226E-01	-7.44881049E-01
5.20753642E+07	-3.73126973E-01	-7.42477098E-01
5.20875722E+07	-3.77794878E-01	-7.40061466E-01
5.20997803E+07	-3.82464114E-01	-7.37598380E-01
5.21119883E+07	-3.87115355E-01	-7.35095388E-01
5.21241963E+07	-3.91739252E-01	-7.32601171E-01
5.21364043E+07	-3.96369718E-01	-7.30053268E-01
5.21486124E+07	-4.00955791E-01	-7.27475471E-01
5.21608204E+07	-4.05541610E-01	-7.24857391E-01
5.21730284E+07	-4.10114678E-01	-7.22225859E-01
5.21852364E+07	-4.14639987E-01	-7.19562012E-01
5.21974445E+07	-4.19180421E-01	-7.16875753E-01
5.22096525E+07	-4.23675127E-01	-7.14147514E-01
5.22218605E+07	-4.28173373E-01	-7.11405338E-01
5.22340685E+07	-4.32644119E-01	-7.08633761E-01
5.22462766E+07	-4.37102251E-01	-7.05827114E-01
5.22584846E+07	-4.41534117E-01	-7.02996491E-01
5.22706926E+07	-4.45955906E-01	-7.00138276E-01
5.22829006E+07	-4.50358142E-01	-6.97240623E-01
5.22951087E+07	-4.54715634E-01	-6.94337968E-01
5.23073167E+07	-4.59083217E-01	-6.91400611E-01
5.23195247E+07	-4.63417294E-01	-6.88414361E-01
5.23317327E+07	-4.67744222E-01	-6.85420593E-01
5.23439408E+07	-4.72051709E-01	-6.82409201E-01
5.23561488E+07	-4.76321033E-01	-6.79355352E-01
5.23683568E+07	-4.80572592E-01	-6.76264595E-01
5.23805648E+07	-4.84812813E-01	-6.73181000E-01
5.23927728E+07	-4.89018514E-01	-6.70039504E-01
5.24049809E+07	-4.93222097E-01	-6.66895298E-01
5.24171889E+07	-4.97403671E-01	-6.63704624E-01
5.24293969E+07	-5.01555037E-01	-6.60507977E-01
5.24416049E+07	-5.05683923E-01	-6.57268823E-01
5.24538130E+07	-5.09815362E-01	-6.53992663E-01
5.24660210E+07	-5.13899686E-01	-6.50718291E-01
5.24782290E+07	-5.17969721E-01	-6.47424609E-01
5.24904370E+07	-5.22052748E-01	-6.44088699E-01
5.25026451E+07	-5.26036662E-01	-6.40728458E-01
5.25148531E+07	-5.30029530E-01	-6.37344043E-01
5.25270611E+07	-5.34026382E-01	-6.33923879E-01
5.25392691E+07	-5.37968056E-01	-6.30487927E-01
5.25514772E+07	-5.41918843E-01	-6.27039411E-01
5.25636852E+07	-5.45810911E-01	-6.23557506E-01
5.25758932E+07	-5.49723420E-01	-6.20043404E-01
5.25881012E+07	-5.53582372E-01	-6.16526249E-01
5.26003093E+07	-5.57431717E-01	-6.12969738E-01
5.26125173E+07	-5.61250717E-01	-6.09408160E-01
5.26247253E+07	-5.65051546E-01	-6.05791620E-01
5.26369333E+07	-5.68813151E-01	-6.02166727E-01
5.26491414E+07	-5.72575466E-01	-5.98525537E-01
5.26613494E+07	-5.76283819E-01	-5.94845206E-01
5.26735574E+07	-5.79995600E-01	-5.91152983E-01
5.26857654E+07	-5.83663986E-01	-5.87445904E-01
5.26979735E+07	-5.87314757E-01	-5.83701439E-01
5.27101815E+07	-5.90938282E-01	-5.79931652E-01
5.27223895E+07	-5.94544107E-01	-5.76133573E-01
5.27345975E+07	-5.98139478E-01	-5.72340505E-01
5.27468056E+07	-6.01685584E-01	-5.68535201E-01
5.27590136E+07	-6.05220848E-01	-5.64663246E-01
5.27712216E+07	-6.08715328E-01	-5.60798689E-01
5.27834296E+07	-6.12210129E-01	-5.56902556E-01
5.27956377E+07	-6.15657600E-01	-5.52988963E-01
5.28078457E+07	-6.19071565E-01	-5.49037200E-01
5.28200537E+07	-6.22495855E-01	-5.45091162E-01
5.28322617E+07	-6.25860414E-01	-5.41123719E-01
5.28444698E+07	-6.29215976E-01	-5.37119093E-01
5.28566778E+07	-6.32531397E-01	-5.33112332E-01
5.28688858E+07	-6.35833228E-01	-5.29070700E-01
5.28810938E+07	-6.39119324E-01	-5.25023359E-01
5.28933019E+07	-6.42362711E-01	-5.20946895E-01
5.29055099E+07	-6.45572214E-01	-5.16845622E-01
5.29177179E+07	-6.48758789E-01	-5.12721491E-01
5.29299259E+07	-6.51935921E-01	-5.08588638E-01
5.29421340E+07	-6.55085675E-01	-5.04444692E-01
5.29543420E+07	-6.58193707E-01	-5.00255933E-01
5.29665500E+07	-6.61279965E-01	-4.96074589E-01
5.29787580E+07	-6.64335713E-01	-4.91853718E-01
5.29909661E+07	-6.67361812E-01	-4.87632864E-01
5.30031741E+07	-6.70371770E-01	-4.83385171E-01
5.30153821E+07	-6.73356531E-01	-4.79105117E-01
5.30275901E+07	-6.76304228E-01	-4.74840841E-01
5.30397982E+07	-6.79224123E-01	-4.70542132E-01
5.30520062E+07	-6.82108153E-01	-4.66206692E-01
5.30642142E+07	-6.84991180E-01	-4.61881266E-01
5.30764222E+07	-6.87827085E-01	-4.57542655E-01
5.30886303E+07	-6.90646183E-01	-4.53155335E-01
5.31008383E+07	-6.93412902E-01	-4.48771263E-01
5.31130463E+07	-6.96159737E-01	-4.44359263E-01
5.31252543E+07	-6.98900423E-01	-4.39954940E-01
5.31374624E+07	-7.01587552E-01	-4.35514096E-01
5.31496704E+07	-7.04267906E-01	-4.31057310E-01
5.31618784E+07	-7.06909351E-01	-4.26591868E-01
5.31740864E+07	-7.09514829E-01	-4.22103680E-01
5.31862945E+07	-7.12104993E-01	-4.17614255E-01
5.31985025E+07	-7.14659080E-01	-4.13092576E-01
5.32107105E+07	-7.17175280E-01	-4.08563663E-01
5.32229185E+07	-7.19684203E-01	-4.04018979E-01
5.32351266E+07	-7.22153129E-01	-3.99449641E-01
5.32473346E+07	-7.24586346E-01	-3.94888741E-01
5.32595426E+07	-7.26994691E-01	-3.90302523E-01
5.32717506E+07	-7.29389699E-01	-3.85693523E-01
5.32839587E+07	-7.31721918E-01	-3.81074778E-01
5.32961667E+07	-7.34045009E-01	-3.76441704E-01
5.33083747E+07	-7.36331863E-01	-3.71789983E-01
5.33205827E+07	-7.38597147E-01	-3.67148376E-01
5.33327908E+07	-7.40844338E-01	-3.62453676E-01
5.33449988E+07	-7.43042662E-01	-3.57784192E-01
5.33572068E+07	-7.45204390E-01	-3.53082535E-01
5.33694148E+07	-7.47348613E-01	-3.48374903E-01
5.33816229E+07	-7.49468656E-01	-3.43664507E-01
5.33938309E+07	-7.51543295E-01	-3.38910319E-01
5.34060389E+07	-7.53592957E-01	-3.34154311E-01
5.34182469E+07	-7.55606181E-01	-3.29409348E-01
5.34304550E+07	-7.57619392E-01	-3.24632043E-01
5.34426630E+07	-7.59574072E-01	-3.19862519E-01
5.34548710E+07	-7.61498367E-01	-3.15056957E-01
5.34670790E+07	-7.63399559E-01	-3.10252101E-01
5.34792871E+07	-7.65275045E-01	-3.05439159E-01
5.34914951E+07	-7.67117868E-01	-3.00607623E-01
5.35037031E+07	-7.68928349E-01	-2.95773322E-01
5.35159111E+07	-7.70701517E-01	-2.90927526E-01
5.35281192E+07	-7.72450827E-01	-2.86065787E-01
5.35403272E+07	-7.74158431E-01	-2.81208173E-01
5.35525352E+07	-7.75849668E-01	-2.76332012E-01
5.35647432E+07	-7.77508889E-01	-2.71432067E-01
5.35769512E+07	-7.79139636E-01	-2.66524419E-01
5.35891593E+07	-7.80723112E-01	-2.61632287E-01
5.36013673E+07	-7.82285639E-01	-2.56707946E-01
5.36135753E+07	-7.83814211E-01	-2.51780291E-01
5.36257833E+07	-7.85321577E-01	-2.46845755E-01
5.36379914E+07	-7.86787011E-01	-2.41906981E-01
5.36501994E+07	-7.88227555E-01	-2.36953962E-01
5.36624074E+07	-7.89629349E-01	-2.31987480E-01
5.36746154E+07	-7.91010665E-01	-2.27027138E-01
5.36868235E+07	-7.92360084E-01	-2.22057160E-01
5.36990315E+07	-7.93648068E-01	-2.17079049E-01
5.37112395E+07	-7.94941284E-01	-2.12082764E-01
5.37234475E+07	-7.96198060E-01	-2.07080836E-01
5.37356556E+07	-7.97411692E-01	-2.02084178E-01
5.37478636E+07	-7.98592668E-01	-1.97062907E-01
5.37600716E+07	-7.99754911E-01	-1.92045134E-01
5.37722796E+07	-8.00880440E-01	-1.87030603E-01
5.37844877E+07	-8.01962881E-01	-1.81996404E-01
5.37966957E+07	-8.03013947E-01	-1.76958098E-01
5.38089037E+07	-8.04047282E-01	-1.71918808E-01
5.38211117E+07	-8.05055615E-01	-1.66881620E-01
5.38333198E+07	-8.06011613E-01	-1.61832102E-01
5.38455278E+07	-8.06946316E-01	-1.56775769E-01
5.38577358E+07	-8.07855478E-01	-1.51718572E-01
5.38699438E+07	-8.08723640E-01	-1.46643058E-01
5.38821519E+07	-8.09556271E-01	-1.41580453E-01
5.38943599E+07	-8.10363347E-01	-1.36488474E-01
5.39065679E+07	-8.11143031E-01	-1.31418459E-01
5.39187759E+07	-8.11888581E-01	-1.26335123E-01
5.39309840E+07	-8.12593809E-01	-1.21244680E-01
5.39431920E+07	-8.13283205E-01	-1.16163019E-01
5.39554000E+07	-8.13917652E-01	-1.11062229E-01
5.39676080E+07	-8.14529044E-01	-1.05969708E-01
5.39798161E+07	-8.15127121E-01	-1.00876062E-01
5.39920241E+07	-8.15659911E-01	-9.57706386E-02
5.40042321E+07	-8.16191805E-01	-9.06596393E-02
5.40164401E+07	-8.16693321E-01	-8.55550802E-02
5.40286482E+07	-8.17114011E-01	-8.04418851E-02
5.40408562E+07	-8.17540727E-01	-7.53395593E-02
5.40530642E+07	-8.17935652E-01	-7.02089907E-02
5.40652722E+07	-8.18282910E-01	-6.50947007E-02
5.40774803E+07	-8.18632593E-01	-5.99781008E-02
5.40896883E+07	-8.18920653E-01	-5.48632038E-02
5.41018963E+07	-8.19182657E-01	-4.97351369E-02
5.41141043E+07	-8.19409008E-01	-4.46147109E-02
5.41263124E+07	-8.19600303E-01	-3.94922047E-02
5.41385204E+07	-8.19789150E-01	-3.43799015E-02
5.41507284E+07	-8.19906583E-01	-2.92446399E-02
5.41629364E+07	-8.19999812E-01	-2.41239088E-02
5.41751445E+07	-8.20085490E-01	-1.90106677E-02
5.41873525E+07	-8.20116302E-01	-1.38814504E-02
5.41995605E+07	-8.20131659E-01	-8.76125770E-03
5.42117685E+07	-8.20100704E-01	-3.64598220E-03
5.42239766E+07	-8.20043335E-01	 1.46729669E-03
5.42361846E+07	-8.19958464E-01	 6.58424854E-03
5.42483926E+07	-8.19839387E-01	 1.17000713E-02
5.42606006E+07	-8.19681894E-01	 1.68175253E-02
5.42728087E+07	-8.19490322E-01	 2.19349413E-02
5.42850167E+07	-8.19280637E-01	 2.70406638E-02
5.42972247E+07	-8.19025865E-01	 3.21434782E-02
5.43094327E+07	-8.18739279E-01	 3.72622455E-02
5.43216408E+07	-8.18439809E-01	 4.23631798E-02
5.43338488E+07	-8.18099256E-01	 4.74689883E-02
5.43460568E+07	-8.17710946E-01	 5.25596932E-02
5.43582648E+07	-8.17311195E-01	 5.76602725E-02
5.43704729E+07	-8.16870804E-01	 6.27537446E-02
5.43826809E+07	-8.16415652E-01	 6.78417139E-02
5.43948889E+07	-8.15910224E-01	 7.29304651E-02
5.44070969E+07	-8.15368703E-01	 7.80005902E-02
5.44193050E+07	-8.14794417E-01	 8.30748655E-02
5.44315130E+07	-8.14213910E-01	 8.81582020E-02
5.44437210E+07	-8.13587278E-01	 9.32221141E-02
5.44559290E+07	-8.12939194E-01	 9.82855378E-02
5.44681371E+07	-8.12243283E-01	 1.03346973E-01
5.44803451E+07	-8.11524143E-01	 1.08396854E-01
5.44925531E+07	-8.10755734E-01	 1.13451860E-01
5.45047611E+07	-8.09982902E-01	 1.18500721E-01
5.45169692E+07	-8.09162579E-01	 1.23529961E-01
5.45291772E+07	-8.08311615E-01	 1.28547324E-01
5.45413852E+07	-8.07444819E-01	 1.33596292E-01
5.45535932E+07	-8.06530067E-01	 1.38596670E-01
5.45658013E+07	-8.05604938E-01	 1.43609101E-01
5.45780093E+07	-8.04624226E-01	 1.48629886E-01
5.45902173E+07	-8.03617086E-01	 1.53619081E-01
5.46024253E+07	-8.02589764E-01	 1.58624625E-01
5.46146334E+07	-8.01525948E-01	 1.63601811E-01
5.46268414E+07	-8.00432356E-01	 1.68582648E-01
5.46390494E+07	-7.99319214E-01	 1.73553992E-01
5.46512574E+07	-7.98155483E-01	 1.78519650E-01
5.46634655E+07	-7.96967834E-01	 1.83472325E-01
5.46756735E+07	-7.95739703E-01	 1.88416078E-01
5.46878815E+07	-7.94515575E-01	 1.93369558E-01
5.47000895E+07	-7.93222823E-01	 1.98302303E-01
5.47122976E+07	-7.91923091E-01	 2.03226342E-01
5.47245056E+07	-7.90583639E-01	 2.08129118E-01
5.47367136E+07	-7.89205322E-01	 2.13037221E-01
5.47489216E+07	-7.87822094E-01	 2.17922433E-01
5.47611296E+07	-7.86385869E-01	 2.22823871E-01
5.47733377E+07	-7.84917474E-01	 2.27683622E-01
5.47855457E+07	-7.83428248E-01	 2.32566236E-01
5.47977537E+07	-7.81912529E-01	 2.37415955E-01
5.48099617E+07	-7.80351053E-01	 2.42272595E-01
5.48221698E+07	-7.78792552E-01	 2.47108963E-01
5.48343778E+07	-7.77180776E-01	 2.51938655E-01
5.48465858E+07	-7.75543490E-01	 2.56738726E-01
5.48587938E+07	-7.73876528E-01	 2.61547660E-01
5.48710019E+07	-7.72182786E-01	 2.66351658E-01
5.48832099E+07	-7.70449206E-01	 2.71133577E-01
5.48954179E+07	-7.68691220E-01	 2.75908064E-01
5.49076259E+07	-7.66914278E-01	 2.80664216E-01
5.49198340E+07	-7.65101816E-01	 2.85408616E-01
5.49320420E+07	-7.63255808E-01	 2.90165372E-01
5.49442500E+07	-7.61367696E-01	 2.94881784E-01
5.49564580E+07	-7.59478390E-01	 2.99595761E-01
5.49686661E+07	-7.57525990E-01	 3.04280205E-01
5.49808741E+07	-7.55580173E-01	 3.08973332E-01
5.49930821E+07	-7.53588239E-01	 3.13656719E-01
5.50052901E+07	-7.51571836E-01	 3.18328568E-01
5.50174982E+07	-7.49527801E-01	 3.22980303E-01
5.50297062E+07	-7.47455730E-01	 3.27618171E-01
5.50419142E+07	-7.45361146E-01	 3.32215020E-01
5.50541222E+07	-7.43219586E-01	 3.36845738E-01
5.50663303E+07	-7.41052567E-01	 3.41439283E-01
5.50785383E+07	-7.38871830E-01	 3.46036391E-01
5.50907463E+07	-7.36653472E-01	 3.50603273E-01
5.51029543E+07	-7.34378469E-01	 3.55134245E-01
5.51151624E+07	-7.32139898E-01	 3.59698355E-01
5.51273704E+07	-7.29831027E-01	 3.64220535E-01
