! COPPER MOUNTAIN TECHNOLOGIES, PLANAR TR1300/1, 00071119, 20.2.2/1.0
! Date: 1/7/2024 7:16:14 PM
! Data: Format [Calibration Info]
! Freq          	S11: Re/Im F1                  
# HZ S RI R 50
5.00000000E+07	-3.06870151E-01	 4.44611904E-01
5.00122080E+07	-3.04064887E-01	 4.46504959E-01
5.00244160E+07	-3.01239215E-01	 4.48375834E-01
5.00366241E+07	-2.98402670E-01	 4.50220072E-01
5.00488321E+07	-2.95552194E-01	 4.52057325E-01
5.00610401E+07	-2.92697729E-01	 4.53902207E-01
5.00732481E+07	-2.89815402E-01	 4.55684540E-01
5.00854562E+07	-2.86936706E-01	 4.57452709E-01
5.00976642E+07	-2.84047674E-01	 4.59226445E-01
5.01098722E+07	-2.81146109E-01	 4.60961619E-01
5.01220802E+07	-2.78217639E-01	 4.62647732E-01
5.01342883E+07	-2.75306165E-01	 4.64402250E-01
5.01464963E+07	-2.72371671E-01	 4.66097526E-01
5.01587043E+07	-2.69431501E-01	 4.67760967E-01
5.01709123E+07	-2.66471295E-01	 4.69415263E-01
5.01831204E+07	-2.63505532E-01	 4.71052847E-01
5.01953284E+07	-2.60526395E-01	 4.72667035E-01
5.02075364E+07	-2.57517989E-01	 4.74241860E-01
5.02197444E+07	-2.54560745E-01	 4.75840030E-01
5.02319525E+07	-2.51540318E-01	 4.77408458E-01
5.02441605E+07	-2.48511159E-01	 4.78941525E-01
5.02563685E+07	-2.45486646E-01	 4.80466772E-01
5.02685765E+07	-2.42436089E-01	 4.81945698E-01
5.02807846E+07	-2.39413510E-01	 4.83454640E-01
5.02929926E+07	-2.36360160E-01	 4.84922674E-01
5.03052006E+07	-2.33298122E-01	 4.86369432E-01
5.03174086E+07	-2.30217743E-01	 4.87795144E-01
5.03296167E+07	-2.27135426E-01	 4.89202943E-01
5.03418247E+07	-2.24046940E-01	 4.90589348E-01
5.03540327E+07	-2.20943735E-01	 4.91967951E-01
5.03662407E+07	-2.17848380E-01	 4.93315329E-01
5.03784488E+07	-2.14730394E-01	 4.94635430E-01
5.03906568E+07	-2.11587813E-01	 4.95918502E-01
5.04028648E+07	-2.08477814E-01	 4.97240895E-01
5.04150728E+07	-2.05324643E-01	 4.98514330E-01
5.04272809E+07	-2.02183876E-01	 4.99773729E-01
5.04394889E+07	-1.99018647E-01	 5.00969022E-01
5.04516969E+07	-1.95864094E-01	 5.02203459E-01
5.04639049E+07	-1.92686837E-01	 5.03393013E-01
5.04761130E+07	-1.89505775E-01	 5.04570638E-01
5.04883210E+07	-1.86311959E-01	 5.05723268E-01
5.05005290E+07	-1.83127485E-01	 5.06857752E-01
5.05127370E+07	-1.79923756E-01	 5.07977713E-01
5.05249451E+07	-1.76722278E-01	 5.09060043E-01
5.05371531E+07	-1.73514506E-01	 5.10142166E-01
5.05493611E+07	-1.70288083E-01	 5.11193620E-01
5.05615691E+07	-1.67065076E-01	 5.12226869E-01
5.05737772E+07	-1.63821404E-01	 5.13231415E-01
5.05859852E+07	-1.60592565E-01	 5.14217676E-01
5.05981932E+07	-1.57343167E-01	 5.15193231E-01
5.06104012E+07	-1.54091487E-01	 5.16150641E-01
5.06226093E+07	-1.50822964E-01	 5.17084186E-01
5.06348173E+07	-1.47570222E-01	 5.17990568E-01
5.06470253E+07	-1.44289282E-01	 5.18880919E-01
5.06592333E+07	-1.41012756E-01	 5.19746883E-01
5.06714414E+07	-1.37734326E-01	 5.20595997E-01
5.06836494E+07	-1.34443929E-01	 5.21432016E-01
5.06958574E+07	-1.31162467E-01	 5.22221817E-01
5.07080654E+07	-1.27861126E-01	 5.23031145E-01
5.07202735E+07	-1.24560227E-01	 5.23788973E-01
5.07324815E+07	-1.21242396E-01	 5.24548317E-01
5.07446895E+07	-1.17941202E-01	 5.25255095E-01
5.07568975E+07	-1.14624678E-01	 5.25955824E-01
5.07691056E+07	-1.11302382E-01	 5.26653039E-01
5.07813136E+07	-1.07985146E-01	 5.27309082E-01
5.07935216E+07	-1.04654055E-01	 5.27958349E-01
5.08057296E+07	-1.01309296E-01	 5.28573446E-01
5.08179377E+07	-9.79772705E-02	 5.29172779E-01
5.08301457E+07	-9.46447937E-02	 5.29748811E-01
5.08423537E+07	-9.12890475E-02	 5.30315642E-01
5.08545617E+07	-8.79396878E-02	 5.30844503E-01
5.08667698E+07	-8.45882722E-02	 5.31357858E-01
5.08789778E+07	-8.12403088E-02	 5.31857061E-01
5.08911858E+07	-7.78808095E-02	 5.32333659E-01
5.09033938E+07	-7.45218610E-02	 5.32784076E-01
5.09156019E+07	-7.11485301E-02	 5.33213010E-01
5.09278099E+07	-6.77973174E-02	 5.33622746E-01
5.09400179E+07	-6.44200968E-02	 5.34025291E-01
5.09522259E+07	-6.10510553E-02	 5.34383282E-01
5.09644340E+07	-5.76680942E-02	 5.34730879E-01
5.09766420E+07	-5.42940306E-02	 5.35058551E-01
5.09888500E+07	-5.09297623E-02	 5.35365238E-01
5.10010580E+07	-4.75326460E-02	 5.35649290E-01
5.10132661E+07	-4.41639710E-02	 5.35908075E-01
5.10254741E+07	-4.07765886E-02	 5.36150193E-01
5.10376821E+07	-3.73926920E-02	 5.36368223E-01
5.10498901E+07	-3.39939004E-02	 5.36569056E-01
5.10620982E+07	-3.06189573E-02	 5.36757581E-01
5.10743062E+07	-2.72143598E-02	 5.36911243E-01
5.10865142E+07	-2.38336701E-02	 5.37033132E-01
5.10987222E+07	-2.04282110E-02	 5.37149205E-01
5.11109303E+07	-1.70440844E-02	 5.37232059E-01
5.11231383E+07	-1.36562510E-02	 5.37319445E-01
5.11353463E+07	-1.02512162E-02	 5.37357512E-01
5.11475543E+07	-6.85936092E-03	 5.37391433E-01
5.11597624E+07	-3.46351471E-03	 5.37400765E-01
5.11719704E+07	-7.11005734E-05	 5.37389672E-01
5.11841784E+07	 3.33381063E-03	 5.37349871E-01
5.11963864E+07	 6.72003302E-03	 5.37293895E-01
5.12085944E+07	 1.01142856E-02	 5.37211885E-01
5.12208025E+07	 1.35088479E-02	 5.37111178E-01
5.12330105E+07	 1.69087131E-02	 5.36996102E-01
5.12452185E+07	 2.03010063E-02	 5.36851489E-01
5.12574265E+07	 2.36930476E-02	 5.36692537E-01
5.12696346E+07	 2.70823201E-02	 5.36506076E-01
5.12818426E+07	 3.04783877E-02	 5.36299191E-01
5.12940506E+07	 3.38608947E-02	 5.36070003E-01
5.13062586E+07	 3.72446902E-02	 5.35823884E-01
5.13184667E+07	 4.06298922E-02	 5.35555051E-01
5.13306747E+07	 4.40261480E-02	 5.35270557E-01
5.13428827E+07	 4.74017729E-02	 5.34951379E-01
5.13550907E+07	 5.07854268E-02	 5.34602275E-01
5.13672988E+07	 5.41665896E-02	 5.34255226E-01
5.13795068E+07	 5.75450382E-02	 5.33882563E-01
5.13917148E+07	 6.09114685E-02	 5.33479284E-01
5.14039228E+07	 6.42935102E-02	 5.33052788E-01
5.14161309E+07	 6.76524435E-02	 5.32623130E-01
5.14283389E+07	 7.10198401E-02	 5.32163807E-01
5.14405469E+07	 7.43928319E-02	 5.31673813E-01
5.14527549E+07	 7.77477983E-02	 5.31172523E-01
5.14649630E+07	 8.11084362E-02	 5.30647522E-01
5.14771710E+07	 8.44611087E-02	 5.30114379E-01
5.14893790E+07	 8.78137503E-02	 5.29533968E-01
5.15015870E+07	 9.11611884E-02	 5.28946689E-01
5.15137951E+07	 9.45060959E-02	 5.28329754E-01
5.15260031E+07	 9.78499820E-02	 5.27712647E-01
5.15382111E+07	 1.01187954E-01	 5.27056058E-01
5.15504191E+07	 1.04523462E-01	 5.26379326E-01
5.15626272E+07	 1.07839222E-01	 5.25694220E-01
5.15748352E+07	 1.11174278E-01	 5.24970044E-01
5.15870432E+07	 1.14497563E-01	 5.24245729E-01
5.15992512E+07	 1.17809530E-01	 5.23488959E-01
5.16114593E+07	 1.21114012E-01	 5.22707256E-01
5.16236673E+07	 1.24434684E-01	 5.21904361E-01
5.16358753E+07	 1.27729932E-01	 5.21086913E-01
5.16480833E+07	 1.31030609E-01	 5.20248733E-01
5.16602914E+07	 1.34324218E-01	 5.19380067E-01
5.16724994E+07	 1.37606903E-01	 5.18488900E-01
5.16847074E+07	 1.40896329E-01	 5.17602531E-01
5.16969154E+07	 1.44165038E-01	 5.16661971E-01
5.17091235E+07	 1.47431369E-01	 5.15732315E-01
5.17213315E+07	 1.50697346E-01	 5.14760850E-01
5.17335395E+07	 1.53957288E-01	 5.13781383E-01
5.17457475E+07	 1.57221067E-01	 5.12771412E-01
5.17579556E+07	 1.60454561E-01	 5.11744723E-01
5.17701636E+07	 1.63699508E-01	 5.10701648E-01
5.17823716E+07	 1.66934136E-01	 5.09630119E-01
5.17945796E+07	 1.70157215E-01	 5.08538127E-01
5.18067877E+07	 1.73369427E-01	 5.07435369E-01
5.18189957E+07	 1.76583407E-01	 5.06298180E-01
5.18312037E+07	 1.79793201E-01	 5.05151489E-01
5.18434117E+07	 1.82988478E-01	 5.03989064E-01
5.18556198E+07	 1.86187590E-01	 5.02793866E-01
5.18678278E+07	 1.89362210E-01	 5.01583321E-01
5.18800358E+07	 1.92556351E-01	 5.00355172E-01
5.18922438E+07	 1.95725089E-01	 4.99098628E-01
5.19044519E+07	 1.98888742E-01	 4.97833036E-01
5.19166599E+07	 2.02037989E-01	 4.96540817E-01
5.19288679E+07	 2.05183582E-01	 4.95227176E-01
5.19410759E+07	 2.08326741E-01	 4.93908308E-01
5.19532840E+07	 2.11440177E-01	 4.92558950E-01
5.19654920E+07	 2.14570859E-01	 4.91170554E-01
5.19777000E+07	 2.17672073E-01	 4.89797730E-01
5.19899080E+07	 2.20784756E-01	 4.88388016E-01
5.20021161E+07	 2.23880965E-01	 4.86956117E-01
5.20143241E+07	 2.26960555E-01	 4.85499685E-01
5.20265321E+07	 2.30046700E-01	 4.84033077E-01
5.20387401E+07	 2.33107250E-01	 4.82555971E-01
5.20509482E+07	 2.36169183E-01	 4.81048809E-01
5.20631562E+07	 2.39215662E-01	 4.79517048E-01
5.20753642E+07	 2.42259594E-01	 4.77964009E-01
5.20875722E+07	 2.45282855E-01	 4.76417038E-01
5.20997803E+07	 2.48308830E-01	 4.74820721E-01
5.21119883E+07	 2.51314668E-01	 4.73211247E-01
5.21241963E+07	 2.54316340E-01	 4.71600410E-01
5.21364043E+07	 2.57315176E-01	 4.69960041E-01
5.21486124E+07	 2.60284352E-01	 4.68296252E-01
5.21608204E+07	 2.63264477E-01	 4.66612445E-01
5.21730284E+07	 2.66210980E-01	 4.64917523E-01
5.21852364E+07	 2.69164680E-01	 4.63193811E-01
5.21974445E+07	 2.72111489E-01	 4.61467344E-01
5.22096525E+07	 2.75042288E-01	 4.59705685E-01
5.22218605E+07	 2.77945060E-01	 4.57929585E-01
5.22340685E+07	 2.80853347E-01	 4.56138656E-01
5.22462766E+07	 2.83756624E-01	 4.54322898E-01
5.22584846E+07	 2.86630870E-01	 4.52495724E-01
5.22706926E+07	 2.89509841E-01	 4.50647221E-01
5.22829006E+07	 2.92377127E-01	 4.48772279E-01
5.22951087E+07	 2.95208205E-01	 4.46898620E-01
5.23073167E+07	 2.98046203E-01	 4.45001109E-01
5.23195247E+07	 3.00871928E-01	 4.43069556E-01
5.23317327E+07	 3.03685879E-01	 4.41127970E-01
5.23439408E+07	 3.06488970E-01	 4.39185601E-01
5.23561488E+07	 3.09279560E-01	 4.37197924E-01
5.23683568E+07	 3.12037725E-01	 4.35211135E-01
5.23805648E+07	 3.14807883E-01	 4.33201742E-01
5.23927728E+07	 3.17561084E-01	 4.31168083E-01
5.24049809E+07	 3.20298811E-01	 4.29124230E-01
5.24171889E+07	 3.23040412E-01	 4.27066089E-01
5.24293969E+07	 3.25738022E-01	 4.24987985E-01
5.24416049E+07	 3.28429720E-01	 4.22887172E-01
5.24538130E+07	 3.31132769E-01	 4.20773406E-01
5.24660210E+07	 3.33801097E-01	 4.18647293E-01
5.24782290E+07	 3.36456762E-01	 4.16501118E-01
5.24904370E+07	 3.39118959E-01	 4.14344964E-01
5.25026451E+07	 3.41738587E-01	 4.12160250E-01
5.25148531E+07	 3.44351131E-01	 4.09950533E-01
5.25270611E+07	 3.46967587E-01	 4.07742604E-01
5.25392691E+07	 3.49554457E-01	 4.05502955E-01
5.25514772E+07	 3.52138407E-01	 4.03256603E-01
5.25636852E+07	 3.54692147E-01	 4.00991688E-01
5.25758932E+07	 3.57245459E-01	 3.98706261E-01
5.25881012E+07	 3.59775903E-01	 3.96408838E-01
5.26003093E+07	 3.62303398E-01	 3.94093041E-01
5.26125173E+07	 3.64803413E-01	 3.91764195E-01
5.26247253E+07	 3.67296100E-01	 3.89414268E-01
5.26369333E+07	 3.69774523E-01	 3.87048641E-01
5.26491414E+07	 3.72230742E-01	 3.84671057E-01
5.26613494E+07	 3.74674979E-01	 3.82287353E-01
5.26735574E+07	 3.77109499E-01	 3.79870462E-01
5.26857654E+07	 3.79526961E-01	 3.77434401E-01
5.26979735E+07	 3.81920322E-01	 3.75003091E-01
5.27101815E+07	 3.84320751E-01	 3.72543049E-01
5.27223895E+07	 3.86677095E-01	 3.70069184E-01
5.27345975E+07	 3.89037816E-01	 3.67583171E-01
5.27468056E+07	 3.91372654E-01	 3.65093585E-01
5.27590136E+07	 3.93704309E-01	 3.62568211E-01
5.27712216E+07	 3.96017548E-01	 3.60026377E-01
5.27834296E+07	 3.98292227E-01	 3.57480781E-01
5.27956377E+07	 4.00572197E-01	 3.54924872E-01
5.28078457E+07	 4.02828688E-01	 3.52346552E-01
5.28200537E+07	 4.05078486E-01	 3.49757514E-01
5.28322617E+07	 4.07299144E-01	 3.47139408E-01
5.28444698E+07	 4.09495356E-01	 3.44524937E-01
5.28566778E+07	 4.11700671E-01	 3.41900576E-01
5.28688858E+07	 4.13873905E-01	 3.39246958E-01
5.28810938E+07	 4.16045885E-01	 3.36581722E-01
5.28933019E+07	 4.18187204E-01	 3.33914175E-01
5.29055099E+07	 4.20303691E-01	 3.31222461E-01
5.29177179E+07	 4.22420833E-01	 3.28501794E-01
5.29299259E+07	 4.24508967E-01	 3.25795228E-01
5.29421340E+07	 4.26586598E-01	 3.23068164E-01
5.29543420E+07	 4.28644513E-01	 3.20318768E-01
5.29665500E+07	 4.30683048E-01	 3.17561963E-01
5.29787580E+07	 4.32708731E-01	 3.14785991E-01
5.29909661E+07	 4.34710451E-01	 3.12009927E-01
5.30031741E+07	 4.36698462E-01	 3.09224181E-01
5.30153821E+07	 4.38666087E-01	 3.06400211E-01
5.30275901E+07	 4.40626587E-01	 3.03582797E-01
5.30397982E+07	 4.42553841E-01	 3.00744458E-01
5.30520062E+07	 4.44468089E-01	 2.97898381E-01
5.30642142E+07	 4.46381450E-01	 2.95039878E-01
5.30764222E+07	 4.48253233E-01	 2.92177360E-01
5.30886303E+07	 4.50115707E-01	 2.89280637E-01
5.31008383E+07	 4.51962959E-01	 2.86391463E-01
5.31130463E+07	 4.53781527E-01	 2.83468686E-01
5.31252543E+07	 4.55593075E-01	 2.80565433E-01
5.31374624E+07	 4.57388885E-01	 2.77622952E-01
5.31496704E+07	 4.59145532E-01	 2.74680137E-01
5.31618784E+07	 4.60895640E-01	 2.71733087E-01
5.31740864E+07	 4.62631919E-01	 2.68766213E-01
5.31862945E+07	 4.64343258E-01	 2.65793069E-01
5.31985025E+07	 4.66041493E-01	 2.62797374E-01
5.32107105E+07	 4.67709337E-01	 2.59799019E-01
5.32229185E+07	 4.69376303E-01	 2.56794069E-01
5.32351266E+07	 4.71008495E-01	 2.53768458E-01
5.32473346E+07	 4.72627720E-01	 2.50735505E-01
5.32595426E+07	 4.74222931E-01	 2.47696953E-01
5.32717506E+07	 4.75808300E-01	 2.44648894E-01
5.32839587E+07	 4.77363044E-01	 2.41581813E-01
5.32961667E+07	 4.78902384E-01	 2.38506714E-01
5.33083747E+07	 4.80422018E-01	 2.35419424E-01
5.33205827E+07	 4.81930671E-01	 2.32334767E-01
5.33327908E+07	 4.83416172E-01	 2.29223888E-01
5.33449988E+07	 4.84883766E-01	 2.26114092E-01
5.33572068E+07	 4.86316738E-01	 2.22990251E-01
5.33694148E+07	 4.87740665E-01	 2.19862798E-01
5.33816229E+07	 4.89133833E-01	 2.16725144E-01
5.33938309E+07	 4.90524356E-01	 2.13576375E-01
5.34060389E+07	 4.91885508E-01	 2.10418677E-01
5.34182469E+07	 4.93227923E-01	 2.07251066E-01
5.34304550E+07	 4.94544658E-01	 2.04069085E-01
5.34426630E+07	 4.95857480E-01	 2.00888108E-01
5.34548710E+07	 4.97134689E-01	 1.97698655E-01
5.34670790E+07	 4.98397263E-01	 1.94496589E-01
5.34792871E+07	 4.99642416E-01	 1.91281538E-01
5.34914951E+07	 5.00856663E-01	 1.88066918E-01
5.35037031E+07	 5.02053886E-01	 1.84836108E-01
5.35159111E+07	 5.03237496E-01	 1.81611802E-01
5.35281192E+07	 5.04391665E-01	 1.78371203E-01
5.35403272E+07	 5.05531311E-01	 1.75122677E-01
5.35525352E+07	 5.06652665E-01	 1.71868513E-01
5.35647432E+07	 5.07748850E-01	 1.68597681E-01
5.35769512E+07	 5.08829944E-01	 1.65320324E-01
5.35891593E+07	 5.09881896E-01	 1.62039318E-01
5.36013673E+07	 5.10913241E-01	 1.58761311E-01
5.36135753E+07	 5.11930756E-01	 1.55464436E-01
5.36257833E+07	 5.12921523E-01	 1.52171262E-01
5.36379914E+07	 5.13894043E-01	 1.48870413E-01
5.36501994E+07	 5.14846820E-01	 1.45549492E-01
5.36624074E+07	 5.15773612E-01	 1.42237170E-01
5.36746154E+07	 5.16673557E-01	 1.38908629E-01
5.36868235E+07	 5.17562944E-01	 1.35587504E-01
5.36990315E+07	 5.18415683E-01	 1.32252479E-01
5.37112395E+07	 5.19275208E-01	 1.28903212E-01
5.37234475E+07	 5.20090377E-01	 1.25557858E-01
5.37356556E+07	 5.20898638E-01	 1.22211977E-01
5.37478636E+07	 5.21666170E-01	 1.18847378E-01
5.37600716E+07	 5.22433955E-01	 1.15486770E-01
5.37722796E+07	 5.23170267E-01	 1.12118813E-01
5.37844877E+07	 5.23877677E-01	 1.08743650E-01
5.37966957E+07	 5.24567702E-01	 1.05366607E-01
5.38089037E+07	 5.25240870E-01	 1.01981365E-01
5.38211117E+07	 5.25891105E-01	 9.86064506E-02
5.38333198E+07	 5.26522498E-01	 9.52109656E-02
5.38455278E+07	 5.27121135E-01	 9.18169700E-02
5.38577358E+07	 5.27719181E-01	 8.84191552E-02
5.38699438E+07	 5.28266783E-01	 8.50124653E-02
5.38821519E+07	 5.28814778E-01	 8.16036266E-02
5.38943599E+07	 5.29318763E-01	 7.81999503E-02
5.39065679E+07	 5.29839886E-01	 7.47961588E-02
5.39187759E+07	 5.30309826E-01	 7.13673972E-02
5.39309840E+07	 5.30764328E-01	 6.79490985E-02
5.39431920E+07	 5.31192618E-01	 6.45212352E-02
5.39554000E+07	 5.31598295E-01	 6.10972114E-02
5.39676080E+07	 5.31989542E-01	 5.76684761E-02
5.39798161E+07	 5.32352448E-01	 5.42466301E-02
5.39920241E+07	 5.32695256E-01	 5.08143729E-02
5.40042321E+07	 5.33024687E-01	 4.73698999E-02
5.40164401E+07	 5.33327147E-01	 4.39380429E-02
5.40286482E+07	 5.33596421E-01	 4.04930729E-02
5.40408562E+07	 5.33856870E-01	 3.70432893E-02
5.40530642E+07	 5.34088558E-01	 3.36074277E-02
5.40652722E+07	 5.34301609E-01	 3.01544975E-02
5.40774803E+07	 5.34497957E-01	 2.67218619E-02
5.40896883E+07	 5.34661669E-01	 2.32630452E-02
5.41018963E+07	 5.34807704E-01	 1.98065156E-02
5.41141043E+07	 5.34925886E-01	 1.63623744E-02
5.41263124E+07	 5.35019028E-01	 1.29093361E-02
5.41385204E+07	 5.35115594E-01	 9.45599297E-03
5.41507284E+07	 5.35168815E-01	 6.00305261E-03
5.41629364E+07	 5.35193438E-01	 2.54664119E-03
5.41751445E+07	 5.35211724E-01	-9.08896344E-04
5.41873525E+07	 5.35199457E-01	-4.35998223E-03
5.41995605E+07	 5.35170654E-01	-7.81910002E-03
5.42117685E+07	 5.35113370E-01	-1.12712636E-02
5.42239766E+07	 5.35037477E-01	-1.47298126E-02
5.42361846E+07	 5.34937401E-01	-1.81846079E-02
5.42483926E+07	 5.34820080E-01	-2.16356228E-02
5.42606006E+07	 5.34674688E-01	-2.50852508E-02
5.42728087E+07	 5.34505402E-01	-2.85357663E-02
5.42850167E+07	 5.34318951E-01	-3.19834928E-02
5.42972247E+07	 5.34107076E-01	-3.54360954E-02
5.43094327E+07	 5.33874756E-01	-3.88815999E-02
5.43216408E+07	 5.33619740E-01	-4.23358267E-02
5.43338488E+07	 5.33341456E-01	-4.57778779E-02
5.43460568E+07	 5.33054635E-01	-4.92310007E-02
5.43582648E+07	 5.32715391E-01	-5.26682137E-02
5.43704729E+07	 5.32382686E-01	-5.61122806E-02
5.43826809E+07	 5.32010845E-01	-5.95488225E-02
5.43948889E+07	 5.31630145E-01	-6.29813230E-02
5.44070969E+07	 5.31214303E-01	-6.64117631E-02
5.44193050E+07	 5.30780783E-01	-6.98349218E-02
5.44315130E+07	 5.30334062E-01	-7.32741456E-02
5.44437210E+07	 5.29862127E-01	-7.66951709E-02
5.44559290E+07	 5.29366876E-01	-8.01110193E-02
5.44681371E+07	 5.28847018E-01	-8.35398149E-02
5.44803451E+07	 5.28303258E-01	-8.69688389E-02
5.44925531E+07	 5.27732594E-01	-9.03626857E-02
5.45047611E+07	 5.27153414E-01	-9.37713832E-02
5.45169692E+07	 5.26547482E-01	-9.71824289E-02
5.45291772E+07	 5.25912369E-01	-1.00579319E-01
5.45413852E+07	 5.25266817E-01	-1.03983420E-01
5.45535932E+07	 5.24582240E-01	-1.07367013E-01
5.45658013E+07	 5.23904747E-01	-1.10753432E-01
5.45780093E+07	 5.23178482E-01	-1.14149882E-01
5.45902173E+07	 5.22440381E-01	-1.17524923E-01
5.46024253E+07	 5.21672675E-01	-1.20904356E-01
5.46146334E+07	 5.20889702E-01	-1.24272788E-01
5.46268414E+07	 5.20093684E-01	-1.27635390E-01
5.46390494E+07	 5.19265262E-01	-1.31008589E-01
5.46512574E+07	 5.18411342E-01	-1.34357658E-01
5.46634655E+07	 5.17542130E-01	-1.37708861E-01
5.46756735E+07	 5.16649995E-01	-1.41051811E-01
5.46878815E+07	 5.15752953E-01	-1.44385201E-01
5.47000895E+07	 5.14811001E-01	-1.47720325E-01
5.47122976E+07	 5.13862083E-01	-1.51046931E-01
5.47245056E+07	 5.12878535E-01	-1.54368554E-01
5.47367136E+07	 5.11877471E-01	-1.57683597E-01
5.47489216E+07	 5.10860883E-01	-1.60984969E-01
5.47611296E+07	 5.09823106E-01	-1.64285888E-01
5.47733377E+07	 5.08754592E-01	-1.67585577E-01
5.47855457E+07	 5.07668929E-01	-1.70873123E-01
5.47977537E+07	 5.06566860E-01	-1.74151883E-01
5.48099617E+07	 5.05431798E-01	-1.77429989E-01
5.48221698E+07	 5.04285690E-01	-1.80698624E-01
5.48343778E+07	 5.03126837E-01	-1.83954533E-01
5.48465858E+07	 5.01933712E-01	-1.87202747E-01
5.48587938E+07	 5.00731041E-01	-1.90447924E-01
5.48710019E+07	 4.99486482E-01	-1.93689341E-01
5.48832099E+07	 4.98240790E-01	-1.96915967E-01
5.48954179E+07	 4.96962556E-01	-2.00126047E-01
5.49076259E+07	 4.95673983E-01	-2.03340116E-01
5.49198340E+07	 4.94356957E-01	-2.06544884E-01
5.49320420E+07	 4.93023734E-01	-2.09745525E-01
5.49442500E+07	 4.91663324E-01	-2.12932588E-01
5.49564580E+07	 4.90287979E-01	-2.16106761E-01
5.49686661E+07	 4.88885860E-01	-2.19272764E-01
5.49808741E+07	 4.87478736E-01	-2.22434583E-01
5.49930821E+07	 4.86039930E-01	-2.25581744E-01
5.50052901E+07	 4.84587107E-01	-2.28733821E-01
5.50174982E+07	 4.83103025E-01	-2.31855988E-01
5.50297062E+07	 4.81603795E-01	-2.34990770E-01
5.50419142E+07	 4.80093354E-01	-2.38089117E-01
5.50541222E+07	 4.78545877E-01	-2.41195012E-01
5.50663303E+07	 4.76986229E-01	-2.44285793E-01
5.50785383E+07	 4.75418326E-01	-2.47381257E-01
5.50907463E+07	 4.73819319E-01	-2.50445589E-01
5.51029543E+07	 4.72167744E-01	-2.53489316E-01
5.51151624E+07	 4.70562051E-01	-2.56561975E-01
5.51273704E+07	 4.68889353E-01	-2.59602713E-01
