! COPPER MOUNTAIN TECHNOLOGIES, PLANAR TR1300/1, 00071119, 20.2.2/1.0
! Date: 1/7/2024 7:20:54 PM
! Data: Format [Calibration Info]
! Freq          	S11: Re/Im F1                  
# HZ S RI R 50
5.00000000E+07	 3.20194688E-01	-4.58573468E-01
5.00122080E+07	 3.17241234E-01	-4.60624753E-01
5.00244160E+07	 3.14277639E-01	-4.62658934E-01
5.00366241E+07	 3.11294955E-01	-4.64676327E-01
5.00488321E+07	 3.08309791E-01	-4.66674496E-01
5.00610401E+07	 3.05305545E-01	-4.68663460E-01
5.00732481E+07	 3.02281489E-01	-4.70619648E-01
5.00854562E+07	 2.99258734E-01	-4.72543331E-01
5.00976642E+07	 2.96217122E-01	-4.74473776E-01
5.01098722E+07	 2.93167600E-01	-4.76357542E-01
5.01220802E+07	 2.90089820E-01	-4.78214872E-01
5.01342883E+07	 2.87043258E-01	-4.80112785E-01
5.01464963E+07	 2.83944675E-01	-4.81958269E-01
5.01587043E+07	 2.80853276E-01	-4.83774846E-01
5.01709123E+07	 2.77742182E-01	-4.85569410E-01
5.01831204E+07	 2.74616835E-01	-4.87356836E-01
5.01953284E+07	 2.71476048E-01	-4.89107579E-01
5.02075364E+07	 2.68327145E-01	-4.90820190E-01
5.02197444E+07	 2.65193637E-01	-4.92566929E-01
5.02319525E+07	 2.62013184E-01	-4.94277173E-01
5.02441605E+07	 2.58838159E-01	-4.95949016E-01
5.02563685E+07	 2.55655667E-01	-4.97600831E-01
5.02685765E+07	 2.52433553E-01	-4.99208638E-01
5.02807846E+07	 2.49252286E-01	-5.00853610E-01
5.02929926E+07	 2.46025995E-01	-5.02451364E-01
5.03052006E+07	 2.42803133E-01	-5.04029307E-01
5.03174086E+07	 2.39565900E-01	-5.05573463E-01
5.03296167E+07	 2.36314911E-01	-5.07111778E-01
5.03418247E+07	 2.33059522E-01	-5.08627398E-01
5.03540327E+07	 2.29792491E-01	-5.10109982E-01
5.03662407E+07	 2.26519173E-01	-5.11587582E-01
5.03784488E+07	 2.23232843E-01	-5.13032189E-01
5.03906568E+07	 2.19912325E-01	-5.14425310E-01
5.04028648E+07	 2.16629244E-01	-5.15865617E-01
5.04150728E+07	 2.13327785E-01	-5.17257794E-01
5.04272809E+07	 2.09990465E-01	-5.18619611E-01
5.04394889E+07	 2.06650392E-01	-5.19926256E-01
5.04516969E+07	 2.03326122E-01	-5.21277440E-01
5.04639049E+07	 1.99982821E-01	-5.22564669E-01
5.04761130E+07	 1.96621881E-01	-5.23852337E-01
5.04883210E+07	 1.93251928E-01	-5.25096337E-01
5.05005290E+07	 1.89897554E-01	-5.26325218E-01
5.05127370E+07	 1.86515770E-01	-5.27550016E-01
5.05249451E+07	 1.83129631E-01	-5.28727911E-01
5.05371531E+07	 1.79738564E-01	-5.29910873E-01
5.05493611E+07	 1.76346737E-01	-5.31043055E-01
5.05615691E+07	 1.72925639E-01	-5.32168075E-01
5.05737772E+07	 1.69524753E-01	-5.33259110E-01
5.05859852E+07	 1.66103850E-01	-5.34345424E-01
5.05981932E+07	 1.62685094E-01	-5.35403719E-01
5.06104012E+07	 1.59245262E-01	-5.36447359E-01
5.06226093E+07	 1.55804250E-01	-5.37458339E-01
5.06348173E+07	 1.52345880E-01	-5.38440144E-01
5.06470253E+07	 1.48903805E-01	-5.39408142E-01
5.06592333E+07	 1.45441870E-01	-5.40361487E-01
5.06714414E+07	 1.41979960E-01	-5.41285712E-01
5.06836494E+07	 1.38510122E-01	-5.42186006E-01
5.06958574E+07	 1.35036712E-01	-5.43054226E-01
5.07080654E+07	 1.31557288E-01	-5.43918855E-01
5.07202735E+07	 1.28072145E-01	-5.44761249E-01
5.07324815E+07	 1.24566840E-01	-5.45569154E-01
5.07446895E+07	 1.21069209E-01	-5.46352056E-01
5.07568975E+07	 1.17582019E-01	-5.47109451E-01
5.07691056E+07	 1.14078837E-01	-5.47876563E-01
5.07813136E+07	 1.10575112E-01	-5.48590284E-01
5.07935216E+07	 1.07066582E-01	-5.49277907E-01
5.08057296E+07	 1.03541164E-01	-5.49960889E-01
5.08179377E+07	 1.00011175E-01	-5.50607810E-01
5.08301457E+07	 9.64895100E-02	-5.51241807E-01
5.08423537E+07	 9.29569015E-02	-5.51852317E-01
5.08545617E+07	 8.94220963E-02	-5.52435120E-01
5.08667698E+07	 8.58947976E-02	-5.52990400E-01
5.08789778E+07	 8.23554211E-02	-5.53532973E-01
5.08911858E+07	 7.88110323E-02	-5.54054133E-01
5.09033938E+07	 7.52697959E-02	-5.54541307E-01
5.09156019E+07	 7.17209186E-02	-5.55009153E-01
5.09278099E+07	 6.81680447E-02	-5.55467271E-01
5.09400179E+07	 6.46210931E-02	-5.55896602E-01
5.09522259E+07	 6.10665337E-02	-5.56292387E-01
5.09644340E+07	 5.75028557E-02	-5.56670366E-01
5.09766420E+07	 5.39446984E-02	-5.57035364E-01
5.09888500E+07	 5.03840613E-02	-5.57361248E-01
5.10010580E+07	 4.68264188E-02	-5.57669571E-01
5.10132661E+07	 4.32614272E-02	-5.57958359E-01
5.10254741E+07	 3.96830528E-02	-5.58231503E-01
5.10376821E+07	 3.61342195E-02	-5.58476222E-01
5.10498901E+07	 3.25564709E-02	-5.58699019E-01
5.10620982E+07	 2.89918222E-02	-5.58880425E-01
5.10743062E+07	 2.54273402E-02	-5.59056651E-01
5.10865142E+07	 2.18504310E-02	-5.59202835E-01
5.10987222E+07	 1.82803238E-02	-5.59343531E-01
5.11109303E+07	 1.47143751E-02	-5.59429980E-01
5.11231383E+07	 1.11396061E-02	-5.59521767E-01
5.11353463E+07	 7.57186277E-03	-5.59579368E-01
5.11475543E+07	 3.99475036E-03	-5.59612285E-01
5.11597624E+07	 4.22675471E-04	-5.59635298E-01
5.11719704E+07	-3.14115962E-03	-5.59619377E-01
5.11841784E+07	-6.72036756E-03	-5.59595430E-01
5.11963864E+07	-1.02912114E-02	-5.59528343E-01
5.12085944E+07	-1.38622616E-02	-5.59454335E-01
5.12208025E+07	-1.74158642E-02	-5.59343244E-01
5.12330105E+07	-2.09879377E-02	-5.59216530E-01
5.12452185E+07	-2.45645554E-02	-5.59074835E-01
5.12574265E+07	-2.81172604E-02	-5.58914572E-01
5.12696346E+07	-3.16862454E-02	-5.58719772E-01
5.12818426E+07	-3.52474366E-02	-5.58490344E-01
5.12940506E+07	-3.88077620E-02	-5.58258442E-01
5.13062586E+07	-4.23664028E-02	-5.57994506E-01
5.13184667E+07	-4.59103404E-02	-5.57703762E-01
5.13306747E+07	-4.94688644E-02	-5.57402834E-01
5.13428827E+07	-5.30245060E-02	-5.57077615E-01
5.13550907E+07	-5.65692279E-02	-5.56713061E-01
5.13672988E+07	-6.01182206E-02	-5.56339041E-01
5.13795068E+07	-6.36656355E-02	-5.55938677E-01
5.13917148E+07	-6.71880188E-02	-5.55522272E-01
5.14039228E+07	-7.07340737E-02	-5.55083200E-01
5.14161309E+07	-7.42685936E-02	-5.54606877E-01
5.14283389E+07	-7.77975694E-02	-5.54126077E-01
5.14405469E+07	-8.13262610E-02	-5.53610040E-01
5.14527549E+07	-8.48483333E-02	-5.53083112E-01
5.14649630E+07	-8.83617546E-02	-5.52531724E-01
5.14771710E+07	-9.18734511E-02	-5.51943601E-01
5.14893790E+07	-9.53813952E-02	-5.51346837E-01
5.15015870E+07	-9.88858336E-02	-5.50726413E-01
5.15137951E+07	-1.02389944E-01	-5.50072412E-01
5.15260031E+07	-1.05884002E-01	-5.49409698E-01
5.15382111E+07	-1.09384967E-01	-5.48725465E-01
5.15504191E+07	-1.12872765E-01	-5.48004583E-01
5.15626272E+07	-1.16343464E-01	-5.47273658E-01
5.15748352E+07	-1.19820780E-01	-5.46511101E-01
5.15870432E+07	-1.23299558E-01	-5.45739036E-01
5.15992512E+07	-1.26760016E-01	-5.44942338E-01
5.16114593E+07	-1.30232105E-01	-5.44119093E-01
5.16236673E+07	-1.33684482E-01	-5.43259379E-01
5.16358753E+07	-1.37134010E-01	-5.42399200E-01
5.16480833E+07	-1.40579755E-01	-5.41526465E-01
5.16602914E+07	-1.44008380E-01	-5.40599033E-01
5.16724994E+07	-1.47442691E-01	-5.39658674E-01
5.16847074E+07	-1.50869610E-01	-5.38698850E-01
5.16969154E+07	-1.54283365E-01	-5.37733314E-01
5.17091235E+07	-1.57697725E-01	-5.36732176E-01
5.17213315E+07	-1.61105845E-01	-5.35702014E-01
5.17335395E+07	-1.64492994E-01	-5.34677526E-01
5.17457475E+07	-1.67894341E-01	-5.33609590E-01
5.17579556E+07	-1.71269571E-01	-5.32517518E-01
5.17701636E+07	-1.74654347E-01	-5.31418013E-01
5.17823716E+07	-1.78021301E-01	-5.30297407E-01
5.17945796E+07	-1.81371802E-01	-5.29140143E-01
5.18067877E+07	-1.84727072E-01	-5.27971134E-01
5.18189957E+07	-1.88065369E-01	-5.26786806E-01
5.18312037E+07	-1.91407925E-01	-5.25573878E-01
5.18434117E+07	-1.94731071E-01	-5.24333927E-01
5.18556198E+07	-1.98057134E-01	-5.23077798E-01
5.18678278E+07	-2.01369723E-01	-5.21807097E-01
5.18800358E+07	-2.04683724E-01	-5.20508699E-01
5.18922438E+07	-2.07966338E-01	-5.19185807E-01
5.19044519E+07	-2.11252103E-01	-5.17849666E-01
5.19166599E+07	-2.14525431E-01	-5.16503906E-01
5.19288679E+07	-2.17790673E-01	-5.15112103E-01
5.19410759E+07	-2.21055073E-01	-5.13726447E-01
5.19532840E+07	-2.24305547E-01	-5.12297028E-01
5.19654920E+07	-2.27544879E-01	-5.10845771E-01
5.19777000E+07	-2.30769760E-01	-5.09396590E-01
5.19899080E+07	-2.33984464E-01	-5.07906237E-01
5.20021161E+07	-2.37202319E-01	-5.06419997E-01
5.20143241E+07	-2.40385756E-01	-5.04874715E-01
5.20265321E+07	-2.43584406E-01	-5.03338373E-01
5.20387401E+07	-2.46754885E-01	-5.01768830E-01
5.20509482E+07	-2.49935057E-01	-5.00196428E-01
5.20631562E+07	-2.53094569E-01	-4.98581616E-01
5.20753642E+07	-2.56243967E-01	-4.96953882E-01
5.20875722E+07	-2.59380146E-01	-4.95320837E-01
5.20997803E+07	-2.62501193E-01	-4.93654403E-01
5.21119883E+07	-2.65621921E-01	-4.91962857E-01
5.21241963E+07	-2.68718766E-01	-4.90272445E-01
5.21364043E+07	-2.71818774E-01	-4.88554521E-01
5.21486124E+07	-2.74892222E-01	-4.86808518E-01
5.21608204E+07	-2.77964397E-01	-4.85049705E-01
5.21730284E+07	-2.81026389E-01	-4.83266419E-01
5.21852364E+07	-2.84060958E-01	-4.81464777E-01
5.21974445E+07	-2.87111297E-01	-4.79642811E-01
5.22096525E+07	-2.90115136E-01	-4.77802678E-01
5.22218605E+07	-2.93133629E-01	-4.75952728E-01
5.22340685E+07	-2.96130595E-01	-4.74072055E-01
5.22462766E+07	-2.99126175E-01	-4.72180111E-01
5.22584846E+07	-3.02092427E-01	-4.70256824E-01
5.22706926E+07	-3.05051598E-01	-4.68331613E-01
5.22829006E+07	-3.08009630E-01	-4.66374255E-01
5.22951087E+07	-3.10925898E-01	-4.64414200E-01
5.23073167E+07	-3.13843647E-01	-4.62431670E-01
5.23195247E+07	-3.16756312E-01	-4.60417540E-01
5.23317327E+07	-3.19657053E-01	-4.58395164E-01
5.23439408E+07	-3.22544259E-01	-4.56361295E-01
5.23561488E+07	-3.25401690E-01	-4.54294037E-01
5.23683568E+07	-3.28247745E-01	-4.52217232E-01
5.23805648E+07	-3.31100447E-01	-4.50125448E-01
5.23927728E+07	-3.33926753E-01	-4.48002467E-01
5.24049809E+07	-3.36739571E-01	-4.45871877E-01
5.24171889E+07	-3.39546185E-01	-4.43719564E-01
5.24293969E+07	-3.42324232E-01	-4.41563347E-01
5.24416049E+07	-3.45093380E-01	-4.39375524E-01
5.24538130E+07	-3.47865007E-01	-4.37166407E-01
5.24660210E+07	-3.50599695E-01	-4.34964219E-01
5.24782290E+07	-3.53326036E-01	-4.32735711E-01
5.24904370E+07	-3.56057714E-01	-4.30484480E-01
5.25026451E+07	-3.58741035E-01	-4.28200557E-01
5.25148531E+07	-3.61418211E-01	-4.25927864E-01
5.25270611E+07	-3.64091818E-01	-4.23608094E-01
5.25392691E+07	-3.66738747E-01	-4.21291071E-01
5.25514772E+07	-3.69388178E-01	-4.18962597E-01
5.25636852E+07	-3.72004038E-01	-4.16613549E-01
5.25758932E+07	-3.74629659E-01	-4.14239511E-01
5.25881012E+07	-3.77208521E-01	-4.11860970E-01
5.26003093E+07	-3.79795570E-01	-4.09457250E-01
5.26125173E+07	-3.82355507E-01	-4.07050397E-01
5.26247253E+07	-3.84903238E-01	-4.04609971E-01
5.26369333E+07	-3.87426025E-01	-4.02171389E-01
5.26491414E+07	-3.89940060E-01	-3.99704103E-01
5.26613494E+07	-3.92436019E-01	-3.97220006E-01
5.26735574E+07	-3.94924013E-01	-3.94726943E-01
5.26857654E+07	-3.97384070E-01	-3.92223216E-01
5.26979735E+07	-3.99827612E-01	-3.89690795E-01
5.27101815E+07	-4.02262723E-01	-3.87150064E-01
5.27223895E+07	-4.04685127E-01	-3.84584625E-01
5.27345975E+07	-4.07098293E-01	-3.82021666E-01
5.27468056E+07	-4.09470419E-01	-3.79445740E-01
5.27590136E+07	-4.11842057E-01	-3.76835709E-01
5.27712216E+07	-4.14184209E-01	-3.74229044E-01
5.27834296E+07	-4.16529086E-01	-3.71595506E-01
5.27956377E+07	-4.18845232E-01	-3.68959218E-01
5.28078457E+07	-4.21128568E-01	-3.66290944E-01
5.28200537E+07	-4.23432138E-01	-3.63623394E-01
5.28322617E+07	-4.25684604E-01	-3.60930155E-01
5.28444698E+07	-4.27927345E-01	-3.58235813E-01
5.28566778E+07	-4.30158392E-01	-3.55523618E-01
5.28688858E+07	-4.32374316E-01	-3.52796637E-01
5.28810938E+07	-4.34574268E-01	-3.50055348E-01
5.28933019E+07	-4.36754180E-01	-3.47307289E-01
5.29055099E+07	-4.38906733E-01	-3.44534353E-01
5.29177179E+07	-4.41045544E-01	-3.41747304E-01
5.29299259E+07	-4.43165936E-01	-3.38955113E-01
5.29421340E+07	-4.45287461E-01	-3.36151531E-01
5.29543420E+07	-4.47370593E-01	-3.33328057E-01
5.29665500E+07	-4.49440248E-01	-3.30505914E-01
5.29787580E+07	-4.51485933E-01	-3.27651266E-01
5.29909661E+07	-4.53516033E-01	-3.24805360E-01
5.30031741E+07	-4.55536654E-01	-3.21934812E-01
5.30153821E+07	-4.57529177E-01	-3.19044893E-01
5.30275901E+07	-4.59503344E-01	-3.16152296E-01
5.30397982E+07	-4.61464614E-01	-3.13248594E-01
5.30520062E+07	-4.63399595E-01	-3.10322330E-01
5.30642142E+07	-4.65330484E-01	-3.07395793E-01
5.30764222E+07	-4.67230734E-01	-3.04468605E-01
5.30886303E+07	-4.69117314E-01	-3.01500679E-01
5.31008383E+07	-4.70982419E-01	-2.98536384E-01
5.31130463E+07	-4.72813525E-01	-2.95555204E-01
5.31252543E+07	-4.74661374E-01	-2.92578242E-01
5.31374624E+07	-4.76458072E-01	-2.89573776E-01
5.31496704E+07	-4.78248874E-01	-2.86562144E-01
5.31618784E+07	-4.80017800E-01	-2.83535835E-01
5.31740864E+07	-4.81771132E-01	-2.80512228E-01
5.31862945E+07	-4.83500786E-01	-2.77474690E-01
5.31985025E+07	-4.85210110E-01	-2.74420618E-01
5.32107105E+07	-4.86896632E-01	-2.71358534E-01
5.32229185E+07	-4.88570624E-01	-2.68288918E-01
5.32351266E+07	-4.90227072E-01	-2.65197749E-01
5.32473346E+07	-4.91859615E-01	-2.62112692E-01
5.32595426E+07	-4.93473497E-01	-2.59010957E-01
5.32717506E+07	-4.95069825E-01	-2.55895421E-01
5.32839587E+07	-4.96638007E-01	-2.52766576E-01
5.32961667E+07	-4.98186191E-01	-2.49641538E-01
5.33083747E+07	-4.99710418E-01	-2.46498735E-01
5.33205827E+07	-5.01235472E-01	-2.43347949E-01
5.33327908E+07	-5.02740571E-01	-2.40187823E-01
5.33449988E+07	-5.04211583E-01	-2.37024210E-01
5.33572068E+07	-5.05653615E-01	-2.33834074E-01
5.33694148E+07	-5.07087224E-01	-2.30660603E-01
5.33816229E+07	-5.08509717E-01	-2.27478389E-01
5.33938309E+07	-5.09897206E-01	-2.24260210E-01
5.34060389E+07	-5.11259890E-01	-2.21057225E-01
5.34182469E+07	-5.12615325E-01	-2.17835647E-01
5.34304550E+07	-5.13955347E-01	-2.14610231E-01
5.34426630E+07	-5.15258584E-01	-2.11379705E-01
5.34548710E+07	-5.16548536E-01	-2.08131111E-01
5.34670790E+07	-5.17816063E-01	-2.04879961E-01
5.34792871E+07	-5.19068305E-01	-2.01633918E-01
5.34914951E+07	-5.20295592E-01	-1.98358437E-01
5.35037031E+07	-5.21502889E-01	-1.95092763E-01
5.35159111E+07	-5.22688685E-01	-1.91818105E-01
5.35281192E+07	-5.23861450E-01	-1.88522139E-01
5.35403272E+07	-5.24993068E-01	-1.85236268E-01
5.35525352E+07	-5.26122453E-01	-1.81940433E-01
5.35647432E+07	-5.27229151E-01	-1.78620114E-01
5.35769512E+07	-5.28316788E-01	-1.75298277E-01
5.35891593E+07	-5.29367296E-01	-1.71989035E-01
5.36013673E+07	-5.30406292E-01	-1.68661214E-01
5.36135753E+07	-5.31427864E-01	-1.65323484E-01
5.36257833E+07	-5.32426323E-01	-1.61990258E-01
5.36379914E+07	-5.33403656E-01	-1.58644793E-01
5.36501994E+07	-5.34365592E-01	-1.55294769E-01
5.36624074E+07	-5.35291150E-01	-1.51935802E-01
5.36746154E+07	-5.36211642E-01	-1.48578190E-01
5.36868235E+07	-5.37101832E-01	-1.45218845E-01
5.36990315E+07	-5.37964523E-01	-1.41847568E-01
5.37112395E+07	-5.38818084E-01	-1.38476090E-01
5.37234475E+07	-5.39655153E-01	-1.35078605E-01
5.37356556E+07	-5.40456097E-01	-1.31700344E-01
5.37478636E+07	-5.41231644E-01	-1.28302359E-01
5.37600716E+07	-5.42008324E-01	-1.24916380E-01
5.37722796E+07	-5.42754154E-01	-1.21523738E-01
5.37844877E+07	-5.43462835E-01	-1.18110414E-01
5.37966957E+07	-5.44160890E-01	-1.14698676E-01
5.38089037E+07	-5.44835034E-01	-1.11291399E-01
5.38211117E+07	-5.45504048E-01	-1.07891002E-01
5.38333198E+07	-5.46138016E-01	-1.04460937E-01
5.38455278E+07	-5.46741775E-01	-1.01036963E-01
5.38577358E+07	-5.47344207E-01	-9.76153795E-02
5.38699438E+07	-5.47904762E-01	-9.41899697E-02
5.38821519E+07	-5.48454278E-01	-9.07565307E-02
5.38943599E+07	-5.48970378E-01	-8.73180560E-02
5.39065679E+07	-5.49496519E-01	-8.38842673E-02
5.39187759E+07	-5.49974580E-01	-8.04370766E-02
5.39309840E+07	-5.50435803E-01	-7.69872282E-02
5.39431920E+07	-5.50883131E-01	-7.35547952E-02
5.39554000E+07	-5.51291056E-01	-7.00951675E-02
5.39676080E+07	-5.51691027E-01	-6.66538095E-02
5.39798161E+07	-5.52069378E-01	-6.31991525E-02
5.39920241E+07	-5.52423411E-01	-5.97470416E-02
5.40042321E+07	-5.52759739E-01	-5.62904651E-02
5.40164401E+07	-5.53069991E-01	-5.28354884E-02
5.40286482E+07	-5.53351102E-01	-4.93711707E-02
5.40408562E+07	-5.53615586E-01	-4.59143688E-02
5.40530642E+07	-5.53851945E-01	-4.24484174E-02
5.40652722E+07	-5.54077908E-01	-3.89811076E-02
5.40774803E+07	-5.54286773E-01	-3.55193348E-02
5.40896883E+07	-5.54466857E-01	-3.20679858E-02
5.41018963E+07	-5.54619452E-01	-2.85911529E-02
5.41141043E+07	-5.54760655E-01	-2.51169510E-02
5.41263124E+07	-5.54873519E-01	-2.16539432E-02
5.41385204E+07	-5.54969526E-01	-1.82002935E-02
5.41507284E+07	-5.55035285E-01	-1.47215944E-02
5.41629364E+07	-5.55074201E-01	-1.12576948E-02
5.41751445E+07	-5.55114423E-01	-7.79183177E-03
5.41873525E+07	-5.55115713E-01	-4.32143966E-03
5.41995605E+07	-5.55098370E-01	-8.51504236E-04
5.42117685E+07	-5.55065561E-01	 2.60094928E-03
5.42239766E+07	-5.54998819E-01	 6.07118412E-03
5.42361846E+07	-5.54917376E-01	 9.53274765E-03
5.42483926E+07	-5.54816415E-01	 1.29979846E-02
5.42606006E+07	-5.54694170E-01	 1.64544483E-02
5.42728087E+07	-5.54539092E-01	 1.99217774E-02
5.42850167E+07	-5.54373897E-01	 2.33789100E-02
5.42972247E+07	-5.54187725E-01	 2.68457465E-02
5.43094327E+07	-5.53964201E-01	 3.02953102E-02
5.43216408E+07	-5.53741401E-01	 3.37508579E-02
5.43338488E+07	-5.53479716E-01	 3.72091839E-02
5.43460568E+07	-5.53208026E-01	 4.06565407E-02
5.43582648E+07	-5.52906013E-01	 4.41042028E-02
5.43704729E+07	-5.52591726E-01	 4.75594638E-02
5.43826809E+07	-5.52245161E-01	 5.10016958E-02
5.43948889E+07	-5.51880241E-01	 5.44469550E-02
5.44070969E+07	-5.51496596E-01	 5.78753997E-02
5.44193050E+07	-5.51087255E-01	 6.13088001E-02
5.44315130E+07	-5.50680804E-01	 6.47534781E-02
5.44437210E+07	-5.50214748E-01	 6.81794954E-02
5.44559290E+07	-5.49759314E-01	 7.16000917E-02
5.44681371E+07	-5.49270927E-01	 7.50222401E-02
5.44803451E+07	-5.48750770E-01	 7.84607765E-02
5.44925531E+07	-5.48213594E-01	 8.18646760E-02
5.45047611E+07	-5.47664528E-01	 8.52738156E-02
5.45169692E+07	-5.47086350E-01	 8.86865758E-02
5.45291772E+07	-5.46484431E-01	 9.20839569E-02
5.45413852E+07	-5.45869821E-01	 9.54988647E-02
5.45535932E+07	-5.45226805E-01	 9.88888546E-02
5.45658013E+07	-5.44567398E-01	 1.02279807E-01
5.45780093E+07	-5.43889441E-01	 1.05662929E-01
5.45902173E+07	-5.43178099E-01	 1.09047915E-01
5.46024253E+07	-5.42449909E-01	 1.12423603E-01
5.46146334E+07	-5.41703212E-01	 1.15800225E-01
5.46268414E+07	-5.40939147E-01	 1.19168592E-01
5.46390494E+07	-5.40155155E-01	 1.22535083E-01
5.46512574E+07	-5.39349000E-01	 1.25891242E-01
5.46634655E+07	-5.38517558E-01	 1.29243109E-01
5.46756735E+07	-5.37655684E-01	 1.32587505E-01
5.46878815E+07	-5.36799042E-01	 1.35928595E-01
5.47000895E+07	-5.35900236E-01	 1.39272747E-01
5.47122976E+07	-5.34991103E-01	 1.42606529E-01
5.47245056E+07	-5.34053151E-01	 1.45925702E-01
5.47367136E+07	-5.33103566E-01	 1.49238805E-01
5.47489216E+07	-5.32125051E-01	 1.52551269E-01
5.47611296E+07	-5.31127429E-01	 1.55861493E-01
5.47733377E+07	-5.30108758E-01	 1.59149676E-01
5.47855457E+07	-5.29071194E-01	 1.62449538E-01
5.47977537E+07	-5.28018133E-01	 1.65726978E-01
5.48099617E+07	-5.26938811E-01	 1.69014762E-01
5.48221698E+07	-5.25842044E-01	 1.72277300E-01
5.48343778E+07	-5.24729299E-01	 1.75538709E-01
5.48465858E+07	-5.23594612E-01	 1.78789897E-01
5.48587938E+07	-5.22428085E-01	 1.82044997E-01
5.48710019E+07	-5.21254614E-01	 1.85291118E-01
5.48832099E+07	-5.20053560E-01	 1.88518822E-01
5.48954179E+07	-5.18832399E-01	 1.91750756E-01
5.49076259E+07	-5.17596371E-01	 1.94964764E-01
5.49198340E+07	-5.16337095E-01	 1.98176523E-01
5.49320420E+07	-5.15062174E-01	 2.01385161E-01
5.49442500E+07	-5.13746072E-01	 2.04572665E-01
5.49564580E+07	-5.12439749E-01	 2.07760350E-01
5.49686661E+07	-5.11097927E-01	 2.10928656E-01
5.49808741E+07	-5.09744892E-01	 2.14097469E-01
5.49930821E+07	-5.08367046E-01	 2.17252529E-01
5.50052901E+07	-5.06968351E-01	 2.20418709E-01
5.50174982E+07	-5.05550401E-01	 2.23559389E-01
5.50297062E+07	-5.04122423E-01	 2.26693894E-01
5.50419142E+07	-5.02668795E-01	 2.29799683E-01
5.50541222E+07	-5.01180810E-01	 2.32919101E-01
5.50663303E+07	-4.99682393E-01	 2.36025706E-01
5.50785383E+07	-4.98178417E-01	 2.39125730E-01
5.50907463E+07	-4.96634068E-01	 2.42210642E-01
5.51029543E+07	-4.95072523E-01	 2.45267942E-01
5.51151624E+07	-4.93524977E-01	 2.48342650E-01
5.51273704E+07	-4.91927244E-01	 2.51408988E-01
