! COPPER MOUNTAIN TECHNOLOGIES, PLANAR TR1300/1, 00071119, 20.2.2/1.0
! Date: 1/7/2024 7:30:48 PM
! Data: Format [Calibration Info]
! Freq          	S11: Re/Im F1                  
# HZ S RI R 50
5.00000000E+07	-4.68171804E-01	 6.66061898E-01
5.00122080E+07	-4.63985284E-01	 6.68958147E-01
5.00244160E+07	-4.59765466E-01	 6.71817259E-01
5.00366241E+07	-4.55546517E-01	 6.74646931E-01
5.00488321E+07	-4.51296033E-01	 6.77464571E-01
5.00610401E+07	-4.47032054E-01	 6.80274085E-01
5.00732481E+07	-4.42749831E-01	 6.83020162E-01
5.00854562E+07	-4.38446414E-01	 6.85728708E-01
5.00976642E+07	-4.34136672E-01	 6.88441213E-01
5.01098722E+07	-4.29795652E-01	 6.91096898E-01
5.01220802E+07	-4.25421792E-01	 6.93709982E-01
5.01342883E+07	-4.21086986E-01	 6.96389078E-01
5.01464963E+07	-4.16712271E-01	 6.98985808E-01
5.01587043E+07	-4.12314571E-01	 7.01539909E-01
5.01709123E+07	-4.07910708E-01	 7.04093568E-01
5.01831204E+07	-4.03484062E-01	 7.06595811E-01
5.01953284E+07	-3.99033827E-01	 7.09086950E-01
5.02075364E+07	-3.94543493E-01	 7.11513644E-01
5.02197444E+07	-3.90111177E-01	 7.13966423E-01
5.02319525E+07	-3.85599632E-01	 7.16380930E-01
5.02441605E+07	-3.81088340E-01	 7.18742869E-01
5.02563685E+07	-3.76571811E-01	 7.21092515E-01
5.02685765E+07	-3.72014582E-01	 7.23380246E-01
5.02807846E+07	-3.67502174E-01	 7.25708247E-01
5.02929926E+07	-3.62931345E-01	 7.27976356E-01
5.03052006E+07	-3.58362984E-01	 7.30212966E-01
5.03174086E+07	-3.53761316E-01	 7.32414576E-01
5.03296167E+07	-3.49156923E-01	 7.34594378E-01
5.03418247E+07	-3.44543462E-01	 7.36735050E-01
5.03540327E+07	-3.39901190E-01	 7.38868055E-01
5.03662407E+07	-3.35264893E-01	 7.40965242E-01
5.03784488E+07	-3.30603436E-01	 7.43011055E-01
5.03906568E+07	-3.25919241E-01	 7.44993829E-01
5.04028648E+07	-3.21265983E-01	 7.47048686E-01
5.04150728E+07	-3.16558037E-01	 7.49033636E-01
5.04272809E+07	-3.11852044E-01	 7.50979373E-01
5.04394889E+07	-3.07109191E-01	 7.52836273E-01
5.04516969E+07	-3.02393500E-01	 7.54773865E-01
5.04639049E+07	-2.97638799E-01	 7.56622846E-01
5.04761130E+07	-2.92892352E-01	 7.58463724E-01
5.04883210E+07	-2.88115468E-01	 7.60260364E-01
5.05005290E+07	-2.83344633E-01	 7.62030536E-01
5.05127370E+07	-2.78561106E-01	 7.63783616E-01
5.05249451E+07	-2.73758626E-01	 7.65484270E-01
5.05371531E+07	-2.68945635E-01	 7.67171072E-01
5.05493611E+07	-2.64129014E-01	 7.68825179E-01
5.05615691E+07	-2.59297580E-01	 7.70447049E-01
5.05737772E+07	-2.54446546E-01	 7.72024193E-01
5.05859852E+07	-2.49611708E-01	 7.73581192E-01
5.05981932E+07	-2.44748531E-01	 7.75117802E-01
5.06104012E+07	-2.39882806E-01	 7.76628223E-01
5.06226093E+07	-2.34987948E-01	 7.78100037E-01
5.06348173E+07	-2.30107616E-01	 7.79536127E-01
5.06470253E+07	-2.25181358E-01	 7.80936818E-01
5.06592333E+07	-2.20279253E-01	 7.82320683E-01
5.06714414E+07	-2.15370796E-01	 7.83670481E-01
5.06836494E+07	-2.10438729E-01	 7.84999305E-01
5.06958574E+07	-2.05525837E-01	 7.86274901E-01
5.07080654E+07	-2.00575998E-01	 7.87551963E-01
5.07202735E+07	-1.95621666E-01	 7.88768062E-01
5.07324815E+07	-1.90650669E-01	 7.89980240E-01
5.07446895E+07	-1.85695819E-01	 7.91128191E-01
5.07568975E+07	-1.80723661E-01	 7.92251795E-01
5.07691056E+07	-1.75736747E-01	 7.93366294E-01
5.07813136E+07	-1.70758671E-01	 7.94427794E-01
5.07935216E+07	-1.65755747E-01	 7.95484892E-01
5.08057296E+07	-1.60755244E-01	 7.96473649E-01
5.08179377E+07	-1.55735159E-01	 7.97452906E-01
5.08301457E+07	-1.50744159E-01	 7.98407008E-01
5.08423537E+07	-1.45717625E-01	 7.99327425E-01
5.08545617E+07	-1.40683355E-01	 8.00211546E-01
5.08667698E+07	-1.35654389E-01	 8.01064968E-01
5.08789778E+07	-1.30633046E-01	 8.01892130E-01
5.08911858E+07	-1.25583295E-01	 8.02692252E-01
5.09033938E+07	-1.20539190E-01	 8.03446942E-01
5.09156019E+07	-1.15468638E-01	 8.04176056E-01
5.09278099E+07	-1.10421367E-01	 8.04874881E-01
5.09400179E+07	-1.05355133E-01	 8.05553194E-01
5.09522259E+07	-1.00301911E-01	 8.06167569E-01
5.09644340E+07	-9.52171406E-02	 8.06772064E-01
5.09766420E+07	-9.01520205E-02	 8.07344629E-01
5.09888500E+07	-8.50792607E-02	 8.07894678E-01
5.10010580E+07	-7.99756571E-02	 8.08390299E-01
5.10132661E+07	-7.49154172E-02	 8.08868135E-01
5.10254741E+07	-6.98246959E-02	 8.09322180E-01
5.10376821E+07	-6.47249040E-02	 8.09728023E-01
5.10498901E+07	-5.96276026E-02	 8.10111013E-01
5.10620982E+07	-5.45351972E-02	 8.10465907E-01
5.10743062E+07	-4.94239141E-02	 8.10784323E-01
5.10865142E+07	-4.43273509E-02	 8.11052940E-01
5.10987222E+07	-3.92177781E-02	 8.11308900E-01
5.11109303E+07	-3.41107763E-02	 8.11518263E-01
5.11231383E+07	-2.90163105E-02	 8.11728433E-01
5.11353463E+07	-2.38888216E-02	 8.11872863E-01
5.11475543E+07	-1.87722035E-02	 8.11994773E-01
5.11597624E+07	-1.36714718E-02	 8.12101192E-01
5.11719704E+07	-8.56636594E-03	 8.12167734E-01
5.11841784E+07	-3.42447829E-03	 8.12202338E-01
5.11963864E+07	 1.66681314E-03	 8.12204822E-01
5.12085944E+07	 6.78768028E-03	 8.12151670E-01
5.12208025E+07	 1.19081481E-02	 8.12093393E-01
5.12330105E+07	 1.70268574E-02	 8.12005100E-01
5.12452185E+07	 2.21365686E-02	 8.11869918E-01
5.12574265E+07	 2.72444744E-02	 8.11720456E-01
5.12696346E+07	 3.23669645E-02	 8.11523885E-01
5.12818426E+07	 3.74795753E-02	 8.11298910E-01
5.12940506E+07	 4.25896468E-02	 8.11031619E-01
5.13062586E+07	 4.76969009E-02	 8.10747251E-01
5.13184667E+07	 5.27939248E-02	 8.10432603E-01
5.13306747E+07	 5.79205758E-02	 8.10078458E-01
5.13428827E+07	 6.30169697E-02	 8.09692958E-01
5.13550907E+07	 6.81235346E-02	 8.09261567E-01
5.13672988E+07	 7.32266785E-02	 8.08829118E-01
5.13795068E+07	 7.83174442E-02	 8.08352992E-01
5.13917148E+07	 8.34218136E-02	 8.07833935E-01
5.14039228E+07	 8.85135048E-02	 8.07271426E-01
5.14161309E+07	 9.35935424E-02	 8.06708057E-01
5.14283389E+07	 9.86803821E-02	 8.06104849E-01
5.14405469E+07	 1.03775536E-01	 8.05456222E-01
5.14527549E+07	 1.08848943E-01	 8.04795177E-01
5.14649630E+07	 1.13925019E-01	 8.04092116E-01
5.14771710E+07	 1.18995703E-01	 8.03358595E-01
5.14893790E+07	 1.24074890E-01	 8.02584002E-01
5.15015870E+07	 1.29132893E-01	 8.01782329E-01
5.15137951E+07	 1.34194292E-01	 8.00945878E-01
5.15260031E+07	 1.39254318E-01	 8.00090534E-01
5.15382111E+07	 1.44301348E-01	 7.99198863E-01
5.15504191E+07	 1.49335195E-01	 7.98269317E-01
5.15626272E+07	 1.54373181E-01	 7.97320323E-01
5.15748352E+07	 1.59404885E-01	 7.96320483E-01
5.15870432E+07	 1.64435439E-01	 7.95310690E-01
5.15992512E+07	 1.69453952E-01	 7.94268902E-01
5.16114593E+07	 1.74461310E-01	 7.93182534E-01
5.16236673E+07	 1.79488350E-01	 7.92040871E-01
5.16358753E+07	 1.84487919E-01	 7.90908838E-01
5.16480833E+07	 1.89481151E-01	 7.89729988E-01
5.16602914E+07	 1.94476401E-01	 7.88511697E-01
5.16724994E+07	 1.99447067E-01	 7.87246687E-01
5.16847074E+07	 2.04440119E-01	 7.86005703E-01
5.16969154E+07	 2.09395242E-01	 7.84688762E-01
5.17091235E+07	 2.14350558E-01	 7.83353056E-01
5.17213315E+07	 2.19306094E-01	 7.81983575E-01
5.17335395E+07	 2.24243042E-01	 7.80597251E-01
5.17457475E+07	 2.29196901E-01	 7.79154104E-01
5.17579556E+07	 2.34109769E-01	 7.77704705E-01
5.17701636E+07	 2.39033710E-01	 7.76214298E-01
5.17823716E+07	 2.43938966E-01	 7.74678622E-01
5.17945796E+07	 2.48832382E-01	 7.73132049E-01
5.18067877E+07	 2.53716845E-01	 7.71561459E-01
5.18189957E+07	 2.58597603E-01	 7.69933010E-01
5.18312037E+07	 2.63471585E-01	 7.68290103E-01
5.18434117E+07	 2.68331630E-01	 7.66614042E-01
5.18556198E+07	 2.73190861E-01	 7.64900246E-01
5.18678278E+07	 2.78016877E-01	 7.63161028E-01
5.18800358E+07	 2.82869101E-01	 7.61398512E-01
5.18922438E+07	 2.87687142E-01	 7.59588262E-01
5.19044519E+07	 2.92497547E-01	 7.57758834E-01
5.19166599E+07	 2.97290004E-01	 7.55901167E-01
5.19288679E+07	 3.02069644E-01	 7.54020901E-01
5.19410759E+07	 3.06852733E-01	 7.52097984E-01
5.19532840E+07	 3.11606874E-01	 7.50148894E-01
5.19654920E+07	 3.16361734E-01	 7.48153340E-01
5.19777000E+07	 3.21090772E-01	 7.46150572E-01
5.19899080E+07	 3.25833899E-01	 7.44110883E-01
5.20021161E+07	 3.30550433E-01	 7.42047033E-01
5.20143241E+07	 3.35243892E-01	 7.39929501E-01
5.20265321E+07	 3.39944438E-01	 7.37798990E-01
5.20387401E+07	 3.44611810E-01	 7.35656964E-01
5.20509482E+07	 3.49278795E-01	 7.33457806E-01
5.20631562E+07	 3.53926526E-01	 7.31230681E-01
5.20753642E+07	 3.58562766E-01	 7.28980512E-01
5.20875722E+07	 3.63177457E-01	 7.26724857E-01
5.20997803E+07	 3.67791095E-01	 7.24406524E-01
5.21119883E+07	 3.72383593E-01	 7.22055006E-01
5.21241963E+07	 3.76965289E-01	 7.19700122E-01
5.21364043E+07	 3.81539156E-01	 7.17314377E-01
5.21486124E+07	 3.86078040E-01	 7.14881358E-01
5.21608204E+07	 3.90625803E-01	 7.12427840E-01
5.21730284E+07	 3.95138299E-01	 7.09946547E-01
5.21852364E+07	 3.99646495E-01	 7.07431307E-01
5.21974445E+07	 4.04148791E-01	 7.04905217E-01
5.22096525E+07	 4.08632900E-01	 7.02327608E-01
5.22218605E+07	 4.13074522E-01	 6.99724203E-01
5.22340685E+07	 4.17514901E-01	 6.97096817E-01
5.22462766E+07	 4.21957345E-01	 6.94438985E-01
5.22584846E+07	 4.26359995E-01	 6.91759451E-01
5.22706926E+07	 4.30761565E-01	 6.89057374E-01
5.22829006E+07	 4.35148155E-01	 6.86298823E-01
5.22951087E+07	 4.39492726E-01	 6.83542977E-01
5.23073167E+07	 4.43836970E-01	 6.80746113E-01
5.23195247E+07	 4.48175062E-01	 6.77924926E-01
5.23317327E+07	 4.52472063E-01	 6.75064053E-01
5.23439408E+07	 4.56765062E-01	 6.72205498E-01
5.23561488E+07	 4.61040921E-01	 6.69274963E-01
5.23683568E+07	 4.65290298E-01	 6.66354664E-01
5.23805648E+07	 4.69537124E-01	 6.63396716E-01
5.23927728E+07	 4.73751222E-01	 6.60394624E-01
5.24049809E+07	 4.77964496E-01	 6.57395523E-01
5.24171889E+07	 4.82156242E-01	 6.54370814E-01
5.24293969E+07	 4.86312555E-01	 6.51296454E-01
5.24416049E+07	 4.90447908E-01	 6.48198216E-01
5.24538130E+07	 4.94591986E-01	 6.45073555E-01
5.24660210E+07	 4.98699541E-01	 6.41922754E-01
5.24782290E+07	 5.02783284E-01	 6.38755979E-01
5.24904370E+07	 5.06873550E-01	 6.35563553E-01
5.25026451E+07	 5.10909152E-01	 6.32337984E-01
5.25148531E+07	 5.14917730E-01	 6.29074663E-01
5.25270611E+07	 5.18945380E-01	 6.25800823E-01
5.25392691E+07	 5.22922954E-01	 6.22495975E-01
5.25514772E+07	 5.26897740E-01	 6.19168828E-01
5.25636852E+07	 5.30840904E-01	 6.15820703E-01
5.25758932E+07	 5.34759297E-01	 6.12428313E-01
5.25881012E+07	 5.38664287E-01	 6.09021411E-01
5.26003093E+07	 5.42566513E-01	 6.05590770E-01
5.26125173E+07	 5.46405516E-01	 6.02135080E-01
5.26247253E+07	 5.50255206E-01	 5.98659788E-01
5.26369333E+07	 5.54079107E-01	 5.95145532E-01
5.26491414E+07	 5.57877345E-01	 5.91624729E-01
5.26613494E+07	 5.61646386E-01	 5.88081547E-01
5.26735574E+07	 5.65403394E-01	 5.84490826E-01
5.26857654E+07	 5.69133297E-01	 5.80882870E-01
5.26979735E+07	 5.72832860E-01	 5.77256583E-01
5.27101815E+07	 5.76546269E-01	 5.73593449E-01
5.27223895E+07	 5.80191016E-01	 5.69920356E-01
5.27345975E+07	 5.83843597E-01	 5.66228423E-01
5.27468056E+07	 5.87449543E-01	 5.62521269E-01
5.27590136E+07	 5.91061356E-01	 5.58770059E-01
5.27712216E+07	 5.94631405E-01	 5.54990773E-01
5.27834296E+07	 5.98161212E-01	 5.51207115E-01
5.27956377E+07	 6.01695381E-01	 5.47396843E-01
5.28078457E+07	 6.05181015E-01	 5.43540403E-01
5.28200537E+07	 6.08666063E-01	 5.39698574E-01
5.28322617E+07	 6.12115558E-01	 5.35797167E-01
5.28444698E+07	 6.15534353E-01	 5.31901092E-01
5.28566778E+07	 6.18941341E-01	 5.27985152E-01
5.28688858E+07	 6.22326128E-01	 5.24022479E-01
5.28810938E+07	 6.25686583E-01	 5.20053265E-01
5.28933019E+07	 6.29017555E-01	 5.16066651E-01
5.29055099E+07	 6.32303057E-01	 5.12047398E-01
5.29177179E+07	 6.35585606E-01	 5.08003729E-01
5.29299259E+07	 6.38853042E-01	 5.03941344E-01
5.29421340E+07	 6.42081287E-01	 4.99876749E-01
5.29543420E+07	 6.45268344E-01	 4.95763832E-01
5.29665500E+07	 6.48438129E-01	 4.91646019E-01
5.29787580E+07	 6.51595281E-01	 4.87490198E-01
5.29909661E+07	 6.54717429E-01	 4.83345810E-01
5.30031741E+07	 6.57819362E-01	 4.79160658E-01
5.30153821E+07	 6.60885721E-01	 4.74939414E-01
5.30275901E+07	 6.63928440E-01	 4.70726995E-01
5.30397982E+07	 6.66955031E-01	 4.66469626E-01
5.30520062E+07	 6.69933988E-01	 4.62212131E-01
5.30642142E+07	 6.72913331E-01	 4.57933225E-01
5.30764222E+07	 6.75850302E-01	 4.53645838E-01
5.30886303E+07	 6.78755891E-01	 4.49306001E-01
5.31008383E+07	 6.81643817E-01	 4.44970323E-01
5.31130463E+07	 6.84478238E-01	 4.40594010E-01
5.31252543E+07	 6.87326381E-01	 4.36243623E-01
5.31374624E+07	 6.90132332E-01	 4.31829628E-01
5.31496704E+07	 6.92895532E-01	 4.27411245E-01
5.31618784E+07	 6.95644595E-01	 4.22977736E-01
5.31740864E+07	 6.98359745E-01	 4.18537794E-01
5.31862945E+07	 7.01040164E-01	 4.14054155E-01
5.31985025E+07	 7.03699557E-01	 4.09575278E-01
5.32107105E+07	 7.06322219E-01	 4.05084023E-01
5.32229185E+07	 7.08951784E-01	 4.00562261E-01
5.32351266E+07	 7.11520057E-01	 3.96016860E-01
5.32473346E+07	 7.14054518E-01	 3.91458673E-01
5.32595426E+07	 7.16575287E-01	 3.86887420E-01
5.32717506E+07	 7.19068306E-01	 3.82300088E-01
5.32839587E+07	 7.21520986E-01	 3.77693933E-01
5.32961667E+07	 7.23944905E-01	 3.73062637E-01
5.33083747E+07	 7.26347954E-01	 3.68420856E-01
5.33205827E+07	 7.28719650E-01	 3.63775966E-01
5.33327908E+07	 7.31076718E-01	 3.59101665E-01
5.33449988E+07	 7.33380750E-01	 3.54413489E-01
5.33572068E+07	 7.35673911E-01	 3.49729414E-01
5.33694148E+07	 7.37914158E-01	 3.45007923E-01
5.33816229E+07	 7.40125871E-01	 3.40287141E-01
5.33938309E+07	 7.42326246E-01	 3.35526872E-01
5.34060389E+07	 7.44478140E-01	 3.30761583E-01
5.34182469E+07	 7.46614724E-01	 3.25991576E-01
5.34304550E+07	 7.48724433E-01	 3.21206561E-01
5.34426630E+07	 7.50799185E-01	 3.16401897E-01
5.34548710E+07	 7.52834296E-01	 3.11595246E-01
5.34670790E+07	 7.54835105E-01	 3.06758939E-01
5.34792871E+07	 7.56818876E-01	 3.01912515E-01
5.34914951E+07	 7.58767025E-01	 2.97056581E-01
5.35037031E+07	 7.60679580E-01	 2.92178057E-01
5.35159111E+07	 7.62568606E-01	 2.87307844E-01
5.35281192E+07	 7.64424985E-01	 2.82415160E-01
5.35403272E+07	 7.66246875E-01	 2.77512318E-01
5.35525352E+07	 7.68043532E-01	 2.72601569E-01
5.35647432E+07	 7.69802176E-01	 2.67657491E-01
5.35769512E+07	 7.71539117E-01	 2.62704889E-01
5.35891593E+07	 7.73219191E-01	 2.57757679E-01
5.36013673E+07	 7.74890311E-01	 2.52793864E-01
5.36135753E+07	 7.76530867E-01	 2.47808444E-01
5.36257833E+07	 7.78129060E-01	 2.42824500E-01
5.36379914E+07	 7.79701696E-01	 2.37837920E-01
5.36501994E+07	 7.81247410E-01	 2.32808493E-01
5.36624074E+07	 7.82753238E-01	 2.27796728E-01
5.36746154E+07	 7.84213307E-01	 2.22780714E-01
5.36868235E+07	 7.85667385E-01	 2.17737091E-01
5.36990315E+07	 7.87054189E-01	 2.12683270E-01
5.37112395E+07	 7.88450888E-01	 2.07624419E-01
5.37234475E+07	 7.89805267E-01	 2.02536913E-01
5.37356556E+07	 7.91116679E-01	 1.97483100E-01
5.37478636E+07	 7.92373897E-01	 1.92379098E-01
5.37600716E+07	 7.93642603E-01	 1.87295297E-01
5.37722796E+07	 7.94855611E-01	 1.82188945E-01
5.37844877E+07	 7.96029664E-01	 1.77069502E-01
5.37966957E+07	 7.97180162E-01	 1.71941817E-01
5.38089037E+07	 7.98283461E-01	 1.66824303E-01
5.38211117E+07	 7.99379919E-01	 1.61712326E-01
5.38333198E+07	 8.00433006E-01	 1.56553030E-01
5.38455278E+07	 8.01449026E-01	 1.51398118E-01
5.38577358E+07	 8.02428572E-01	 1.46239062E-01
5.38699438E+07	 8.03364672E-01	 1.41075719E-01
5.38821519E+07	 8.04303534E-01	 1.35916886E-01
5.38943599E+07	 8.05167124E-01	 1.30730695E-01
5.39065679E+07	 8.06045043E-01	 1.25552444E-01
5.39187759E+07	 8.06859981E-01	 1.20367873E-01
5.39309840E+07	 8.07647173E-01	 1.15165851E-01
5.39431920E+07	 8.08388872E-01	 1.09974653E-01
5.39554000E+07	 8.09106162E-01	 1.04759399E-01
5.39676080E+07	 8.09793976E-01	 9.95532320E-02
5.39798161E+07	 8.10443403E-01	 9.43434164E-02
5.39920241E+07	 8.11043008E-01	 8.91346879E-02
5.40042321E+07	 8.11642285E-01	 8.38955901E-02
5.40164401E+07	 8.12208309E-01	 7.86719833E-02
5.40286482E+07	 8.12701840E-01	 7.34290978E-02
5.40408562E+07	 8.13192558E-01	 6.81894481E-02
5.40530642E+07	 8.13645166E-01	 6.29545886E-02
5.40652722E+07	 8.14061671E-01	 5.77112630E-02
5.40774803E+07	 8.14453204E-01	 5.24692377E-02
5.40896883E+07	 8.14792003E-01	 4.72290210E-02
5.41018963E+07	 8.15115036E-01	 4.19677304E-02
5.41141043E+07	 8.15394468E-01	 3.67073616E-02
5.41263124E+07	 8.15634696E-01	 3.14498918E-02
5.41385204E+07	 8.15876775E-01	 2.61905330E-02
5.41507284E+07	 8.16030651E-01	 2.09362836E-02
5.41629364E+07	 8.16160734E-01	 1.56593370E-02
5.41751445E+07	 8.16287703E-01	 1.04168513E-02
5.41873525E+07	 8.16358745E-01	 5.14651803E-03
5.41995605E+07	 8.16404848E-01	-1.25874251E-04
5.42117685E+07	 8.16415872E-01	-5.37651802E-03
5.42239766E+07	 8.16390624E-01	-1.06528060E-02
5.42361846E+07	 8.16331139E-01	-1.59312537E-02
5.42483926E+07	 8.16240480E-01	-2.11925947E-02
5.42606006E+07	 8.16113769E-01	-2.64487292E-02
5.42728087E+07	 8.15938768E-01	-3.17103004E-02
5.42850167E+07	 8.15753864E-01	-3.69792140E-02
5.42972247E+07	 8.15518285E-01	-4.22496275E-02
5.43094327E+07	 8.15248050E-01	-4.75087826E-02
5.43216408E+07	 8.14963306E-01	-5.27701167E-02
5.43338488E+07	 8.14629171E-01	-5.80305026E-02
5.43460568E+07	 8.14266973E-01	-6.32989299E-02
5.43582648E+07	 8.13863525E-01	-6.85586630E-02
5.43704729E+07	 8.13437139E-01	-7.38045648E-02
5.43826809E+07	 8.12962233E-01	-7.90570206E-02
5.43948889E+07	 8.12453231E-01	-8.43097605E-02
5.44070969E+07	 8.11931399E-01	-8.95499390E-02
5.44193050E+07	 8.11352286E-01	-9.47884363E-02
5.44315130E+07	 8.10752553E-01	-1.00036067E-01
5.44437210E+07	 8.10108513E-01	-1.05260332E-01
5.44559290E+07	 8.09445389E-01	-1.10497164E-01
5.44681371E+07	 8.08743576E-01	-1.15737305E-01
5.44803451E+07	 8.08000621E-01	-1.20963319E-01
5.44925531E+07	 8.07210897E-01	-1.26186355E-01
5.45047611E+07	 8.06406032E-01	-1.31397571E-01
5.45169692E+07	 8.05568672E-01	-1.36607542E-01
5.45291772E+07	 8.04693286E-01	-1.41804880E-01
5.45413852E+07	 8.03791634E-01	-1.47011336E-01
5.45535932E+07	 8.02837600E-01	-1.52190494E-01
5.45658013E+07	 8.01876913E-01	-1.57373458E-01
5.45780093E+07	 8.00862631E-01	-1.62575747E-01
5.45902173E+07	 7.99819586E-01	-1.67739818E-01
5.46024253E+07	 7.98721170E-01	-1.72910186E-01
5.46146334E+07	 7.97625242E-01	-1.78078531E-01
5.46268414E+07	 7.96476578E-01	-1.83229562E-01
5.46390494E+07	 7.95310831E-01	-1.88389073E-01
5.46512574E+07	 7.94090613E-01	-1.93518708E-01
5.46634655E+07	 7.92839623E-01	-1.98654886E-01
5.46756735E+07	 7.91555246E-01	-2.03781049E-01
5.46878815E+07	 7.90269062E-01	-2.08899455E-01
5.47000895E+07	 7.88905234E-01	-2.14004070E-01
5.47122976E+07	 7.87534399E-01	-2.19107292E-01
5.47245056E+07	 7.86113989E-01	-2.24194277E-01
5.47367136E+07	 7.84671050E-01	-2.29276226E-01
5.47489216E+07	 7.83200957E-01	-2.34337236E-01
5.47611296E+07	 7.81688293E-01	-2.39404154E-01
5.47733377E+07	 7.80136761E-01	-2.44477275E-01
5.47855457E+07	 7.78555548E-01	-2.49514916E-01
5.47977537E+07	 7.76956415E-01	-2.54542957E-01
5.48099617E+07	 7.75304226E-01	-2.59574098E-01
5.48221698E+07	 7.73633066E-01	-2.64586132E-01
5.48343778E+07	 7.71940354E-01	-2.69600749E-01
5.48465858E+07	 7.70183227E-01	-2.74584294E-01
5.48587938E+07	 7.68433399E-01	-2.79563356E-01
5.48710019E+07	 7.66621630E-01	-2.84523713E-01
5.48832099E+07	 7.64780200E-01	-2.89484701E-01
5.48954179E+07	 7.62897445E-01	-2.94437424E-01
5.49076259E+07	 7.60999427E-01	-2.99370274E-01
5.49198340E+07	 7.59063291E-01	-3.04283382E-01
5.49320420E+07	 7.57103255E-01	-3.09204283E-01
5.49442500E+07	 7.55090866E-01	-3.14094852E-01
5.49564580E+07	 7.53070637E-01	-3.18984217E-01
5.49686661E+07	 7.51011670E-01	-3.23843430E-01
5.49808741E+07	 7.48931248E-01	-3.28707962E-01
5.49930821E+07	 7.46794781E-01	-3.33546179E-01
5.50052901E+07	 7.44646208E-01	-3.38381768E-01
5.50174982E+07	 7.42455057E-01	-3.43192261E-01
5.50297062E+07	 7.40234841E-01	-3.47991222E-01
5.50419142E+07	 7.38001566E-01	-3.52767349E-01
5.50541222E+07	 7.35701375E-01	-3.57560382E-01
5.50663303E+07	 7.33379842E-01	-3.62305796E-01
5.50785383E+07	 7.31051051E-01	-3.67048469E-01
5.50907463E+07	 7.28665320E-01	-3.71776026E-01
5.51029543E+07	 7.26220234E-01	-3.76466787E-01
5.51151624E+07	 7.23832880E-01	-3.81184921E-01
5.51273704E+07	 7.21336292E-01	-3.85865976E-01
