! COPPER MOUNTAIN TECHNOLOGIES, PLANAR TR1300/1, 00071119, 20.2.2/1.0
! Date: 1/7/2024 7:28:13 PM
! Data: Format [Calibration Info]
! Freq          	S11: Re/Im F1                  
# HZ S RI R 50
5.00000000E+07	-2.77692568E-01	-1.40968949E-02
5.00122080E+07	-2.77709786E-01	-1.36866022E-02
5.00244160E+07	-2.77724155E-01	-1.32692009E-02
5.00366241E+07	-2.77741508E-01	-1.28608550E-02
5.00488321E+07	-2.77763837E-01	-1.24502922E-02
5.00610401E+07	-2.77778163E-01	-1.20362148E-02
5.00732481E+07	-2.77793585E-01	-1.16272319E-02
5.00854562E+07	-2.77810477E-01	-1.12150434E-02
5.00976642E+07	-2.77824412E-01	-1.08069288E-02
5.01098722E+07	-2.77841306E-01	-1.03950402E-02
5.01220802E+07	-2.77845028E-01	-9.98919094E-03
5.01342883E+07	-2.77862270E-01	-9.57748993E-03
5.01464963E+07	-2.77887444E-01	-9.16188415E-03
5.01587043E+07	-2.77892377E-01	-8.75445324E-03
5.01709123E+07	-2.77905098E-01	-8.34538197E-03
5.01831204E+07	-2.77915696E-01	-7.93294337E-03
5.01953284E+07	-2.77922085E-01	-7.52055583E-03
5.02075364E+07	-2.77925345E-01	-7.10680026E-03
5.02197444E+07	-2.77948741E-01	-6.69904516E-03
5.02319525E+07	-2.77951562E-01	-6.28641274E-03
5.02441605E+07	-2.77954797E-01	-5.87953472E-03
5.02563685E+07	-2.77963427E-01	-5.47082212E-03
5.02685765E+07	-2.77970998E-01	-5.05388926E-03
5.02807846E+07	-2.77977826E-01	-4.64785569E-03
5.02929926E+07	-2.77982829E-01	-4.23666055E-03
5.03052006E+07	-2.77991352E-01	-3.83046922E-03
5.03174086E+07	-2.77984481E-01	-3.41478315E-03
5.03296167E+07	-2.77985942E-01	-3.00723780E-03
5.03418247E+07	-2.77991126E-01	-2.59072278E-03
5.03540327E+07	-2.77987878E-01	-2.17755680E-03
5.03662407E+07	-2.77998124E-01	-1.77117384E-03
5.03784488E+07	-2.78002376E-01	-1.36266736E-03
5.03906568E+07	-2.78000588E-01	-9.48257523E-04
5.04028648E+07	-2.78000649E-01	-5.36633509E-04
5.04150728E+07	-2.77990097E-01	-1.34151854E-04
5.04272809E+07	-2.77996016E-01	 2.85436220E-04
5.04394889E+07	-2.77993175E-01	 6.90668728E-04
5.04516969E+07	-2.77997614E-01	 1.10421292E-03
5.04639049E+07	-2.77988498E-01	 1.51176530E-03
5.04761130E+07	-2.77984083E-01	 1.92883318E-03
5.04883210E+07	-2.77976431E-01	 2.34056002E-03
5.05005290E+07	-2.77972197E-01	 2.75372048E-03
5.05127370E+07	-2.77969203E-01	 3.15834101E-03
5.05249451E+07	-2.77958272E-01	 3.56929016E-03
5.05371531E+07	-2.77960590E-01	 3.97960706E-03
5.05493611E+07	-2.77946249E-01	 4.39523104E-03
5.05615691E+07	-2.77939222E-01	 4.80299236E-03
5.05737772E+07	-2.77925347E-01	 5.21150522E-03
5.05859852E+07	-2.77916654E-01	 5.62031303E-03
5.05981932E+07	-2.77909810E-01	 6.03201710E-03
5.06104012E+07	-2.77898482E-01	 6.43856360E-03
5.06226093E+07	-2.77881595E-01	 6.85733016E-03
5.06348173E+07	-2.77873694E-01	 7.26701235E-03
5.06470253E+07	-2.77859954E-01	 7.67732850E-03
5.06592333E+07	-2.77846088E-01	 8.08898820E-03
5.06714414E+07	-2.77832104E-01	 8.49808932E-03
5.06836494E+07	-2.77818000E-01	 8.91125851E-03
5.06958574E+07	-2.77804993E-01	 9.31487761E-03
5.07080654E+07	-2.77784155E-01	 9.73234237E-03
5.07202735E+07	-2.77773568E-01	 1.01370179E-02
5.07324815E+07	-2.77756077E-01	 1.05605065E-02
5.07446895E+07	-2.77741193E-01	 1.09618481E-02
5.07568975E+07	-2.77711531E-01	 1.13689538E-02
5.07691056E+07	-2.77701551E-01	 1.17805801E-02
5.07813136E+07	-2.77683263E-01	 1.21916449E-02
5.07935216E+07	-2.77660034E-01	 1.25986288E-02
5.08057296E+07	-2.77634312E-01	 1.30131935E-02
5.08179377E+07	-2.77620357E-01	 1.34231429E-02
5.08301457E+07	-2.77600020E-01	 1.38375344E-02
5.08423537E+07	-2.77571718E-01	 1.42494634E-02
5.08545617E+07	-2.77548874E-01	 1.46496992E-02
5.08667698E+07	-2.77523568E-01	 1.50594998E-02
5.08789778E+07	-2.77501434E-01	 1.54770667E-02
5.08911858E+07	-2.77474569E-01	 1.58815429E-02
5.09033938E+07	-2.77452117E-01	 1.62926236E-02
5.09156019E+07	-2.77418582E-01	 1.67005417E-02
5.09278099E+07	-2.77401320E-01	 1.70994063E-02
5.09400179E+07	-2.77367681E-01	 1.75232266E-02
5.09522259E+07	-2.77338545E-01	 1.79310344E-02
5.09644340E+07	-2.77308235E-01	 1.83424956E-02
5.09766420E+07	-2.77283378E-01	 1.87451116E-02
5.09888500E+07	-2.77255789E-01	 1.91596267E-02
5.10010580E+07	-2.77216712E-01	 1.95728622E-02
5.10132661E+07	-2.77191152E-01	 1.99773809E-02
5.10254741E+07	-2.77159143E-01	 2.03879335E-02
5.10376821E+07	-2.77128790E-01	 2.07928941E-02
5.10498901E+07	-2.77080078E-01	 2.12026497E-02
5.10620982E+07	-2.77056192E-01	 2.16196049E-02
5.10743062E+07	-2.77021573E-01	 2.20273950E-02
5.10865142E+07	-2.76994526E-01	 2.24301876E-02
5.10987222E+07	-2.76953317E-01	 2.28303930E-02
5.11109303E+07	-2.76908773E-01	 2.32402364E-02
5.11231383E+07	-2.76874690E-01	 2.36560114E-02
5.11353463E+07	-2.76836404E-01	 2.40613072E-02
5.11475543E+07	-2.76803072E-01	 2.44790851E-02
5.11597624E+07	-2.76757233E-01	 2.48689655E-02
5.11719704E+07	-2.76726663E-01	 2.52902094E-02
5.11841784E+07	-2.76680046E-01	 2.56927749E-02
5.11963864E+07	-2.76643910E-01	 2.61071540E-02
5.12085944E+07	-2.76604855E-01	 2.65160945E-02
5.12208025E+07	-2.76553364E-01	 2.69207289E-02
5.12330105E+07	-2.76512496E-01	 2.73324286E-02
5.12452185E+07	-2.76466569E-01	 2.77409846E-02
5.12574265E+07	-2.76425965E-01	 2.81452289E-02
5.12696346E+07	-2.76383551E-01	 2.85516374E-02
5.12818426E+07	-2.76335535E-01	 2.89574704E-02
5.12940506E+07	-2.76291435E-01	 2.93650142E-02
5.13062586E+07	-2.76248167E-01	 2.97703887E-02
5.13184667E+07	-2.76199176E-01	 3.01755371E-02
5.13306747E+07	-2.76146261E-01	 3.05949848E-02
5.13428827E+07	-2.76101147E-01	 3.09943951E-02
5.13550907E+07	-2.76051824E-01	 3.13948861E-02
5.13672988E+07	-2.76004783E-01	 3.18082553E-02
5.13795068E+07	-2.75958830E-01	 3.22225311E-02
5.13917148E+07	-2.75908374E-01	 3.26258601E-02
5.14039228E+07	-2.75861594E-01	 3.30286149E-02
5.14161309E+07	-2.75803477E-01	 3.34368994E-02
5.14283389E+07	-2.75753385E-01	 3.38405476E-02
5.14405469E+07	-2.75699748E-01	 3.42535807E-02
5.14527549E+07	-2.75644801E-01	 3.46552290E-02
5.14649630E+07	-2.75587186E-01	 3.50634749E-02
5.14771710E+07	-2.75535463E-01	 3.54674615E-02
5.14893790E+07	-2.75476510E-01	 3.58747693E-02
5.15015870E+07	-2.75424417E-01	 3.62768145E-02
5.15137951E+07	-2.75371678E-01	 3.66859885E-02
5.15260031E+07	-2.75314115E-01	 3.70992111E-02
5.15382111E+07	-2.75251982E-01	 3.75020145E-02
5.15504191E+07	-2.75191358E-01	 3.79050551E-02
5.15626272E+07	-2.75132057E-01	 3.83026067E-02
5.15748352E+07	-2.75070272E-01	 3.87149260E-02
5.15870432E+07	-2.75012733E-01	 3.91210213E-02
5.15992512E+07	-2.74954708E-01	 3.95290532E-02
5.16114593E+07	-2.74895046E-01	 3.99354417E-02
5.16236673E+07	-2.74827159E-01	 4.03411381E-02
5.16358753E+07	-2.74771415E-01	 4.07466165E-02
5.16480833E+07	-2.74706771E-01	 4.11497666E-02
5.16602914E+07	-2.74637905E-01	 4.15593342E-02
5.16724994E+07	-2.74570389E-01	 4.19571893E-02
5.16847074E+07	-2.74510172E-01	 4.23695950E-02
5.16969154E+07	-2.74434038E-01	 4.27634537E-02
5.17091235E+07	-2.74376939E-01	 4.31702207E-02
5.17213315E+07	-2.74310260E-01	 4.35802552E-02
5.17335395E+07	-2.74236558E-01	 4.39807963E-02
5.17457475E+07	-2.74173448E-01	 4.43874083E-02
5.17579556E+07	-2.74108224E-01	 4.47914576E-02
5.17701636E+07	-2.74032474E-01	 4.51975018E-02
5.17823716E+07	-2.73964616E-01	 4.55988666E-02
5.17945796E+07	-2.73893199E-01	 4.60024591E-02
5.18067877E+07	-2.73826764E-01	 4.64074613E-02
5.18189957E+07	-2.73753004E-01	 4.68076865E-02
5.18312037E+07	-2.73676308E-01	 4.72118187E-02
5.18434117E+07	-2.73607178E-01	 4.76170329E-02
5.18556198E+07	-2.73532518E-01	 4.80194095E-02
5.18678278E+07	-2.73460284E-01	 4.84213993E-02
5.18800358E+07	-2.73382509E-01	 4.88224166E-02
5.18922438E+07	-2.73307991E-01	 4.92349012E-02
5.19044519E+07	-2.73232750E-01	 4.96303218E-02
5.19166599E+07	-2.73157110E-01	 5.00307820E-02
5.19288679E+07	-2.73079720E-01	 5.04313194E-02
5.19410759E+07	-2.73004994E-01	 5.08366815E-02
5.19532840E+07	-2.72926609E-01	 5.12388649E-02
5.19654920E+07	-2.72840137E-01	 5.16411239E-02
5.19777000E+07	-2.72765755E-01	 5.20367045E-02
5.19899080E+07	-2.72682356E-01	 5.24484651E-02
5.20021161E+07	-2.72603386E-01	 5.28449043E-02
5.20143241E+07	-2.72521419E-01	 5.32498063E-02
5.20265321E+07	-2.72441898E-01	 5.36479409E-02
5.20387401E+07	-2.72359284E-01	 5.40562900E-02
5.20509482E+07	-2.72274984E-01	 5.44560673E-02
5.20631562E+07	-2.72189619E-01	 5.48496724E-02
5.20753642E+07	-2.72110051E-01	 5.52558767E-02
5.20875722E+07	-2.72025879E-01	 5.56561964E-02
5.20997803E+07	-2.71935762E-01	 5.60549785E-02
5.21119883E+07	-2.71855169E-01	 5.64608725E-02
5.21241963E+07	-2.71757829E-01	 5.68598120E-02
5.21364043E+07	-2.71677655E-01	 5.72572639E-02
5.21486124E+07	-2.71585537E-01	 5.76607526E-02
5.21608204E+07	-2.71497057E-01	 5.80659068E-02
5.21730284E+07	-2.71413203E-01	 5.84611099E-02
5.21852364E+07	-2.71320428E-01	 5.88521253E-02
5.21974445E+07	-2.71226571E-01	 5.92624714E-02
5.22096525E+07	-2.71141599E-01	 5.96620672E-02
5.22218605E+07	-2.71050767E-01	 6.00632342E-02
5.22340685E+07	-2.70957145E-01	 6.04571586E-02
5.22462766E+07	-2.70864960E-01	 6.08533496E-02
5.22584846E+07	-2.70768390E-01	 6.12536244E-02
5.22706926E+07	-2.70677038E-01	 6.16586360E-02
5.22829006E+07	-2.70578738E-01	 6.20515706E-02
5.22951087E+07	-2.70484090E-01	 6.24531473E-02
5.23073167E+07	-2.70394359E-01	 6.28492888E-02
5.23195247E+07	-2.70298462E-01	 6.32480092E-02
5.23317327E+07	-2.70200720E-01	 6.36404953E-02
5.23439408E+07	-2.70100939E-01	 6.40422534E-02
5.23561488E+07	-2.70001242E-01	 6.44413496E-02
5.23683568E+07	-2.69906807E-01	 6.48319931E-02
5.23805648E+07	-2.69804194E-01	 6.52328675E-02
5.23927728E+07	-2.69708723E-01	 6.56277820E-02
5.24049809E+07	-2.69606988E-01	 6.60343968E-02
5.24171889E+07	-2.69507514E-01	 6.64364368E-02
5.24293969E+07	-2.69406209E-01	 6.68213971E-02
5.24416049E+07	-2.69303509E-01	 6.72202491E-02
5.24538130E+07	-2.69198594E-01	 6.76218557E-02
5.24660210E+07	-2.69095856E-01	 6.80153367E-02
5.24782290E+07	-2.68993699E-01	 6.84072543E-02
5.24904370E+07	-2.68893959E-01	 6.88135485E-02
5.25026451E+07	-2.68781279E-01	 6.92058833E-02
5.25148531E+07	-2.68670520E-01	 6.95950199E-02
5.25270611E+07	-2.68571307E-01	 6.99922588E-02
5.25392691E+07	-2.68465049E-01	 7.03962937E-02
5.25514772E+07	-2.68354734E-01	 7.07900886E-02
5.25636852E+07	-2.68244068E-01	 7.11813437E-02
5.25758932E+07	-2.68143320E-01	 7.15772178E-02
5.25881012E+07	-2.68031244E-01	 7.19657257E-02
5.26003093E+07	-2.67922641E-01	 7.23669740E-02
5.26125173E+07	-2.67817776E-01	 7.27543085E-02
5.26247253E+07	-2.67707553E-01	 7.31464755E-02
5.26369333E+07	-2.67590471E-01	 7.35433016E-02
5.26491414E+07	-2.67478133E-01	 7.39374809E-02
5.26613494E+07	-2.67363946E-01	 7.43336662E-02
5.26735574E+07	-2.67256851E-01	 7.47230044E-02
5.26857654E+07	-2.67138639E-01	 7.51153308E-02
5.26979735E+07	-2.67021340E-01	 7.55078344E-02
5.27101815E+07	-2.66902861E-01	 7.59071250E-02
5.27223895E+07	-2.66793894E-01	 7.62964060E-02
5.27345975E+07	-2.66680017E-01	 7.66901383E-02
5.27468056E+07	-2.66560146E-01	 7.70753440E-02
5.27590136E+07	-2.66442749E-01	 7.74767467E-02
5.27712216E+07	-2.66321441E-01	 7.78653571E-02
5.27834296E+07	-2.66208374E-01	 7.82572874E-02
5.27956377E+07	-2.66093044E-01	 7.86488401E-02
5.28078457E+07	-2.65963036E-01	 7.90390109E-02
5.28200537E+07	-2.65851137E-01	 7.94329843E-02
5.28322617E+07	-2.65719794E-01	 7.98234723E-02
5.28444698E+07	-2.65605600E-01	 8.02128672E-02
5.28566778E+07	-2.65483996E-01	 8.05977754E-02
5.28688858E+07	-2.65366316E-01	 8.09957176E-02
5.28810938E+07	-2.65236043E-01	 8.13888581E-02
5.28933019E+07	-2.65113248E-01	 8.17782285E-02
5.29055099E+07	-2.64994496E-01	 8.21699295E-02
5.29177179E+07	-2.64864020E-01	 8.25568782E-02
5.29299259E+07	-2.64739392E-01	 8.29442422E-02
5.29421340E+07	-2.64617668E-01	 8.33391853E-02
5.29543420E+07	-2.64487611E-01	 8.37221382E-02
5.29665500E+07	-2.64361609E-01	 8.41097451E-02
5.29787580E+07	-2.64232293E-01	 8.44979423E-02
5.29909661E+07	-2.64105809E-01	 8.48859975E-02
5.30031741E+07	-2.63977123E-01	 8.52767705E-02
5.30153821E+07	-2.63843622E-01	 8.56653874E-02
5.30275901E+07	-2.63717870E-01	 8.60558238E-02
5.30397982E+07	-2.63584555E-01	 8.64421042E-02
5.30520062E+07	-2.63453409E-01	 8.68240875E-02
5.30642142E+07	-2.63326577E-01	 8.72166779E-02
5.30764222E+07	-2.63193366E-01	 8.76019520E-02
5.30886303E+07	-2.63053918E-01	 8.79955482E-02
5.31008383E+07	-2.62925953E-01	 8.83799982E-02
5.31130463E+07	-2.62785932E-01	 8.87572049E-02
5.31252543E+07	-2.62653552E-01	 8.91471240E-02
5.31374624E+07	-2.62518837E-01	 8.95416389E-02
5.31496704E+07	-2.62382917E-01	 8.99238882E-02
5.31618784E+07	-2.62254635E-01	 9.03116802E-02
5.31740864E+07	-2.62108581E-01	 9.06968037E-02
5.31862945E+07	-2.61968886E-01	 9.10798669E-02
5.31985025E+07	-2.61830210E-01	 9.14685636E-02
5.32107105E+07	-2.61693313E-01	 9.18518107E-02
5.32229185E+07	-2.61554830E-01	 9.22345292E-02
5.32351266E+07	-2.61411229E-01	 9.26241143E-02
5.32473346E+07	-2.61277686E-01	 9.29998194E-02
5.32595426E+07	-2.61136168E-01	 9.33873197E-02
5.32717506E+07	-2.60992746E-01	 9.37694885E-02
5.32839587E+07	-2.60853080E-01	 9.41621128E-02
5.32961667E+07	-2.60708605E-01	 9.45423266E-02
5.33083747E+07	-2.60564212E-01	 9.49236103E-02
5.33205827E+07	-2.60420722E-01	 9.53047152E-02
5.33327908E+07	-2.60283129E-01	 9.56896395E-02
5.33449988E+07	-2.60133510E-01	 9.60653872E-02
5.33572068E+07	-2.59980502E-01	 9.64530848E-02
5.33694148E+07	-2.59841935E-01	 9.68390086E-02
5.33816229E+07	-2.59694594E-01	 9.72132492E-02
5.33938309E+07	-2.59543263E-01	 9.76073564E-02
5.34060389E+07	-2.59398519E-01	 9.79835276E-02
5.34182469E+07	-2.59249382E-01	 9.83584872E-02
5.34304550E+07	-2.59101565E-01	 9.87420111E-02
5.34426630E+07	-2.58948079E-01	 9.91243742E-02
5.34548710E+07	-2.58805376E-01	 9.95040913E-02
5.34670790E+07	-2.58647363E-01	 9.98809547E-02
5.34792871E+07	-2.58496386E-01	 1.00262334E-01
5.34914951E+07	-2.58348403E-01	 1.00644355E-01
5.35037031E+07	-2.58192703E-01	 1.01021593E-01
5.35159111E+07	-2.58041679E-01	 1.01399467E-01
5.35281192E+07	-2.57893886E-01	 1.01780452E-01
5.35403272E+07	-2.57730724E-01	 1.02160235E-01
5.35525352E+07	-2.57583737E-01	 1.02536448E-01
5.35647432E+07	-2.57424148E-01	 1.02919099E-01
5.35769512E+07	-2.57267462E-01	 1.03298293E-01
5.35891593E+07	-2.57109195E-01	 1.03672525E-01
5.36013673E+07	-2.56953581E-01	 1.04048116E-01
5.36135753E+07	-2.56795584E-01	 1.04423151E-01
5.36257833E+07	-2.56637044E-01	 1.04807129E-01
5.36379914E+07	-2.56478140E-01	 1.05178428E-01
5.36501994E+07	-2.56327598E-01	 1.05558468E-01
5.36624074E+07	-2.56163936E-01	 1.05940924E-01
5.36746154E+07	-2.56001367E-01	 1.06312282E-01
5.36868235E+07	-2.55840343E-01	 1.06684727E-01
5.36990315E+07	-2.55679163E-01	 1.07066782E-01
5.37112395E+07	-2.55512439E-01	 1.07431832E-01
5.37234475E+07	-2.55353132E-01	 1.07825111E-01
5.37356556E+07	-2.55192164E-01	 1.08190785E-01
5.37478636E+07	-2.55026562E-01	 1.08563135E-01
5.37600716E+07	-2.54861366E-01	 1.08941152E-01
5.37722796E+07	-2.54699174E-01	 1.09311277E-01
5.37844877E+07	-2.54530886E-01	 1.09682275E-01
5.37966957E+07	-2.54364357E-01	 1.10061189E-01
5.38089037E+07	-2.54197528E-01	 1.10431364E-01
5.38211117E+07	-2.54032894E-01	 1.10802458E-01
5.38333198E+07	-2.53869679E-01	 1.11178203E-01
5.38455278E+07	-2.53698092E-01	 1.11555477E-01
5.38577358E+07	-2.53527866E-01	 1.11924573E-01
5.38699438E+07	-2.53358627E-01	 1.12294073E-01
5.38821519E+07	-2.53187533E-01	 1.12664698E-01
5.38943599E+07	-2.53018447E-01	 1.13038059E-01
5.39065679E+07	-2.52849345E-01	 1.13408488E-01
5.39187759E+07	-2.52677666E-01	 1.13781908E-01
5.39309840E+07	-2.52511094E-01	 1.14163776E-01
5.39431920E+07	-2.52341135E-01	 1.14527372E-01
5.39554000E+07	-2.52164006E-01	 1.14892694E-01
5.39676080E+07	-2.51989442E-01	 1.15264119E-01
5.39798161E+07	-2.51811387E-01	 1.15629311E-01
5.39920241E+07	-2.51644824E-01	 1.16006205E-01
5.40042321E+07	-2.51469616E-01	 1.16374609E-01
5.40164401E+07	-2.51293698E-01	 1.16740112E-01
5.40286482E+07	-2.51115776E-01	 1.17109118E-01
5.40408562E+07	-2.50937046E-01	 1.17474780E-01
5.40530642E+07	-2.50756528E-01	 1.17848666E-01
5.40652722E+07	-2.50583326E-01	 1.18215615E-01
5.40774803E+07	-2.50402359E-01	 1.18585709E-01
5.40896883E+07	-2.50228232E-01	 1.18947581E-01
5.41018963E+07	-2.50041401E-01	 1.19318659E-01
5.41141043E+07	-2.49858292E-01	 1.19688906E-01
5.41263124E+07	-2.49681725E-01	 1.20051117E-01
5.41385204E+07	-2.49503823E-01	 1.20417302E-01
5.41507284E+07	-2.49321050E-01	 1.20784803E-01
5.41629364E+07	-2.49130883E-01	 1.21146187E-01
5.41751445E+07	-2.48955732E-01	 1.21515557E-01
5.41873525E+07	-2.48768352E-01	 1.21876076E-01
5.41995605E+07	-2.48583379E-01	 1.22244862E-01
5.42117685E+07	-2.48401236E-01	 1.22606641E-01
5.42239766E+07	-2.48215759E-01	 1.22966764E-01
5.42361846E+07	-2.48028359E-01	 1.23334046E-01
5.42483926E+07	-2.47852188E-01	 1.23704027E-01
5.42606006E+07	-2.47658486E-01	 1.24062317E-01
5.42728087E+07	-2.47474008E-01	 1.24426044E-01
5.42850167E+07	-2.47278058E-01	 1.24789432E-01
5.42972247E+07	-2.47096973E-01	 1.25157023E-01
5.43094327E+07	-2.46902431E-01	 1.25512641E-01
5.43216408E+07	-2.46712577E-01	 1.25884841E-01
5.43338488E+07	-2.46520815E-01	 1.26237499E-01
5.43460568E+07	-2.46336800E-01	 1.26602020E-01
5.43582648E+07	-2.46141950E-01	 1.26960439E-01
5.43704729E+07	-2.45950624E-01	 1.27323866E-01
5.43826809E+07	-2.45760406E-01	 1.27686434E-01
5.43948889E+07	-2.45567188E-01	 1.28049052E-01
5.44070969E+07	-2.45373545E-01	 1.28402806E-01
5.44193050E+07	-2.45176415E-01	 1.28760872E-01
5.44315130E+07	-2.44989562E-01	 1.29122800E-01
5.44437210E+07	-2.44789827E-01	 1.29485660E-01
5.44559290E+07	-2.44597599E-01	 1.29839844E-01
5.44681371E+07	-2.44404218E-01	 1.30197689E-01
5.44803451E+07	-2.44199358E-01	 1.30564666E-01
5.44925531E+07	-2.44006168E-01	 1.30922432E-01
5.45047611E+07	-2.43811851E-01	 1.31273532E-01
5.45169692E+07	-2.43610235E-01	 1.31632878E-01
5.45291772E+07	-2.43412793E-01	 1.31986550E-01
5.45413852E+07	-2.43214528E-01	 1.32357978E-01
5.45535932E+07	-2.43015365E-01	 1.32700445E-01
5.45658013E+07	-2.42817742E-01	 1.33057081E-01
5.45780093E+07	-2.42614385E-01	 1.33413658E-01
5.45902173E+07	-2.42411998E-01	 1.33769042E-01
5.46024253E+07	-2.42211343E-01	 1.34120343E-01
5.46146334E+07	-2.42003300E-01	 1.34478262E-01
5.46268414E+07	-2.41798761E-01	 1.34833243E-01
5.46390494E+07	-2.41604037E-01	 1.35190452E-01
5.46512574E+07	-2.41400078E-01	 1.35543232E-01
5.46634655E+07	-2.41194620E-01	 1.35903663E-01
5.46756735E+07	-2.40988646E-01	 1.36248181E-01
5.46878815E+07	-2.40782176E-01	 1.36600808E-01
5.47000895E+07	-2.40571360E-01	 1.36958271E-01
5.47122976E+07	-2.40368094E-01	 1.37310541E-01
5.47245056E+07	-2.40159015E-01	 1.37661749E-01
5.47367136E+07	-2.39951378E-01	 1.38009982E-01
5.47489216E+07	-2.39750323E-01	 1.38361129E-01
5.47611296E+07	-2.39536969E-01	 1.38711186E-01
5.47733377E+07	-2.39329604E-01	 1.39063239E-01
5.47855457E+07	-2.39118014E-01	 1.39416220E-01
5.47977537E+07	-2.38909116E-01	 1.39762088E-01
5.48099617E+07	-2.38698733E-01	 1.40115448E-01
5.48221698E+07	-2.38486065E-01	 1.40463991E-01
5.48343778E+07	-2.38276915E-01	 1.40818097E-01
5.48465858E+07	-2.38068378E-01	 1.41155376E-01
5.48587938E+07	-2.37849990E-01	 1.41512398E-01
5.48710019E+07	-2.37638277E-01	 1.41861417E-01
5.48832099E+07	-2.37426611E-01	 1.42212109E-01
5.48954179E+07	-2.37209422E-01	 1.42561398E-01
5.49076259E+07	-2.36993801E-01	 1.42908110E-01
5.49198340E+07	-2.36782113E-01	 1.43250919E-01
5.49320420E+07	-2.36564886E-01	 1.43601863E-01
5.49442500E+07	-2.36342163E-01	 1.43945341E-01
5.49564580E+07	-2.36130265E-01	 1.44295629E-01
5.49686661E+07	-2.35911517E-01	 1.44631887E-01
5.49808741E+07	-2.35700500E-01	 1.44978442E-01
5.49930821E+07	-2.35477783E-01	 1.45321372E-01
5.50052901E+07	-2.35255977E-01	 1.45672007E-01
5.50174982E+07	-2.35043505E-01	 1.46022649E-01
5.50297062E+07	-2.34825858E-01	 1.46354173E-01
5.50419142E+07	-2.34608155E-01	 1.46696735E-01
5.50541222E+07	-2.34376950E-01	 1.47046483E-01
5.50663303E+07	-2.34153692E-01	 1.47383343E-01
5.50785383E+07	-2.33935196E-01	 1.47727651E-01
5.50907463E+07	-2.33704623E-01	 1.48072941E-01
5.51029543E+07	-2.33489815E-01	 1.48414418E-01
5.51151624E+07	-2.33265406E-01	 1.48755463E-01
5.51273704E+07	-2.33039772E-01	 1.49097330E-01
