! COPPER MOUNTAIN TECHNOLOGIES, PLANAR TR1300/1, 00071119, 20.2.2/1.0
! Date: 1/7/2024 7:18:34 PM
! Data: Format [Calibration Info]
! Freq          	S11: Re/Im F1                  
# HZ S RI R 50
5.00000000E+07	-1.44198053E-01	-2.77467818E-03
5.00122080E+07	-1.44200924E-01	-2.56494069E-03
5.00244160E+07	-1.44203301E-01	-2.34983421E-03
5.00366241E+07	-1.44210279E-01	-2.14533483E-03
5.00488321E+07	-1.44212685E-01	-1.93113007E-03
5.00610401E+07	-1.44216525E-01	-1.71575937E-03
5.00732481E+07	-1.44215760E-01	-1.50954345E-03
5.00854562E+07	-1.44219855E-01	-1.29672209E-03
5.00976642E+07	-1.44222066E-01	-1.09295884E-03
5.01098722E+07	-1.44222109E-01	-8.78545741E-04
5.01220802E+07	-1.44222562E-01	-6.73777916E-04
5.01342883E+07	-1.44222253E-01	-4.62329931E-04
5.01464963E+07	-1.44227267E-01	-2.49818348E-04
5.01587043E+07	-1.44225802E-01	-4.03997933E-05
5.01709123E+07	-1.44229640E-01	 1.70164629E-04
5.01831204E+07	-1.44227180E-01	 3.77625203E-04
5.01953284E+07	-1.44222054E-01	 5.92808119E-04
5.02075364E+07	-1.44220582E-01	 8.01296439E-04
5.02197444E+07	-1.44230942E-01	 1.00719325E-03
5.02319525E+07	-1.44226839E-01	 1.22249036E-03
5.02441605E+07	-1.44217877E-01	 1.42748271E-03
5.02563685E+07	-1.44219779E-01	 1.64028395E-03
5.02685765E+07	-1.44216850E-01	 1.85415735E-03
5.02807846E+07	-1.44213417E-01	 2.05983568E-03
5.02929926E+07	-1.44210241E-01	 2.27565826E-03
5.03052006E+07	-1.44209215E-01	 2.48015440E-03
5.03174086E+07	-1.44202354E-01	 2.69601624E-03
5.03296167E+07	-1.44200587E-01	 2.89985262E-03
5.03418247E+07	-1.44194714E-01	 3.11023946E-03
5.03540327E+07	-1.44188854E-01	 3.32255343E-03
5.03662407E+07	-1.44188080E-01	 3.53668633E-03
5.03784488E+07	-1.44183490E-01	 3.74000765E-03
5.03906568E+07	-1.44177344E-01	 3.95292968E-03
5.04028648E+07	-1.44171072E-01	 4.16230389E-03
5.04150728E+07	-1.44164336E-01	 4.36710348E-03
5.04272809E+07	-1.44157636E-01	 4.58509172E-03
5.04394889E+07	-1.44146964E-01	 4.79042666E-03
5.04516969E+07	-1.44152051E-01	 4.99760102E-03
5.04639049E+07	-1.44136120E-01	 5.20585706E-03
5.04761130E+07	-1.44130528E-01	 5.42509603E-03
5.04883210E+07	-1.44119198E-01	 5.63583050E-03
5.05005290E+07	-1.44113770E-01	 5.84694947E-03
5.05127370E+07	-1.44102539E-01	 6.05492105E-03
5.05249451E+07	-1.44094588E-01	 6.26331463E-03
5.05371531E+07	-1.44087502E-01	 6.47434001E-03
5.05493611E+07	-1.44074930E-01	 6.68547204E-03
5.05615691E+07	-1.44064613E-01	 6.89560597E-03
5.05737772E+07	-1.44050373E-01	 7.10255040E-03
5.05859852E+07	-1.44044840E-01	 7.30890459E-03
5.05981932E+07	-1.44031464E-01	 7.52089098E-03
5.06104012E+07	-1.44022013E-01	 7.73192577E-03
5.06226093E+07	-1.44012467E-01	 7.94421890E-03
5.06348173E+07	-1.44001990E-01	 8.15522009E-03
5.06470253E+07	-1.43983200E-01	 8.36272464E-03
5.06592333E+07	-1.43974369E-01	 8.56944525E-03
5.06714414E+07	-1.43958080E-01	 8.78123135E-03
5.06836494E+07	-1.43947998E-01	 8.99013499E-03
5.06958574E+07	-1.43936025E-01	 9.19797057E-03
5.07080654E+07	-1.43922903E-01	 9.41409133E-03
5.07202735E+07	-1.43911224E-01	 9.62057181E-03
5.07324815E+07	-1.43895607E-01	 9.83437797E-03
5.07446895E+07	-1.43879740E-01	 1.00341303E-02
5.07568975E+07	-1.43859668E-01	 1.02495637E-02
5.07691056E+07	-1.43844451E-01	 1.04562214E-02
5.07813136E+07	-1.43833648E-01	 1.06642030E-02
5.07935216E+07	-1.43817773E-01	 1.08760853E-02
5.08057296E+07	-1.43794707E-01	 1.10823514E-02
5.08179377E+07	-1.43782102E-01	 1.12912048E-02
5.08301457E+07	-1.43770383E-01	 1.15039547E-02
5.08423537E+07	-1.43750478E-01	 1.17137351E-02
5.08545617E+07	-1.43730158E-01	 1.19190881E-02
5.08667698E+07	-1.43710022E-01	 1.21386064E-02
5.08789778E+07	-1.43694032E-01	 1.23435708E-02
5.08911858E+07	-1.43681909E-01	 1.25484973E-02
5.09033938E+07	-1.43657187E-01	 1.27596747E-02
5.09156019E+07	-1.43637352E-01	 1.29697435E-02
5.09278099E+07	-1.43622250E-01	 1.31721415E-02
5.09400179E+07	-1.43598219E-01	 1.33926673E-02
5.09522259E+07	-1.43573587E-01	 1.35953755E-02
5.09644340E+07	-1.43562670E-01	 1.38038075E-02
5.09766420E+07	-1.43541002E-01	 1.40113575E-02
5.09888500E+07	-1.43519383E-01	 1.42263776E-02
5.10010580E+07	-1.43492528E-01	 1.44384827E-02
5.10132661E+07	-1.43477017E-01	 1.46393432E-02
5.10254741E+07	-1.43456375E-01	 1.48469763E-02
5.10376821E+07	-1.43433705E-01	 1.50531526E-02
5.10498901E+07	-1.43400595E-01	 1.52593180E-02
5.10620982E+07	-1.43384819E-01	 1.54818421E-02
5.10743062E+07	-1.43357343E-01	 1.56878244E-02
5.10865142E+07	-1.43340062E-01	 1.58929693E-02
5.10987222E+07	-1.43312599E-01	 1.60986793E-02
5.11109303E+07	-1.43282788E-01	 1.63081406E-02
5.11231383E+07	-1.43259829E-01	 1.65190641E-02
5.11353463E+07	-1.43235057E-01	 1.67176018E-02
5.11475543E+07	-1.43211666E-01	 1.69365087E-02
5.11597624E+07	-1.43183341E-01	 1.71417008E-02
5.11719704E+07	-1.43160643E-01	 1.73506308E-02
5.11841784E+07	-1.43131187E-01	 1.75560499E-02
5.11963864E+07	-1.43105703E-01	 1.77674171E-02
5.12085944E+07	-1.43079968E-01	 1.79729648E-02
5.12208025E+07	-1.43048285E-01	 1.81776765E-02
5.12330105E+07	-1.43021528E-01	 1.83883135E-02
5.12452185E+07	-1.42995342E-01	 1.86005140E-02
5.12574265E+07	-1.42968189E-01	 1.88045198E-02
5.12696346E+07	-1.42938885E-01	 1.90133677E-02
5.12818426E+07	-1.42908793E-01	 1.92213554E-02
5.12940506E+07	-1.42878133E-01	 1.94268958E-02
5.13062586E+07	-1.42852789E-01	 1.96391275E-02
5.13184667E+07	-1.42823465E-01	 1.98459885E-02
5.13306747E+07	-1.42787344E-01	 2.00548216E-02
5.13428827E+07	-1.42763240E-01	 2.02596656E-02
5.13550907E+07	-1.42727036E-01	 2.04637037E-02
5.13672988E+07	-1.42698722E-01	 2.06794827E-02
5.13795068E+07	-1.42665689E-01	 2.08852894E-02
5.13917148E+07	-1.42635692E-01	 2.10876332E-02
5.14039228E+07	-1.42602039E-01	 2.12949590E-02
5.14161309E+07	-1.42571802E-01	 2.15047930E-02
5.14283389E+07	-1.42536924E-01	 2.17111110E-02
5.14405469E+07	-1.42507716E-01	 2.19229087E-02
5.14527549E+07	-1.42474575E-01	 2.21230108E-02
5.14649630E+07	-1.42437530E-01	 2.23336476E-02
5.14771710E+07	-1.42403801E-01	 2.25432714E-02
5.14893790E+07	-1.42365317E-01	 2.27489954E-02
5.15015870E+07	-1.42332471E-01	 2.29541372E-02
5.15137951E+07	-1.42303641E-01	 2.31550279E-02
5.15260031E+07	-1.42268008E-01	 2.33709711E-02
5.15382111E+07	-1.42229667E-01	 2.35757584E-02
5.15504191E+07	-1.42190240E-01	 2.37800314E-02
5.15626272E+07	-1.42156388E-01	 2.39855982E-02
5.15748352E+07	-1.42118085E-01	 2.41935106E-02
5.15870432E+07	-1.42085929E-01	 2.44065645E-02
5.15992512E+07	-1.42049599E-01	 2.46093347E-02
5.16114593E+07	-1.42015450E-01	 2.48150564E-02
5.16236673E+07	-1.41969822E-01	 2.50194204E-02
5.16358753E+07	-1.41939469E-01	 2.52286806E-02
5.16480833E+07	-1.41902713E-01	 2.54283777E-02
5.16602914E+07	-1.41861808E-01	 2.56412567E-02
5.16724994E+07	-1.41820609E-01	 2.58446962E-02
5.16847074E+07	-1.41779779E-01	 2.60573540E-02
5.16969154E+07	-1.41739318E-01	 2.62567544E-02
5.17091235E+07	-1.41706377E-01	 2.64641105E-02
5.17213315E+07	-1.41660586E-01	 2.66748985E-02
5.17335395E+07	-1.41618138E-01	 2.68744064E-02
5.17457475E+07	-1.41579573E-01	 2.70823499E-02
5.17579556E+07	-1.41545153E-01	 2.72870943E-02
5.17701636E+07	-1.41497104E-01	 2.74939414E-02
5.17823716E+07	-1.41455283E-01	 2.76960389E-02
5.17945796E+07	-1.41416015E-01	 2.79046425E-02
5.18067877E+07	-1.41375108E-01	 2.81112574E-02
5.18189957E+07	-1.41328246E-01	 2.83136266E-02
5.18312037E+07	-1.41284337E-01	 2.85163378E-02
5.18434117E+07	-1.41244312E-01	 2.87236912E-02
5.18556198E+07	-1.41197479E-01	 2.89322533E-02
5.18678278E+07	-1.41160693E-01	 2.91285715E-02
5.18800358E+07	-1.41112567E-01	 2.93428845E-02
5.18922438E+07	-1.41065274E-01	 2.95487363E-02
5.19044519E+07	-1.41020546E-01	 2.97479654E-02
5.19166599E+07	-1.40975995E-01	 2.99519332E-02
5.19288679E+07	-1.40931415E-01	 3.01580146E-02
5.19410759E+07	-1.40887409E-01	 3.03660112E-02
5.19532840E+07	-1.40844487E-01	 3.05665548E-02
5.19654920E+07	-1.40793778E-01	 3.07723898E-02
5.19777000E+07	-1.40749093E-01	 3.09727699E-02
5.19899080E+07	-1.40703925E-01	 3.11831875E-02
5.20021161E+07	-1.40659571E-01	 3.13832800E-02
5.20143241E+07	-1.40604838E-01	 3.15880730E-02
5.20265321E+07	-1.40559026E-01	 3.17914241E-02
5.20387401E+07	-1.40513782E-01	 3.19988714E-02
5.20509482E+07	-1.40468372E-01	 3.22002653E-02
5.20631562E+07	-1.40416889E-01	 3.24035213E-02
5.20753642E+07	-1.40366802E-01	 3.26118361E-02
5.20875722E+07	-1.40324160E-01	 3.28121411E-02
5.20997803E+07	-1.40267621E-01	 3.30196430E-02
5.21119883E+07	-1.40218481E-01	 3.32214813E-02
5.21241963E+07	-1.40167384E-01	 3.34259981E-02
5.21364043E+07	-1.40120723E-01	 3.36273849E-02
5.21486124E+07	-1.40069603E-01	 3.38314352E-02
5.21608204E+07	-1.40014609E-01	 3.40364799E-02
5.21730284E+07	-1.39969029E-01	 3.42369514E-02
5.21852364E+07	-1.39912596E-01	 3.44338046E-02
5.21974445E+07	-1.39862218E-01	 3.46473255E-02
5.22096525E+07	-1.39807961E-01	 3.48562934E-02
5.22218605E+07	-1.39756900E-01	 3.50550754E-02
5.22340685E+07	-1.39705668E-01	 3.52528836E-02
5.22462766E+07	-1.39648513E-01	 3.54567278E-02
5.22584846E+07	-1.39598061E-01	 3.56591392E-02
5.22706926E+07	-1.39544848E-01	 3.58625839E-02
5.22829006E+07	-1.39488972E-01	 3.60669887E-02
5.22951087E+07	-1.39434663E-01	 3.62682116E-02
5.23073167E+07	-1.39381373E-01	 3.64682240E-02
5.23195247E+07	-1.39326257E-01	 3.66756695E-02
5.23317327E+07	-1.39274599E-01	 3.68746053E-02
5.23439408E+07	-1.39213687E-01	 3.70764918E-02
5.23561488E+07	-1.39157990E-01	 3.72734777E-02
5.23683568E+07	-1.39103956E-01	 3.74787568E-02
5.23805648E+07	-1.39047372E-01	 3.76787841E-02
5.23927728E+07	-1.38994347E-01	 3.78847307E-02
5.24049809E+07	-1.38933152E-01	 3.80926854E-02
5.24171889E+07	-1.38877158E-01	 3.82934012E-02
5.24293969E+07	-1.38821167E-01	 3.84904047E-02
5.24416049E+07	-1.38765677E-01	 3.86870970E-02
5.24538130E+07	-1.38706397E-01	 3.89013476E-02
5.24660210E+07	-1.38646200E-01	 3.90931154E-02
5.24782290E+07	-1.38586851E-01	 3.92935096E-02
5.24904370E+07	-1.38531308E-01	 3.94970721E-02
5.25026451E+07	-1.38468672E-01	 3.97004641E-02
5.25148531E+07	-1.38405124E-01	 3.98992476E-02
5.25270611E+07	-1.38346554E-01	 4.01015191E-02
5.25392691E+07	-1.38284214E-01	 4.03051839E-02
5.25514772E+07	-1.38222985E-01	 4.05059201E-02
5.25636852E+07	-1.38166279E-01	 4.07050767E-02
5.25758932E+07	-1.38110252E-01	 4.09068579E-02
5.25881012E+07	-1.38042471E-01	 4.11053293E-02
5.26003093E+07	-1.37983085E-01	 4.13049318E-02
5.26125173E+07	-1.37926169E-01	 4.15000683E-02
5.26247253E+07	-1.37858455E-01	 4.16993472E-02
5.26369333E+07	-1.37795435E-01	 4.18983685E-02
5.26491414E+07	-1.37733078E-01	 4.21017610E-02
5.26613494E+07	-1.37671185E-01	 4.23069878E-02
5.26735574E+07	-1.37608724E-01	 4.25037863E-02
5.26857654E+07	-1.37543220E-01	 4.27001133E-02
5.26979735E+07	-1.37473083E-01	 4.28969699E-02
5.27101815E+07	-1.37408260E-01	 4.31038022E-02
5.27223895E+07	-1.37348959E-01	 4.33016591E-02
5.27345975E+07	-1.37285746E-01	 4.34985698E-02
5.27468056E+07	-1.37218689E-01	 4.36992198E-02
5.27590136E+07	-1.37150755E-01	 4.39020437E-02
5.27712216E+07	-1.37081464E-01	 4.40981658E-02
5.27834296E+07	-1.37020379E-01	 4.42964642E-02
5.27956377E+07	-1.36956043E-01	 4.44933692E-02
5.28078457E+07	-1.36882210E-01	 4.46941850E-02
5.28200537E+07	-1.36822772E-01	 4.48920591E-02
5.28322617E+07	-1.36751443E-01	 4.50905626E-02
5.28444698E+07	-1.36684364E-01	 4.52901398E-02
5.28566778E+07	-1.36617211E-01	 4.54863230E-02
5.28688858E+07	-1.36550177E-01	 4.56878672E-02
5.28810938E+07	-1.36476380E-01	 4.58834166E-02
5.28933019E+07	-1.36415949E-01	 4.60817907E-02
5.29055099E+07	-1.36344696E-01	 4.62765049E-02
5.29177179E+07	-1.36273253E-01	 4.64748162E-02
5.29299259E+07	-1.36202962E-01	 4.66716941E-02
5.29421340E+07	-1.36137100E-01	 4.68721768E-02
5.29543420E+07	-1.36068183E-01	 4.70730176E-02
5.29665500E+07	-1.35998804E-01	 4.72643984E-02
5.29787580E+07	-1.35919008E-01	 4.74593078E-02
5.29909661E+07	-1.35845999E-01	 4.76585251E-02
5.30031741E+07	-1.35779975E-01	 4.78573791E-02
5.30153821E+07	-1.35702752E-01	 4.80498273E-02
5.30275901E+07	-1.35636873E-01	 4.82499122E-02
5.30397982E+07	-1.35564343E-01	 4.84436810E-02
5.30520062E+07	-1.35493544E-01	 4.86433000E-02
5.30642142E+07	-1.35416180E-01	 4.88364004E-02
5.30764222E+07	-1.35341231E-01	 4.90349222E-02
5.30886303E+07	-1.35269637E-01	 4.92302587E-02
5.31008383E+07	-1.35195990E-01	 4.94348168E-02
5.31130463E+07	-1.35119128E-01	 4.96191365E-02
5.31252543E+07	-1.35044598E-01	 4.98171883E-02
5.31374624E+07	-1.34969657E-01	 5.00160308E-02
5.31496704E+07	-1.34896992E-01	 5.02102894E-02
5.31618784E+07	-1.34823389E-01	 5.04093435E-02
5.31740864E+07	-1.34745730E-01	 5.05993395E-02
5.31862945E+07	-1.34669395E-01	 5.07974243E-02
5.31985025E+07	-1.34591232E-01	 5.09894868E-02
5.32107105E+07	-1.34515284E-01	 5.11843514E-02
5.32229185E+07	-1.34439660E-01	 5.13821681E-02
5.32351266E+07	-1.34365941E-01	 5.15763703E-02
5.32473346E+07	-1.34287053E-01	 5.17697373E-02
5.32595426E+07	-1.34208027E-01	 5.19653715E-02
5.32717506E+07	-1.34130151E-01	 5.21601328E-02
5.32839587E+07	-1.34056092E-01	 5.23565349E-02
5.32961667E+07	-1.33967432E-01	 5.25475751E-02
5.33083747E+07	-1.33889603E-01	 5.27430064E-02
5.33205827E+07	-1.33810967E-01	 5.29363164E-02
5.33327908E+07	-1.33739475E-01	 5.31288403E-02
5.33449988E+07	-1.33659071E-01	 5.33255637E-02
5.33572068E+07	-1.33572329E-01	 5.35167197E-02
5.33694148E+07	-1.33495552E-01	 5.37115429E-02
5.33816229E+07	-1.33416303E-01	 5.39027505E-02
5.33938309E+07	-1.33333336E-01	 5.40988186E-02
5.34060389E+07	-1.33249844E-01	 5.42919638E-02
5.34182469E+07	-1.33168249E-01	 5.44785064E-02
5.34304550E+07	-1.33089200E-01	 5.46795689E-02
5.34426630E+07	-1.33002949E-01	 5.48656635E-02
5.34548710E+07	-1.32921611E-01	 5.50616654E-02
5.34670790E+07	-1.32840577E-01	 5.52513989E-02
5.34792871E+07	-1.32757152E-01	 5.54457638E-02
5.34914951E+07	-1.32672568E-01	 5.56361445E-02
5.35037031E+07	-1.32589761E-01	 5.58250458E-02
5.35159111E+07	-1.32508640E-01	 5.60169820E-02
5.35281192E+07	-1.32426244E-01	 5.62136199E-02
5.35403272E+07	-1.32336643E-01	 5.64092677E-02
5.35525352E+07	-1.32258115E-01	 5.65937920E-02
5.35647432E+07	-1.32169616E-01	 5.67856656E-02
5.35769512E+07	-1.32083983E-01	 5.69836359E-02
5.35891593E+07	-1.31995156E-01	 5.71679743E-02
5.36013673E+07	-1.31909220E-01	 5.73555556E-02
5.36135753E+07	-1.31828493E-01	 5.75463637E-02
5.36257833E+07	-1.31740682E-01	 5.77413478E-02
5.36379914E+07	-1.31656163E-01	 5.79326023E-02
5.36501994E+07	-1.31569935E-01	 5.81256323E-02
5.36624074E+07	-1.31479574E-01	 5.83128601E-02
5.36746154E+07	-1.31394389E-01	 5.85028290E-02
5.36868235E+07	-1.31304812E-01	 5.86956746E-02
5.36990315E+07	-1.31216226E-01	 5.88853405E-02
5.37112395E+07	-1.31124833E-01	 5.90694892E-02
5.37234475E+07	-1.31036737E-01	 5.92667410E-02
5.37356556E+07	-1.30948339E-01	 5.94503402E-02
5.37478636E+07	-1.30859368E-01	 5.96393671E-02
5.37600716E+07	-1.30769413E-01	 5.98308792E-02
5.37722796E+07	-1.30679745E-01	 6.00159437E-02
5.37844877E+07	-1.30586367E-01	 6.02053138E-02
5.37966957E+07	-1.30495874E-01	 6.03969759E-02
5.38089037E+07	-1.30405462E-01	 6.05855560E-02
5.38211117E+07	-1.30317110E-01	 6.07740437E-02
5.38333198E+07	-1.30227985E-01	 6.09638683E-02
5.38455278E+07	-1.30139227E-01	 6.11526643E-02
5.38577358E+07	-1.30043167E-01	 6.13384869E-02
5.38699438E+07	-1.29948457E-01	 6.15246189E-02
5.38821519E+07	-1.29860484E-01	 6.17111191E-02
5.38943599E+07	-1.29766294E-01	 6.19068029E-02
5.39065679E+07	-1.29672796E-01	 6.20904605E-02
5.39187759E+07	-1.29581992E-01	 6.22762739E-02
5.39309840E+07	-1.29487013E-01	 6.24678457E-02
5.39431920E+07	-1.29398780E-01	 6.26533864E-02
5.39554000E+07	-1.29299547E-01	 6.28380925E-02
5.39676080E+07	-1.29205510E-01	 6.30265034E-02
5.39798161E+07	-1.29106369E-01	 6.32128886E-02
5.39920241E+07	-1.29019055E-01	 6.33976277E-02
5.40042321E+07	-1.28927856E-01	 6.35852494E-02
5.40164401E+07	-1.28826527E-01	 6.37706905E-02
5.40286482E+07	-1.28733118E-01	 6.39586794E-02
5.40408562E+07	-1.28634272E-01	 6.41423620E-02
5.40530642E+07	-1.28534813E-01	 6.43327706E-02
5.40652722E+07	-1.28444051E-01	 6.45168861E-02
5.40774803E+07	-1.28346405E-01	 6.47019219E-02
5.40896883E+07	-1.28249384E-01	 6.48843541E-02
5.41018963E+07	-1.28151475E-01	 6.50744121E-02
5.41141043E+07	-1.28056963E-01	 6.52593955E-02
5.41263124E+07	-1.27954735E-01	 6.54412199E-02
5.41385204E+07	-1.27858663E-01	 6.56278862E-02
5.41507284E+07	-1.27761956E-01	 6.58113292E-02
5.41629364E+07	-1.27655449E-01	 6.59913405E-02
5.41751445E+07	-1.27561064E-01	 6.61799023E-02
5.41873525E+07	-1.27457772E-01	 6.63629750E-02
5.41995605E+07	-1.27360311E-01	 6.65468712E-02
5.42117685E+07	-1.27265227E-01	 6.67356368E-02
5.42239766E+07	-1.27163167E-01	 6.69143621E-02
5.42361846E+07	-1.27060658E-01	 6.70986578E-02
5.42483926E+07	-1.26970757E-01	 6.72800094E-02
5.42606006E+07	-1.26864182E-01	 6.74577689E-02
5.42728087E+07	-1.26761380E-01	 6.76466402E-02
5.42850167E+07	-1.26654696E-01	 6.78315019E-02
5.42972247E+07	-1.26558924E-01	 6.80163976E-02
5.43094327E+07	-1.26450564E-01	 6.81947421E-02
5.43216408E+07	-1.26351808E-01	 6.83812239E-02
5.43338488E+07	-1.26249210E-01	 6.85635793E-02
5.43460568E+07	-1.26144611E-01	 6.87451391E-02
5.43582648E+07	-1.26043988E-01	 6.89249301E-02
5.43704729E+07	-1.25940423E-01	 6.91086437E-02
5.43826809E+07	-1.25835830E-01	 6.92919088E-02
5.43948889E+07	-1.25731440E-01	 6.94766522E-02
5.44070969E+07	-1.25629119E-01	 6.96524176E-02
5.44193050E+07	-1.25526630E-01	 6.98360478E-02
5.44315130E+07	-1.25423737E-01	 7.00132203E-02
5.44437210E+07	-1.25312188E-01	 7.02016754E-02
5.44559290E+07	-1.25213615E-01	 7.03701434E-02
5.44681371E+07	-1.25106918E-01	 7.05557157E-02
5.44803451E+07	-1.24997159E-01	 7.07425411E-02
5.44925531E+07	-1.24894858E-01	 7.09168135E-02
5.45047611E+07	-1.24789064E-01	 7.10983922E-02
5.45169692E+07	-1.24678514E-01	 7.12819892E-02
5.45291772E+07	-1.24571947E-01	 7.14544648E-02
5.45413852E+07	-1.24465057E-01	 7.16404756E-02
5.45535932E+07	-1.24355499E-01	 7.18200478E-02
5.45658013E+07	-1.24248895E-01	 7.19978956E-02
5.45780093E+07	-1.24144575E-01	 7.21737559E-02
5.45902173E+07	-1.24030805E-01	 7.23596843E-02
5.46024253E+07	-1.23927410E-01	 7.25280834E-02
5.46146334E+07	-1.23815641E-01	 7.27080164E-02
5.46268414E+07	-1.23707127E-01	 7.28893600E-02
5.46390494E+07	-1.23602535E-01	 7.30691412E-02
5.46512574E+07	-1.23485702E-01	 7.32498511E-02
5.46634655E+07	-1.23384263E-01	 7.34275436E-02
5.46756735E+07	-1.23272311E-01	 7.35985992E-02
5.46878815E+07	-1.23155323E-01	 7.37831150E-02
5.47000895E+07	-1.23047538E-01	 7.39585731E-02
5.47122976E+07	-1.22936403E-01	 7.41359091E-02
5.47245056E+07	-1.22829388E-01	 7.43127192E-02
5.47367136E+07	-1.22713389E-01	 7.44903476E-02
5.47489216E+07	-1.22603479E-01	 7.46635409E-02
5.47611296E+07	-1.22491228E-01	 7.48431038E-02
5.47733377E+07	-1.22381895E-01	 7.50180714E-02
5.47855457E+07	-1.22264157E-01	 7.51954955E-02
5.47977537E+07	-1.22157518E-01	 7.53673541E-02
5.48099617E+07	-1.22039734E-01	 7.55476057E-02
5.48221698E+07	-1.21926686E-01	 7.57248723E-02
5.48343778E+07	-1.21815651E-01	 7.59030240E-02
5.48465858E+07	-1.21706126E-01	 7.60715372E-02
5.48587938E+07	-1.21589848E-01	 7.62475503E-02
5.48710019E+07	-1.21473725E-01	 7.64266275E-02
5.48832099E+07	-1.21363960E-01	 7.65960405E-02
5.48954179E+07	-1.21247864E-01	 7.67772965E-02
5.49076259E+07	-1.21129714E-01	 7.69477240E-02
5.49198340E+07	-1.21013762E-01	 7.71279581E-02
5.49320420E+07	-1.20902970E-01	 7.72990400E-02
5.49442500E+07	-1.20779316E-01	 7.74733770E-02
5.49564580E+07	-1.20668770E-01	 7.76470488E-02
5.49686661E+07	-1.20551908E-01	 7.78151067E-02
5.49808741E+07	-1.20432522E-01	 7.79894070E-02
5.49930821E+07	-1.20316247E-01	 7.81641100E-02
5.50052901E+07	-1.20197190E-01	 7.83376247E-02
5.50174982E+07	-1.20085611E-01	 7.85154835E-02
5.50297062E+07	-1.19962085E-01	 7.86821454E-02
5.50419142E+07	-1.19851603E-01	 7.88541626E-02
5.50541222E+07	-1.19726274E-01	 7.90290470E-02
5.50663303E+07	-1.19610034E-01	 7.92005154E-02
5.50785383E+07	-1.19490992E-01	 7.93726276E-02
5.50907463E+07	-1.19366808E-01	 7.95423023E-02
5.51029543E+07	-1.19253485E-01	 7.97166271E-02
5.51151624E+07	-1.19134376E-01	 7.98831503E-02
5.51273704E+07	-1.19013162E-01	 8.00609267E-02
