! COPPER MOUNTAIN TECHNOLOGIES, PLANAR TR1300/1, 00071119, 20.2.2/1.0
! Date: 1/7/2024 7:23:13 PM
! Data: Format [Calibration Info]
! Freq          	S11: Re/Im F1                  
# HZ S RI R 50
5.00000000E+07	 1.54375825E-01	 2.54970204E-02
5.00122080E+07	 1.54409510E-01	 2.52529002E-02
5.00244160E+07	 1.54449424E-01	 2.50152067E-02
5.00366241E+07	 1.54479758E-01	 2.47758990E-02
5.00488321E+07	 1.54515996E-01	 2.45353023E-02
5.00610401E+07	 1.54553559E-01	 2.43074868E-02
5.00732481E+07	 1.54586564E-01	 2.40583464E-02
5.00854562E+07	 1.54616779E-01	 2.38228306E-02
5.00976642E+07	 1.54652522E-01	 2.35828083E-02
5.01098722E+07	 1.54685419E-01	 2.33478555E-02
5.01220802E+07	 1.54719000E-01	 2.30970319E-02
5.01342883E+07	 1.54751246E-01	 2.28618639E-02
5.01464963E+07	 1.54781967E-01	 2.26224100E-02
5.01587043E+07	 1.54815414E-01	 2.23772021E-02
5.01709123E+07	 1.54847088E-01	 2.21414230E-02
5.01831204E+07	 1.54881566E-01	 2.19044171E-02
5.01953284E+07	 1.54909233E-01	 2.16646764E-02
5.02075364E+07	 1.54939497E-01	 2.14232389E-02
5.02197444E+07	 1.54969455E-01	 2.11812127E-02
5.02319525E+07	 1.54995290E-01	 2.09407785E-02
5.02441605E+07	 1.55028140E-01	 2.06994501E-02
5.02563685E+07	 1.55057544E-01	 2.04588675E-02
5.02685765E+07	 1.55082640E-01	 2.02165598E-02
5.02807846E+07	 1.55113420E-01	 1.99818915E-02
5.02929926E+07	 1.55144231E-01	 1.97413898E-02
5.03052006E+07	 1.55166414E-01	 1.94956667E-02
5.03174086E+07	 1.55197505E-01	 1.92570680E-02
5.03296167E+07	 1.55228489E-01	 1.90170500E-02
5.03418247E+07	 1.55252193E-01	 1.87738474E-02
5.03540327E+07	 1.55279400E-01	 1.85383351E-02
5.03662407E+07	 1.55303315E-01	 1.82913265E-02
5.03784488E+07	 1.55325267E-01	 1.80467267E-02
5.03906568E+07	 1.55346784E-01	 1.78163562E-02
5.04028648E+07	 1.55369518E-01	 1.75695802E-02
5.04150728E+07	 1.55402209E-01	 1.73277019E-02
5.04272809E+07	 1.55422444E-01	 1.70926965E-02
5.04394889E+07	 1.55442979E-01	 1.68461681E-02
5.04516969E+07	 1.55463000E-01	 1.66094954E-02
5.04639049E+07	 1.55489970E-01	 1.63628561E-02
5.04761130E+07	 1.55511557E-01	 1.61262560E-02
5.04883210E+07	 1.55539166E-01	 1.58881346E-02
5.05005290E+07	 1.55561397E-01	 1.56454102E-02
5.05127370E+07	 1.55579241E-01	 1.54042375E-02
5.05249451E+07	 1.55600962E-01	 1.51630210E-02
5.05371531E+07	 1.55621004E-01	 1.49218610E-02
5.05493611E+07	 1.55644342E-01	 1.46808806E-02
5.05615691E+07	 1.55662406E-01	 1.44396824E-02
5.05737772E+07	 1.55683015E-01	 1.42002648E-02
5.05859852E+07	 1.55698990E-01	 1.39520179E-02
5.05981932E+07	 1.55719373E-01	 1.37145452E-02
5.06104012E+07	 1.55732820E-01	 1.34744018E-02
5.06226093E+07	 1.55757495E-01	 1.32355374E-02
5.06348173E+07	 1.55771533E-01	 1.29924955E-02
5.06470253E+07	 1.55791675E-01	 1.27504773E-02
5.06592333E+07	 1.55808443E-01	 1.25070250E-02
5.06714414E+07	 1.55823371E-01	 1.22648114E-02
5.06836494E+07	 1.55844242E-01	 1.20234385E-02
5.06958574E+07	 1.55851500E-01	 1.17830557E-02
5.07080654E+07	 1.55873333E-01	 1.15458045E-02
5.07202735E+07	 1.55881826E-01	 1.13021384E-02
5.07324815E+07	 1.55899642E-01	 1.10573391E-02
5.07446895E+07	 1.55912576E-01	 1.08171694E-02
5.07568975E+07	 1.55924970E-01	 1.05783113E-02
5.07691056E+07	 1.55942090E-01	 1.03339062E-02
5.07813136E+07	 1.55953247E-01	 1.00930795E-02
5.07935216E+07	 1.55966761E-01	 9.85180573E-03
5.08057296E+07	 1.55984680E-01	 9.60517393E-03
5.08179377E+07	 1.55988170E-01	 9.36903112E-03
5.08301457E+07	 1.56001073E-01	 9.12795048E-03
5.08423537E+07	 1.56015927E-01	 8.88600387E-03
5.08545617E+07	 1.56028543E-01	 8.64481521E-03
5.08667698E+07	 1.56042953E-01	 8.39747776E-03
5.08789778E+07	 1.56049139E-01	 8.16024637E-03
5.08911858E+07	 1.56057045E-01	 7.91618534E-03
5.09033938E+07	 1.56064937E-01	 7.67273648E-03
5.09156019E+07	 1.56077678E-01	 7.43300865E-03
5.09278099E+07	 1.56082227E-01	 7.18959040E-03
5.09400179E+07	 1.56095734E-01	 6.94736668E-03
5.09522259E+07	 1.56101379E-01	 6.71149427E-03
5.09644340E+07	 1.56105417E-01	 6.46407841E-03
5.09766420E+07	 1.56117425E-01	 6.21865087E-03
5.09888500E+07	 1.56119065E-01	 5.98288588E-03
5.10010580E+07	 1.56133707E-01	 5.74444290E-03
5.10132661E+07	 1.56137106E-01	 5.49556817E-03
5.10254741E+07	 1.56134607E-01	 5.25296958E-03
5.10376821E+07	 1.56152673E-01	 5.00804042E-03
5.10498901E+07	 1.56156346E-01	 4.77116792E-03
5.10620982E+07	 1.56158672E-01	 4.53265505E-03
5.10743062E+07	 1.56165526E-01	 4.28790249E-03
5.10865142E+07	 1.56166279E-01	 4.04590679E-03
5.10987222E+07	 1.56177255E-01	 3.80062518E-03
5.11109303E+07	 1.56178872E-01	 3.56090067E-03
5.11231383E+07	 1.56182484E-01	 3.31770315E-03
5.11353463E+07	 1.56182222E-01	 3.07396887E-03
5.11475543E+07	 1.56186645E-01	 2.83159119E-03
5.11597624E+07	 1.56188377E-01	 2.59023922E-03
5.11719704E+07	 1.56191085E-01	 2.35406026E-03
5.11841784E+07	 1.56195501E-01	 2.10519298E-03
5.11963864E+07	 1.56191190E-01	 1.86494753E-03
5.12085944E+07	 1.56194655E-01	 1.62016453E-03
5.12208025E+07	 1.56197851E-01	 1.38176295E-03
5.12330105E+07	 1.56200146E-01	 1.13936685E-03
5.12452185E+07	 1.56197765E-01	 8.95415140E-04
5.12574265E+07	 1.56200523E-01	 6.55041207E-04
5.12696346E+07	 1.56193422E-01	 4.12841462E-04
5.12818426E+07	 1.56196728E-01	 1.73483657E-04
5.12940506E+07	 1.56193665E-01	-7.52774152E-05
5.13062586E+07	 1.56191209E-01	-3.08952913E-04
5.13184667E+07	 1.56185442E-01	-5.53801338E-04
5.13306747E+07	 1.56185478E-01	-7.94838136E-04
5.13428827E+07	 1.56183788E-01	-1.04289293E-03
5.13550907E+07	 1.56176883E-01	-1.28170304E-03
5.13672988E+07	 1.56170512E-01	-1.52038033E-03
5.13795068E+07	 1.56171423E-01	-1.76390606E-03
5.13917148E+07	 1.56164923E-01	-2.00975085E-03
5.14039228E+07	 1.56161871E-01	-2.25158668E-03
5.14161309E+07	 1.56153909E-01	-2.49126743E-03
5.14283389E+07	 1.56147759E-01	-2.72793081E-03
5.14405469E+07	 1.56139189E-01	-2.97334827E-03
5.14527549E+07	 1.56135418E-01	-3.21567249E-03
5.14649630E+07	 1.56131898E-01	-3.45783497E-03
5.14771710E+07	 1.56120465E-01	-3.70135794E-03
5.14893790E+07	 1.56118791E-01	-3.94591927E-03
5.15015870E+07	 1.56108515E-01	-4.18491714E-03
5.15137951E+07	 1.56092972E-01	-4.42678124E-03
5.15260031E+07	 1.56089785E-01	-4.66940405E-03
5.15382111E+07	 1.56081492E-01	-4.90991106E-03
5.15504191E+07	 1.56073796E-01	-5.14700908E-03
5.15626272E+07	 1.56062026E-01	-5.39148322E-03
5.15748352E+07	 1.56051770E-01	-5.63528598E-03
5.15870432E+07	 1.56040154E-01	-5.87372165E-03
5.15992512E+07	 1.56028978E-01	-6.11841967E-03
5.16114593E+07	 1.56013961E-01	-6.35844981E-03
5.16236673E+07	 1.56007868E-01	-6.60177882E-03
5.16358753E+07	 1.55995346E-01	-6.84310093E-03
5.16480833E+07	 1.55981230E-01	-7.08724594E-03
5.16602914E+07	 1.55967880E-01	-7.32429651E-03
5.16724994E+07	 1.55958842E-01	-7.57134714E-03
5.16847074E+07	 1.55944775E-01	-7.80524822E-03
5.16969154E+07	 1.55931900E-01	-8.05563977E-03
5.17091235E+07	 1.55911757E-01	-8.29088136E-03
5.17213315E+07	 1.55901680E-01	-8.53426382E-03
5.17335395E+07	 1.55889679E-01	-8.77383251E-03
5.17457475E+07	 1.55876277E-01	-9.01665632E-03
5.17579556E+07	 1.55857034E-01	-9.25885405E-03
5.17701636E+07	 1.55845904E-01	-9.49886894E-03
5.17823716E+07	 1.55826227E-01	-9.74575372E-03
5.17945796E+07	 1.55810556E-01	-9.98592975E-03
5.18067877E+07	 1.55788765E-01	-1.02247583E-02
5.18189957E+07	 1.55777812E-01	-1.04680935E-02
5.18312037E+07	 1.55758881E-01	-1.07141365E-02
5.18434117E+07	 1.55740644E-01	-1.09476145E-02
5.18556198E+07	 1.55723533E-01	-1.11888866E-02
5.18678278E+07	 1.55701097E-01	-1.14342371E-02
5.18800358E+07	 1.55678764E-01	-1.16715292E-02
5.18922438E+07	 1.55660704E-01	-1.19135484E-02
5.19044519E+07	 1.55646814E-01	-1.21559578E-02
5.19166599E+07	 1.55621793E-01	-1.24003715E-02
5.19288679E+07	 1.55602367E-01	-1.26407440E-02
5.19410759E+07	 1.55586078E-01	-1.28824341E-02
5.19532840E+07	 1.55553222E-01	-1.31222233E-02
5.19654920E+07	 1.55536853E-01	-1.33623437E-02
5.19777000E+07	 1.55516930E-01	-1.36048273E-02
5.19899080E+07	 1.55496400E-01	-1.38436442E-02
5.20021161E+07	 1.55470976E-01	-1.40882572E-02
5.20143241E+07	 1.55450690E-01	-1.43254118E-02
5.20265321E+07	 1.55425847E-01	-1.45686154E-02
5.20387401E+07	 1.55396892E-01	-1.48035802E-02
5.20509482E+07	 1.55373336E-01	-1.50471239E-02
5.20631562E+07	 1.55347460E-01	-1.52917404E-02
5.20753642E+07	 1.55321200E-01	-1.55286438E-02
5.20875722E+07	 1.55295132E-01	-1.57678636E-02
5.20997803E+07	 1.55270169E-01	-1.60144859E-02
5.21119883E+07	 1.55241709E-01	-1.62505159E-02
5.21241963E+07	 1.55219784E-01	-1.64922709E-02
5.21364043E+07	 1.55193770E-01	-1.67358672E-02
5.21486124E+07	 1.55162827E-01	-1.69736848E-02
5.21608204E+07	 1.55139548E-01	-1.72138865E-02
5.21730284E+07	 1.55105559E-01	-1.74524661E-02
5.21852364E+07	 1.55083024E-01	-1.76962886E-02
5.21974445E+07	 1.55049039E-01	-1.79356805E-02
5.22096525E+07	 1.55028653E-01	-1.81716822E-02
5.22218605E+07	 1.54989179E-01	-1.84127194E-02
5.22340685E+07	 1.54956245E-01	-1.86549602E-02
5.22462766E+07	 1.54932338E-01	-1.88958953E-02
5.22584846E+07	 1.54898068E-01	-1.91333073E-02
5.22706926E+07	 1.54870590E-01	-1.93715176E-02
5.22829006E+07	 1.54839778E-01	-1.96175833E-02
5.22951087E+07	 1.54806858E-01	-1.98522373E-02
5.23073167E+07	 1.54771081E-01	-2.00958560E-02
5.23195247E+07	 1.54740090E-01	-2.03307953E-02
5.23317327E+07	 1.54706100E-01	-2.05747821E-02
5.23439408E+07	 1.54676748E-01	-2.08162007E-02
5.23561488E+07	 1.54644870E-01	-2.10593267E-02
5.23683568E+07	 1.54605747E-01	-2.12925051E-02
5.23805648E+07	 1.54570116E-01	-2.15275245E-02
5.23927728E+07	 1.54538136E-01	-2.17785212E-02
5.24049809E+07	 1.54500114E-01	-2.20128804E-02
5.24171889E+07	 1.54467538E-01	-2.22505296E-02
5.24293969E+07	 1.54430706E-01	-2.24901699E-02
5.24416049E+07	 1.54387469E-01	-2.27329129E-02
5.24538130E+07	 1.54354145E-01	-2.29704158E-02
5.24660210E+07	 1.54319735E-01	-2.32121717E-02
5.24782290E+07	 1.54286444E-01	-2.34431846E-02
5.24904370E+07	 1.54245331E-01	-2.36872430E-02
5.25026451E+07	 1.54208890E-01	-2.39251727E-02
5.25148531E+07	 1.54173345E-01	-2.41630473E-02
5.25270611E+07	 1.54134361E-01	-2.44005262E-02
5.25392691E+07	 1.54091395E-01	-2.46366970E-02
5.25514772E+07	 1.54057404E-01	-2.48723944E-02
5.25636852E+07	 1.54009367E-01	-2.51171935E-02
5.25758932E+07	 1.53968666E-01	-2.53595774E-02
5.25881012E+07	 1.53932694E-01	-2.55941975E-02
5.26003093E+07	 1.53891501E-01	-2.58350464E-02
5.26125173E+07	 1.53848576E-01	-2.60728634E-02
5.26247253E+07	 1.53809272E-01	-2.63147442E-02
5.26369333E+07	 1.53769228E-01	-2.65510943E-02
5.26491414E+07	 1.53724732E-01	-2.67896195E-02
5.26613494E+07	 1.53682317E-01	-2.70187960E-02
5.26735574E+07	 1.53639336E-01	-2.72606108E-02
5.26857654E+07	 1.53596610E-01	-2.75018691E-02
5.26979735E+07	 1.53547930E-01	-2.77389390E-02
5.27101815E+07	 1.53511109E-01	-2.79782169E-02
5.27223895E+07	 1.53463186E-01	-2.82136686E-02
5.27345975E+07	 1.53417804E-01	-2.84533098E-02
5.27468056E+07	 1.53374687E-01	-2.86870250E-02
5.27590136E+07	 1.53328409E-01	-2.89234190E-02
5.27712216E+07	 1.53285357E-01	-2.91665266E-02
5.27834296E+07	 1.53233597E-01	-2.94073389E-02
5.27956377E+07	 1.53187447E-01	-2.96417384E-02
5.28078457E+07	 1.53142588E-01	-2.98771369E-02
5.28200537E+07	 1.53089974E-01	-3.01166095E-02
5.28322617E+07	 1.53046534E-01	-3.03545411E-02
5.28444698E+07	 1.52999427E-01	-3.05921704E-02
5.28566778E+07	 1.52952536E-01	-3.08243710E-02
5.28688858E+07	 1.52899820E-01	-3.10581063E-02
5.28810938E+07	 1.52856492E-01	-3.13034180E-02
5.28933019E+07	 1.52801961E-01	-3.15380778E-02
5.29055099E+07	 1.52749297E-01	-3.17751039E-02
5.29177179E+07	 1.52702787E-01	-3.20147186E-02
5.29299259E+07	 1.52652675E-01	-3.22474462E-02
5.29421340E+07	 1.52599566E-01	-3.24846294E-02
5.29543420E+07	 1.52548277E-01	-3.27212447E-02
5.29665500E+07	 1.52496116E-01	-3.29611482E-02
5.29787580E+07	 1.52450851E-01	-3.31960788E-02
5.29909661E+07	 1.52395425E-01	-3.34290810E-02
5.30031741E+07	 1.52340357E-01	-3.36656651E-02
5.30153821E+07	 1.52285473E-01	-3.39042134E-02
5.30275901E+07	 1.52235976E-01	-3.41362456E-02
5.30397982E+07	 1.52182185E-01	-3.43772859E-02
5.30520062E+07	 1.52126969E-01	-3.46121330E-02
5.30642142E+07	 1.52077571E-01	-3.48457446E-02
5.30764222E+07	 1.52019290E-01	-3.50809371E-02
5.30886303E+07	 1.51962784E-01	-3.53158304E-02
5.31008383E+07	 1.51908607E-01	-3.55503779E-02
5.31130463E+07	 1.51855177E-01	-3.57904830E-02
5.31252543E+07	 1.51799427E-01	-3.60243810E-02
5.31374624E+07	 1.51741117E-01	-3.62537839E-02
5.31496704E+07	 1.51684587E-01	-3.64916743E-02
5.31618784E+07	 1.51618169E-01	-3.67272510E-02
5.31740864E+07	 1.51567521E-01	-3.69635451E-02
5.31862945E+07	 1.51510766E-01	-3.71952676E-02
5.31985025E+07	 1.51452399E-01	-3.74344254E-02
5.32107105E+07	 1.51392681E-01	-3.76673022E-02
5.32229185E+07	 1.51338893E-01	-3.79007186E-02
5.32351266E+07	 1.51276911E-01	-3.81333216E-02
5.32473346E+07	 1.51212445E-01	-3.83671115E-02
5.32595426E+07	 1.51157489E-01	-3.86039982E-02
5.32717506E+07	 1.51098021E-01	-3.88349668E-02
5.32839587E+07	 1.51033987E-01	-3.90712894E-02
5.32961667E+07	 1.50975098E-01	-3.93079356E-02
5.33083747E+07	 1.50915313E-01	-3.95374109E-02
5.33205827E+07	 1.50854791E-01	-3.97724915E-02
5.33327908E+07	 1.50788000E-01	-4.00095509E-02
5.33449988E+07	 1.50724429E-01	-4.02457745E-02
5.33572068E+07	 1.50664368E-01	-4.04711826E-02
5.33694148E+07	 1.50599763E-01	-4.07025974E-02
5.33816229E+07	 1.50535697E-01	-4.09423048E-02
5.33938309E+07	 1.50473131E-01	-4.11704558E-02
5.34060389E+07	 1.50407245E-01	-4.14059610E-02
5.34182469E+07	 1.50343922E-01	-4.16400138E-02
5.34304550E+07	 1.50278230E-01	-4.18755450E-02
5.34426630E+07	 1.50217729E-01	-4.21070965E-02
5.34548710E+07	 1.50152135E-01	-4.23355920E-02
5.34670790E+07	 1.50081541E-01	-4.25709635E-02
5.34792871E+07	 1.50022442E-01	-4.28081479E-02
5.34914951E+07	 1.49947859E-01	-4.30342508E-02
5.35037031E+07	 1.49884251E-01	-4.32726732E-02
5.35159111E+07	 1.49817513E-01	-4.35019749E-02
5.35281192E+07	 1.49746624E-01	-4.37331378E-02
5.35403272E+07	 1.49681995E-01	-4.39630960E-02
5.35525352E+07	 1.49610044E-01	-4.41945996E-02
5.35647432E+07	 1.49545534E-01	-4.44263456E-02
5.35769512E+07	 1.49472723E-01	-4.46567776E-02
5.35891593E+07	 1.49407396E-01	-4.48944615E-02
5.36013673E+07	 1.49331838E-01	-4.51227415E-02
5.36135753E+07	 1.49262739E-01	-4.53597807E-02
5.36257833E+07	 1.49194437E-01	-4.55909381E-02
5.36379914E+07	 1.49122455E-01	-4.58222383E-02
5.36501994E+07	 1.49050344E-01	-4.60500221E-02
5.36624074E+07	 1.48981542E-01	-4.62824543E-02
5.36746154E+07	 1.48910100E-01	-4.65162197E-02
5.36868235E+07	 1.48835139E-01	-4.67402701E-02
5.36990315E+07	 1.48763592E-01	-4.69671946E-02
5.37112395E+07	 1.48690031E-01	-4.72083939E-02
5.37234475E+07	 1.48620510E-01	-4.74314538E-02
5.37356556E+07	 1.48543282E-01	-4.76619035E-02
5.37478636E+07	 1.48472250E-01	-4.78946711E-02
5.37600716E+07	 1.48397631E-01	-4.81246353E-02
5.37722796E+07	 1.48324646E-01	-4.83543343E-02
5.37844877E+07	 1.48249252E-01	-4.85844750E-02
5.37966957E+07	 1.48166545E-01	-4.88127542E-02
5.38089037E+07	 1.48097930E-01	-4.90445633E-02
5.38211117E+07	 1.48019071E-01	-4.92724246E-02
5.38333198E+07	 1.47940698E-01	-4.95057423E-02
5.38455278E+07	 1.47863970E-01	-4.97358044E-02
5.38577358E+07	 1.47790291E-01	-4.99631516E-02
5.38699438E+07	 1.47708553E-01	-5.01935736E-02
5.38821519E+07	 1.47636957E-01	-5.04253127E-02
5.38943599E+07	 1.47554735E-01	-5.06469173E-02
5.39065679E+07	 1.47475684E-01	-5.08775200E-02
5.39187759E+07	 1.47401082E-01	-5.11066061E-02
5.39309840E+07	 1.47321047E-01	-5.13342131E-02
5.39431920E+07	 1.47240229E-01	-5.15649424E-02
5.39554000E+07	 1.47162281E-01	-5.17905621E-02
5.39676080E+07	 1.47085049E-01	-5.20199229E-02
5.39798161E+07	 1.47000362E-01	-5.22451275E-02
5.39920241E+07	 1.46920177E-01	-5.24718420E-02
5.40042321E+07	 1.46836591E-01	-5.27040003E-02
5.40164401E+07	 1.46757974E-01	-5.29316165E-02
5.40286482E+07	 1.46673036E-01	-5.31569182E-02
5.40408562E+07	 1.46592690E-01	-5.33863146E-02
5.40530642E+07	 1.46506637E-01	-5.36162612E-02
5.40652722E+07	 1.46421405E-01	-5.38388131E-02
5.40774803E+07	 1.46342677E-01	-5.40683135E-02
5.40896883E+07	 1.46259248E-01	-5.42965883E-02
5.41018963E+07	 1.46173114E-01	-5.45222318E-02
5.41141043E+07	 1.46088735E-01	-5.47444382E-02
5.41263124E+07	 1.46001332E-01	-5.49742713E-02
5.41385204E+07	 1.45922626E-01	-5.52018255E-02
5.41507284E+07	 1.45834800E-01	-5.54263659E-02
5.41629364E+07	 1.45743375E-01	-5.56576514E-02
5.41751445E+07	 1.45661723E-01	-5.58805055E-02
5.41873525E+07	 1.45578177E-01	-5.61038416E-02
5.41995605E+07	 1.45489854E-01	-5.63336453E-02
5.42117685E+07	 1.45403295E-01	-5.65638880E-02
5.42239766E+07	 1.45314198E-01	-5.67857854E-02
5.42361846E+07	 1.45225708E-01	-5.70157413E-02
5.42483926E+07	 1.45133851E-01	-5.72347890E-02
5.42606006E+07	 1.45048560E-01	-5.74591465E-02
5.42728087E+07	 1.44958980E-01	-5.76852999E-02
5.42850167E+07	 1.44870855E-01	-5.79081520E-02
5.42972247E+07	 1.44782172E-01	-5.81335769E-02
5.43094327E+07	 1.44694748E-01	-5.83597175E-02
5.43216408E+07	 1.44603190E-01	-5.85857016E-02
5.43338488E+07	 1.44509539E-01	-5.88075142E-02
5.43460568E+07	 1.44419997E-01	-5.90362357E-02
5.43582648E+07	 1.44322292E-01	-5.92589253E-02
5.43704729E+07	 1.44240149E-01	-5.94794278E-02
5.43826809E+07	 1.44141822E-01	-5.97069902E-02
5.43948889E+07	 1.44053788E-01	-5.99293751E-02
5.44070969E+07	 1.43957916E-01	-6.01514320E-02
5.44193050E+07	 1.43865518E-01	-6.03678443E-02
5.44315130E+07	 1.43768847E-01	-6.06008228E-02
5.44437210E+07	 1.43682013E-01	-6.08214710E-02
5.44559290E+07	 1.43589437E-01	-6.10483922E-02
5.44681371E+07	 1.43490481E-01	-6.12719701E-02
5.44803451E+07	 1.43392952E-01	-6.14911520E-02
5.44925531E+07	 1.43293120E-01	-6.17142094E-02
5.45047611E+07	 1.43204318E-01	-6.19356826E-02
5.45169692E+07	 1.43107497E-01	-6.21595521E-02
5.45291772E+07	 1.43015033E-01	-6.23831134E-02
5.45413852E+07	 1.42917224E-01	-6.25991588E-02
5.45535932E+07	 1.42815828E-01	-6.28223722E-02
5.45658013E+07	 1.42726749E-01	-6.30442908E-02
5.45780093E+07	 1.42624366E-01	-6.32673075E-02
5.45902173E+07	 1.42535798E-01	-6.34859299E-02
5.46024253E+07	 1.42429167E-01	-6.37106876E-02
5.46146334E+07	 1.42332114E-01	-6.39333252E-02
5.46268414E+07	 1.42237869E-01	-6.41560962E-02
5.46390494E+07	 1.42135294E-01	-6.43811668E-02
5.46512574E+07	 1.42033302E-01	-6.45945221E-02
5.46634655E+07	 1.41930237E-01	-6.48191986E-02
5.46756735E+07	 1.41833322E-01	-6.50391224E-02
5.46878815E+07	 1.41736318E-01	-6.52541980E-02
5.47000895E+07	 1.41632008E-01	-6.54738359E-02
5.47122976E+07	 1.41535517E-01	-6.56984515E-02
5.47245056E+07	 1.41428943E-01	-6.59192531E-02
5.47367136E+07	 1.41331898E-01	-6.61338006E-02
5.47489216E+07	 1.41227614E-01	-6.63516816E-02
5.47611296E+07	 1.41124635E-01	-6.65735963E-02
5.47733377E+07	 1.41019704E-01	-6.67941679E-02
5.47855457E+07	 1.40917907E-01	-6.70111135E-02
5.47977537E+07	 1.40817519E-01	-6.72334469E-02
5.48099617E+07	 1.40712179E-01	-6.74510334E-02
5.48221698E+07	 1.40610068E-01	-6.76648175E-02
5.48343778E+07	 1.40504896E-01	-6.78854483E-02
5.48465858E+07	 1.40398344E-01	-6.81058753E-02
5.48587938E+07	 1.40295241E-01	-6.83245535E-02
5.48710019E+07	 1.40187063E-01	-6.85383017E-02
5.48832099E+07	 1.40088471E-01	-6.87572822E-02
5.48954179E+07	 1.39971061E-01	-6.89755797E-02
5.49076259E+07	 1.39868596E-01	-6.91950268E-02
5.49198340E+07	 1.39767506E-01	-6.94082272E-02
5.49320420E+07	 1.39655794E-01	-6.96294410E-02
5.49442500E+07	 1.39552277E-01	-6.98391472E-02
5.49564580E+07	 1.39440996E-01	-7.00620839E-02
5.49686661E+07	 1.39331755E-01	-7.02826021E-02
5.49808741E+07	 1.39226934E-01	-7.04927695E-02
5.49930821E+07	 1.39118770E-01	-7.07139608E-02
5.50052901E+07	 1.39012192E-01	-7.09334106E-02
5.50174982E+07	 1.38894035E-01	-7.11383852E-02
5.50297062E+07	 1.38785578E-01	-7.13590262E-02
5.50419142E+07	 1.38682478E-01	-7.15751792E-02
5.50541222E+07	 1.38575908E-01	-7.17908389E-02
5.50663303E+07	 1.38457080E-01	-7.20044423E-02
5.50785383E+07	 1.38352661E-01	-7.22222967E-02
5.50907463E+07	 1.38243990E-01	-7.24378400E-02
5.51029543E+07	 1.38127126E-01	-7.26490667E-02
5.51151624E+07	 1.38016663E-01	-7.28684805E-02
5.51273704E+07	 1.37905959E-01	-7.30804763E-02
