! COPPER MOUNTAIN TECHNOLOGIES, PLANAR TR1300/1, 00071119, 20.2.2/1.0
! Date: 1/7/2024 7:33:11 PM
! Data: Format [Calibration Info]
! Freq          	S11: Re/Im F1                  
# HZ S RI R 50
5.00000000E+07	 2.81427871E-01	 3.83362942E-02
5.00122080E+07	 2.81478803E-01	 3.79022668E-02
5.00244160E+07	 2.81537790E-01	 3.74733876E-02
5.00366241E+07	 2.81587268E-01	 3.70407537E-02
5.00488321E+07	 2.81641566E-01	 3.66060008E-02
5.00610401E+07	 2.81696363E-01	 3.61841419E-02
5.00732481E+07	 2.81748611E-01	 3.57448169E-02
5.00854562E+07	 2.81800143E-01	 3.53244391E-02
5.00976642E+07	 2.81851078E-01	 3.48836063E-02
5.01098722E+07	 2.81903571E-01	 3.44537575E-02
5.01220802E+07	 2.81944781E-01	 3.40183390E-02
5.01342883E+07	 2.82001680E-01	 3.35878928E-02
5.01464963E+07	 2.82050348E-01	 3.31572229E-02
5.01587043E+07	 2.82094521E-01	 3.27217655E-02
5.01709123E+07	 2.82138982E-01	 3.22918562E-02
5.01831204E+07	 2.82192634E-01	 3.18637879E-02
5.01953284E+07	 2.82236401E-01	 3.14388011E-02
5.02075364E+07	 2.82281484E-01	 3.09935130E-02
5.02197444E+07	 2.82322241E-01	 3.05679503E-02
5.02319525E+07	 2.82364482E-01	 3.01312212E-02
5.02441605E+07	 2.82411388E-01	 2.97003885E-02
5.02563685E+07	 2.82457589E-01	 2.92705076E-02
5.02685765E+07	 2.82495266E-01	 2.88259930E-02
5.02807846E+07	 2.82539371E-01	 2.84005977E-02
5.02929926E+07	 2.82582660E-01	 2.79677656E-02
5.03052006E+07	 2.82620548E-01	 2.75313607E-02
5.03174086E+07	 2.82656224E-01	 2.71044434E-02
5.03296167E+07	 2.82703207E-01	 2.66717038E-02
5.03418247E+07	 2.82736434E-01	 2.62391831E-02
5.03540327E+07	 2.82774844E-01	 2.58018778E-02
5.03662407E+07	 2.82813704E-01	 2.53656811E-02
5.03784488E+07	 2.82847803E-01	 2.49307552E-02
5.03906568E+07	 2.82876160E-01	 2.45010233E-02
5.04028648E+07	 2.82918058E-01	 2.40652383E-02
5.04150728E+07	 2.82955998E-01	 2.36362288E-02
5.04272809E+07	 2.82984145E-01	 2.32043714E-02
5.04394889E+07	 2.83010962E-01	 2.27670591E-02
5.04516969E+07	 2.83053266E-01	 2.23304085E-02
5.04639049E+07	 2.83079433E-01	 2.18968064E-02
5.04761130E+07	 2.83106732E-01	 2.14610414E-02
5.04883210E+07	 2.83140141E-01	 2.10282697E-02
5.05005290E+07	 2.83174190E-01	 2.06001053E-02
5.05127370E+07	 2.83199305E-01	 2.01669099E-02
5.05249451E+07	 2.83225506E-01	 1.97286095E-02
5.05371531E+07	 2.83257591E-01	 1.93003026E-02
5.05493611E+07	 2.83291380E-01	 1.88619351E-02
5.05615691E+07	 2.83308403E-01	 1.84303103E-02
5.05737772E+07	 2.83332568E-01	 1.80006348E-02
5.05859852E+07	 2.83361116E-01	 1.75609045E-02
5.05981932E+07	 2.83385599E-01	 1.71259735E-02
5.06104012E+07	 2.83404609E-01	 1.66916696E-02
5.06226093E+07	 2.83433975E-01	 1.62590533E-02
5.06348173E+07	 2.83452863E-01	 1.58267702E-02
5.06470253E+07	 2.83476493E-01	 1.53879949E-02
5.06592333E+07	 2.83496391E-01	 1.49544137E-02
5.06714414E+07	 2.83517147E-01	 1.45160734E-02
5.06836494E+07	 2.83537638E-01	 1.40868106E-02
5.06958574E+07	 2.83551405E-01	 1.36481335E-02
5.07080654E+07	 2.83579874E-01	 1.32151293E-02
5.07202735E+07	 2.83589709E-01	 1.27815320E-02
5.07324815E+07	 2.83610454E-01	 1.23519838E-02
5.07446895E+07	 2.83623643E-01	 1.19091493E-02
5.07568975E+07	 2.83637369E-01	 1.14848874E-02
5.07691056E+07	 2.83658901E-01	 1.10464923E-02
5.07813136E+07	 2.83668712E-01	 1.06074107E-02
5.07935216E+07	 2.83687778E-01	 1.01733579E-02
5.08057296E+07	 2.83694291E-01	 9.73784593E-03
5.08179377E+07	 2.83709577E-01	 9.30524564E-03
5.08301457E+07	 2.83715760E-01	 8.86736337E-03
5.08423537E+07	 2.83731810E-01	 8.43341482E-03
5.08545617E+07	 2.83746352E-01	 7.99764598E-03
5.08667698E+07	 2.83758252E-01	 7.56061170E-03
5.08789778E+07	 2.83757361E-01	 7.13386107E-03
5.08911858E+07	 2.83768434E-01	 6.69782636E-03
5.09033938E+07	 2.83779584E-01	 6.25775419E-03
5.09156019E+07	 2.83784837E-01	 5.83013970E-03
5.09278099E+07	 2.83788442E-01	 5.39473048E-03
5.09400179E+07	 2.83799858E-01	 4.95924233E-03
5.09522259E+07	 2.83799206E-01	 4.52086056E-03
5.09644340E+07	 2.83802743E-01	 4.08294148E-03
5.09766420E+07	 2.83813046E-01	 3.65245893E-03
5.09888500E+07	 2.83806928E-01	 3.21478113E-03
5.10010580E+07	 2.83816222E-01	 2.78040440E-03
5.10132661E+07	 2.83816605E-01	 2.34096706E-03
5.10254741E+07	 2.83814408E-01	 1.90860710E-03
5.10376821E+07	 2.83822118E-01	 1.47101844E-03
5.10498901E+07	 2.83820236E-01	 1.03774606E-03
5.10620982E+07	 2.83824178E-01	 6.06394536E-04
5.10743062E+07	 2.83818060E-01	 1.66316809E-04
5.10865142E+07	 2.83824112E-01	-2.64011204E-04
5.10987222E+07	 2.83817168E-01	-7.00412070E-04
5.11109303E+07	 2.83812945E-01	-1.13437546E-03
5.11231383E+07	 2.83808193E-01	-1.56715605E-03
5.11353463E+07	 2.83805871E-01	-2.00748781E-03
5.11475543E+07	 2.83804107E-01	-2.44542208E-03
5.11597624E+07	 2.83790172E-01	-2.87274685E-03
5.11719704E+07	 2.83786805E-01	-3.30692165E-03
5.11841784E+07	 2.83786475E-01	-3.74735295E-03
5.11963864E+07	 2.83770036E-01	-4.18430513E-03
5.12085944E+07	 2.83762533E-01	-4.61575698E-03
5.12208025E+07	 2.83756946E-01	-5.05287718E-03
5.12330105E+07	 2.83748330E-01	-5.48411379E-03
5.12452185E+07	 2.83732937E-01	-5.92478036E-03
5.12574265E+07	 2.83730626E-01	-6.35894891E-03
5.12696346E+07	 2.83711963E-01	-6.78932940E-03
5.12818426E+07	 2.83696929E-01	-7.22189050E-03
5.12940506E+07	 2.83686907E-01	-7.66254258E-03
5.13062586E+07	 2.83670696E-01	-8.08911551E-03
5.13184667E+07	 2.83658794E-01	-8.52631197E-03
5.13306747E+07	 2.83643009E-01	-8.96021752E-03
5.13428827E+07	 2.83629025E-01	-9.39830635E-03
5.13550907E+07	 2.83609771E-01	-9.83297807E-03
5.13672988E+07	 2.83593715E-01	-1.02607633E-02
5.13795068E+07	 2.83576966E-01	-1.07016672E-02
5.13917148E+07	 2.83558986E-01	-1.11317444E-02
5.14039228E+07	 2.83543135E-01	-1.15690897E-02
5.14161309E+07	 2.83523193E-01	-1.20014122E-02
5.14283389E+07	 2.83504744E-01	-1.24317340E-02
5.14405469E+07	 2.83480789E-01	-1.28666091E-02
5.14527549E+07	 2.83460321E-01	-1.33059823E-02
5.14649630E+07	 2.83442229E-01	-1.37375759E-02
5.14771710E+07	 2.83414311E-01	-1.41700481E-02
5.14893790E+07	 2.83392227E-01	-1.46030739E-02
5.15015870E+07	 2.83368097E-01	-1.50360298E-02
5.15137951E+07	 2.83336787E-01	-1.54758478E-02
5.15260031E+07	 2.83319429E-01	-1.59066000E-02
5.15382111E+07	 2.83287834E-01	-1.63448135E-02
5.15504191E+07	 2.83262792E-01	-1.67775408E-02
5.15626272E+07	 2.83238857E-01	-1.72100779E-02
5.15748352E+07	 2.83213260E-01	-1.76413435E-02
5.15870432E+07	 2.83180823E-01	-1.80721468E-02
5.15992512E+07	 2.83153737E-01	-1.85123079E-02
5.16114593E+07	 2.83122420E-01	-1.89457143E-02
5.16236673E+07	 2.83090586E-01	-1.93794376E-02
5.16358753E+07	 2.83060654E-01	-1.98148161E-02
5.16480833E+07	 2.83025748E-01	-2.02432276E-02
5.16602914E+07	 2.82995519E-01	-2.06803608E-02
5.16724994E+07	 2.82958492E-01	-2.11199937E-02
5.16847074E+07	 2.82928371E-01	-2.15464049E-02
5.16969154E+07	 2.82895127E-01	-2.19841047E-02
5.17091235E+07	 2.82859744E-01	-2.24179184E-02
5.17213315E+07	 2.82817935E-01	-2.28485406E-02
5.17335395E+07	 2.82787142E-01	-2.32813639E-02
5.17457475E+07	 2.82750219E-01	-2.37154601E-02
5.17579556E+07	 2.82702455E-01	-2.41469937E-02
5.17701636E+07	 2.82675676E-01	-2.45834354E-02
5.17823716E+07	 2.82631683E-01	-2.50182105E-02
5.17945796E+07	 2.82591531E-01	-2.54517956E-02
5.18067877E+07	 2.82552602E-01	-2.58803011E-02
5.18189957E+07	 2.82510573E-01	-2.63137924E-02
5.18312037E+07	 2.82472002E-01	-2.67514906E-02
5.18434117E+07	 2.82429739E-01	-2.71795691E-02
5.18556198E+07	 2.82387222E-01	-2.76075315E-02
5.18678278E+07	 2.82335974E-01	-2.80471324E-02
5.18800358E+07	 2.82294343E-01	-2.84808350E-02
5.18922438E+07	 2.82250442E-01	-2.89108947E-02
5.19044519E+07	 2.82207418E-01	-2.93418273E-02
5.19166599E+07	 2.82160375E-01	-2.97818105E-02
5.19288679E+07	 2.82113841E-01	-3.02105662E-02
5.19410759E+07	 2.82068086E-01	-3.06419804E-02
5.19532840E+07	 2.82012867E-01	-3.10722334E-02
5.19654920E+07	 2.81966200E-01	-3.15106322E-02
5.19777000E+07	 2.81920481E-01	-3.19410514E-02
5.19899080E+07	 2.81869066E-01	-3.23655624E-02
5.20021161E+07	 2.81813251E-01	-3.28075851E-02
5.20143241E+07	 2.81769617E-01	-3.32280394E-02
5.20265321E+07	 2.81713510E-01	-3.36685585E-02
5.20387401E+07	 2.81657205E-01	-3.40910643E-02
5.20509482E+07	 2.81612463E-01	-3.45295748E-02
5.20631562E+07	 2.81550645E-01	-3.49575275E-02
5.20753642E+07	 2.81491867E-01	-3.53944887E-02
5.20875722E+07	 2.81441872E-01	-3.58252536E-02
5.20997803E+07	 2.81383871E-01	-3.62537089E-02
5.21119883E+07	 2.81322923E-01	-3.66842921E-02
5.21241963E+07	 2.81267414E-01	-3.71153554E-02
5.21364043E+07	 2.81217208E-01	-3.75497912E-02
5.21486124E+07	 2.81151828E-01	-3.79791378E-02
5.21608204E+07	 2.81088824E-01	-3.84133600E-02
5.21730284E+07	 2.81028206E-01	-3.88419234E-02
5.21852364E+07	 2.80969913E-01	-3.92740295E-02
5.21974445E+07	 2.80909046E-01	-3.97017227E-02
5.22096525E+07	 2.80853052E-01	-4.01338427E-02
5.22218605E+07	 2.80782736E-01	-4.05671938E-02
5.22340685E+07	 2.80715907E-01	-4.09936768E-02
5.22462766E+07	 2.80648707E-01	-4.14306603E-02
5.22584846E+07	 2.80589485E-01	-4.18555601E-02
5.22706926E+07	 2.80524910E-01	-4.22837623E-02
5.22829006E+07	 2.80454629E-01	-4.27136718E-02
5.22951087E+07	 2.80386717E-01	-4.31464240E-02
5.23073167E+07	 2.80322762E-01	-4.35772546E-02
5.23195247E+07	 2.80254173E-01	-4.40012266E-02
5.23317327E+07	 2.80183099E-01	-4.44356964E-02
5.23439408E+07	 2.80119858E-01	-4.48645853E-02
5.23561488E+07	 2.80048180E-01	-4.52979937E-02
5.23683568E+07	 2.79971995E-01	-4.57182161E-02
5.23805648E+07	 2.79900114E-01	-4.61482773E-02
5.23927728E+07	 2.79832340E-01	-4.65816409E-02
5.24049809E+07	 2.79758340E-01	-4.70147007E-02
5.24171889E+07	 2.79693867E-01	-4.74354224E-02
5.24293969E+07	 2.79612104E-01	-4.78648833E-02
5.24416049E+07	 2.79528713E-01	-4.82945266E-02
5.24538130E+07	 2.79454735E-01	-4.87222251E-02
5.24660210E+07	 2.79382562E-01	-4.91539303E-02
5.24782290E+07	 2.79306755E-01	-4.95763094E-02
5.24904370E+07	 2.79227051E-01	-5.00117632E-02
5.25026451E+07	 2.79158843E-01	-5.04378696E-02
5.25148531E+07	 2.79075838E-01	-5.08632251E-02
5.25270611E+07	 2.78993365E-01	-5.12961973E-02
5.25392691E+07	 2.78916835E-01	-5.17161994E-02
5.25514772E+07	 2.78838081E-01	-5.21444794E-02
5.25636852E+07	 2.78749531E-01	-5.25747566E-02
5.25758932E+07	 2.78667755E-01	-5.30051557E-02
5.25881012E+07	 2.78589962E-01	-5.34274492E-02
5.26003093E+07	 2.78502831E-01	-5.38534052E-02
5.26125173E+07	 2.78419467E-01	-5.42787525E-02
5.26247253E+07	 2.78342669E-01	-5.47159444E-02
5.26369333E+07	 2.78252146E-01	-5.51339940E-02
5.26491414E+07	 2.78165415E-01	-5.55644105E-02
5.26613494E+07	 2.78082345E-01	-5.59827639E-02
5.26735574E+07	 2.77998284E-01	-5.64097612E-02
5.26857654E+07	 2.77907485E-01	-5.68475437E-02
5.26979735E+07	 2.77811760E-01	-5.72608747E-02
5.27101815E+07	 2.77727667E-01	-5.76956797E-02
5.27223895E+07	 2.77634193E-01	-5.81126197E-02
5.27345975E+07	 2.77545644E-01	-5.85424494E-02
5.27468056E+07	 2.77452909E-01	-5.89605178E-02
5.27590136E+07	 2.77369549E-01	-5.93872306E-02
5.27712216E+07	 2.77276330E-01	-5.98144142E-02
5.27834296E+07	 2.77177827E-01	-6.02418512E-02
5.27956377E+07	 2.77087405E-01	-6.06670499E-02
5.28078457E+07	 2.76992160E-01	-6.10916345E-02
5.28200537E+07	 2.76897644E-01	-6.15133581E-02
5.28322617E+07	 2.76801067E-01	-6.19455856E-02
5.28444698E+07	 2.76711605E-01	-6.23677384E-02
5.28566778E+07	 2.76614077E-01	-6.27864716E-02
5.28688858E+07	 2.76513620E-01	-6.32151547E-02
5.28810938E+07	 2.76421770E-01	-6.36407218E-02
5.28933019E+07	 2.76318200E-01	-6.40654279E-02
5.29055099E+07	 2.76217957E-01	-6.44823244E-02
5.29177179E+07	 2.76121946E-01	-6.49133700E-02
5.29299259E+07	 2.76016874E-01	-6.53303464E-02
5.29421340E+07	 2.75917035E-01	-6.57557589E-02
5.29543420E+07	 2.75814604E-01	-6.61763666E-02
5.29665500E+07	 2.75708344E-01	-6.66025204E-02
5.29787580E+07	 2.75607364E-01	-6.70262976E-02
5.29909661E+07	 2.75507801E-01	-6.74451251E-02
5.30031741E+07	 2.75409734E-01	-6.78595639E-02
5.30153821E+07	 2.75296273E-01	-6.82915773E-02
5.30275901E+07	 2.75193843E-01	-6.87105110E-02
5.30397982E+07	 2.75084278E-01	-6.91363528E-02
5.30520062E+07	 2.74978653E-01	-6.95523641E-02
5.30642142E+07	 2.74874768E-01	-6.99786736E-02
5.30764222E+07	 2.74765285E-01	-7.03927355E-02
5.30886303E+07	 2.74650780E-01	-7.08219707E-02
5.31008383E+07	 2.74550845E-01	-7.12396058E-02
5.31130463E+07	 2.74431101E-01	-7.16622308E-02
5.31252543E+07	 2.74330098E-01	-7.20803024E-02
5.31374624E+07	 2.74218876E-01	-7.24920938E-02
5.31496704E+07	 2.74099408E-01	-7.29211771E-02
5.31618784E+07	 2.73993323E-01	-7.33455141E-02
5.31740864E+07	 2.73877757E-01	-7.37587767E-02
5.31862945E+07	 2.73761553E-01	-7.41790023E-02
5.31985025E+07	 2.73647679E-01	-7.46078464E-02
5.32107105E+07	 2.73527612E-01	-7.50161780E-02
5.32229185E+07	 2.73417686E-01	-7.54377121E-02
5.32351266E+07	 2.73302424E-01	-7.58539314E-02
5.32473346E+07	 2.73182097E-01	-7.62780680E-02
5.32595426E+07	 2.73068211E-01	-7.66910497E-02
5.32717506E+07	 2.72948420E-01	-7.71146363E-02
5.32839587E+07	 2.72825033E-01	-7.75295942E-02
5.32961667E+07	 2.72705080E-01	-7.79485395E-02
5.33083747E+07	 2.72592209E-01	-7.83651042E-02
5.33205827E+07	 2.72474337E-01	-7.87817399E-02
5.33327908E+07	 2.72342755E-01	-7.92019876E-02
5.33449988E+07	 2.72230768E-01	-7.96179831E-02
5.33572068E+07	 2.72105849E-01	-8.00313859E-02
5.33694148E+07	 2.71978430E-01	-8.04494318E-02
5.33816229E+07	 2.71853785E-01	-8.08712379E-02
5.33938309E+07	 2.71732084E-01	-8.12819998E-02
5.34060389E+07	 2.71603355E-01	-8.17034795E-02
5.34182469E+07	 2.71481185E-01	-8.21231120E-02
5.34304550E+07	 2.71349485E-01	-8.25344242E-02
5.34426630E+07	 2.71233456E-01	-8.29541587E-02
5.34548710E+07	 2.71099540E-01	-8.33632034E-02
5.34670790E+07	 2.70973301E-01	-8.37769142E-02
5.34792871E+07	 2.70848755E-01	-8.42015268E-02
5.34914951E+07	 2.70708600E-01	-8.46139897E-02
5.35037031E+07	 2.70583261E-01	-8.50308471E-02
5.35159111E+07	 2.70450955E-01	-8.54473804E-02
5.35281192E+07	 2.70321080E-01	-8.58587447E-02
5.35403272E+07	 2.70191862E-01	-8.62735558E-02
5.35525352E+07	 2.70054727E-01	-8.66860012E-02
5.35647432E+07	 2.69925766E-01	-8.70958279E-02
5.35769512E+07	 2.69787037E-01	-8.75127835E-02
5.35891593E+07	 2.69659513E-01	-8.79293591E-02
5.36013673E+07	 2.69518180E-01	-8.83394740E-02
5.36135753E+07	 2.69381283E-01	-8.87569329E-02
5.36257833E+07	 2.69250457E-01	-8.91702082E-02
5.36379914E+07	 2.69107588E-01	-8.95763840E-02
5.36501994E+07	 2.68969748E-01	-8.99990900E-02
5.36624074E+07	 2.68830524E-01	-9.04091066E-02
5.36746154E+07	 2.68694704E-01	-9.08217916E-02
5.36868235E+07	 2.68551063E-01	-9.12266206E-02
5.36990315E+07	 2.68414052E-01	-9.16384141E-02
5.37112395E+07	 2.68272467E-01	-9.20494260E-02
5.37234475E+07	 2.68132784E-01	-9.24664850E-02
5.37356556E+07	 2.67988754E-01	-9.28749724E-02
5.37478636E+07	 2.67844057E-01	-9.32870999E-02
5.37600716E+07	 2.67703870E-01	-9.36944586E-02
5.37722796E+07	 2.67561270E-01	-9.41082230E-02
5.37844877E+07	 2.67415703E-01	-9.45196822E-02
5.37966957E+07	 2.67270170E-01	-9.49311008E-02
5.38089037E+07	 2.67125037E-01	-9.53363299E-02
5.38211117E+07	 2.66976778E-01	-9.57417150E-02
5.38333198E+07	 2.66835100E-01	-9.61562269E-02
5.38455278E+07	 2.66682210E-01	-9.65622814E-02
5.38577358E+07	 2.66536702E-01	-9.69812705E-02
5.38699438E+07	 2.66383140E-01	-9.73815553E-02
5.38821519E+07	 2.66240761E-01	-9.77903025E-02
5.38943599E+07	 2.66079367E-01	-9.81890808E-02
5.39065679E+07	 2.65933839E-01	-9.86053693E-02
5.39187759E+07	 2.65783134E-01	-9.90181741E-02
5.39309840E+07	 2.65635451E-01	-9.94250554E-02
5.39431920E+07	 2.65479521E-01	-9.98297299E-02
5.39554000E+07	 2.65332661E-01	-1.00236798E-01
5.39676080E+07	 2.65175832E-01	-1.00643263E-01
5.39798161E+07	 2.65022764E-01	-1.01044954E-01
5.39920241E+07	 2.64863499E-01	-1.01455380E-01
5.40042321E+07	 2.64706141E-01	-1.01862195E-01
5.40164401E+07	 2.64553452E-01	-1.02263868E-01
5.40286482E+07	 2.64396348E-01	-1.02670884E-01
5.40408562E+07	 2.64234753E-01	-1.03083863E-01
5.40530642E+07	 2.64084556E-01	-1.03483224E-01
5.40652722E+07	 2.63917524E-01	-1.03885566E-01
5.40774803E+07	 2.63767284E-01	-1.04292304E-01
5.40896883E+07	 2.63605773E-01	-1.04694198E-01
5.41018963E+07	 2.63438224E-01	-1.05102082E-01
5.41141043E+07	 2.63282472E-01	-1.05505750E-01
5.41263124E+07	 2.63121491E-01	-1.05907241E-01
5.41385204E+07	 2.62961895E-01	-1.06319256E-01
5.41507284E+07	 2.62791522E-01	-1.06713478E-01
5.41629364E+07	 2.62632829E-01	-1.07120965E-01
5.41751445E+07	 2.62466861E-01	-1.07522754E-01
5.41873525E+07	 2.62303897E-01	-1.07923582E-01
5.41995605E+07	 2.62133771E-01	-1.08327725E-01
5.42117685E+07	 2.61967354E-01	-1.08735583E-01
5.42239766E+07	 2.61803144E-01	-1.09134714E-01
5.42361846E+07	 2.61633096E-01	-1.09538724E-01
5.42483926E+07	 2.61464892E-01	-1.09937309E-01
5.42606006E+07	 2.61296376E-01	-1.10337822E-01
5.42728087E+07	 2.61127197E-01	-1.10736606E-01
5.42850167E+07	 2.60965628E-01	-1.11132517E-01
5.42972247E+07	 2.60788325E-01	-1.11535410E-01
5.43094327E+07	 2.60619183E-01	-1.11936301E-01
5.43216408E+07	 2.60443883E-01	-1.12337643E-01
5.43338488E+07	 2.60272250E-01	-1.12739331E-01
5.43460568E+07	 2.60099804E-01	-1.13139559E-01
5.43582648E+07	 2.59923015E-01	-1.13540072E-01
5.43704729E+07	 2.59751708E-01	-1.13934421E-01
5.43826809E+07	 2.59577137E-01	-1.14337563E-01
5.43948889E+07	 2.59400398E-01	-1.14728574E-01
5.44070969E+07	 2.59225755E-01	-1.15129514E-01
5.44193050E+07	 2.59046707E-01	-1.15521836E-01
5.44315130E+07	 2.58871112E-01	-1.15926615E-01
5.44437210E+07	 2.58695662E-01	-1.16321286E-01
5.44559290E+07	 2.58516518E-01	-1.16722638E-01
5.44681371E+07	 2.58334706E-01	-1.17117919E-01
5.44803451E+07	 2.58162701E-01	-1.17511685E-01
5.44925531E+07	 2.57976511E-01	-1.17914216E-01
5.45047611E+07	 2.57796042E-01	-1.18311143E-01
5.45169692E+07	 2.57621956E-01	-1.18704975E-01
5.45291772E+07	 2.57437466E-01	-1.19096986E-01
5.45413852E+07	 2.57251906E-01	-1.19489786E-01
5.45535932E+07	 2.57060581E-01	-1.19881803E-01
5.45658013E+07	 2.56888456E-01	-1.20277697E-01
5.45780093E+07	 2.56702071E-01	-1.20675263E-01
5.45902173E+07	 2.56524068E-01	-1.21068200E-01
5.46024253E+07	 2.56325874E-01	-1.21469670E-01
5.46146334E+07	 2.56142069E-01	-1.21853216E-01
5.46268414E+07	 2.55957506E-01	-1.22253012E-01
5.46390494E+07	 2.55773472E-01	-1.22649480E-01
5.46512574E+07	 2.55583076E-01	-1.23035995E-01
5.46634655E+07	 2.55389004E-01	-1.23427056E-01
5.46756735E+07	 2.55200293E-01	-1.23824514E-01
5.46878815E+07	 2.55021609E-01	-1.24215132E-01
5.47000895E+07	 2.54823357E-01	-1.24602140E-01
5.47122976E+07	 2.54639788E-01	-1.24999134E-01
5.47245056E+07	 2.54431927E-01	-1.25390105E-01
5.47367136E+07	 2.54250090E-01	-1.25777139E-01
5.47489216E+07	 2.54058115E-01	-1.26161762E-01
5.47611296E+07	 2.53863644E-01	-1.26554538E-01
5.47733377E+07	 2.53664475E-01	-1.26945452E-01
5.47855457E+07	 2.53470172E-01	-1.27337502E-01
5.47977537E+07	 2.53279707E-01	-1.27726389E-01
5.48099617E+07	 2.53079031E-01	-1.28121128E-01
5.48221698E+07	 2.52888045E-01	-1.28501563E-01
5.48343778E+07	 2.52692089E-01	-1.28889703E-01
5.48465858E+07	 2.52489638E-01	-1.29281046E-01
5.48587938E+07	 2.52296350E-01	-1.29669656E-01
5.48710019E+07	 2.52097281E-01	-1.30052745E-01
5.48832099E+07	 2.51898247E-01	-1.30446629E-01
5.48954179E+07	 2.51690107E-01	-1.30828397E-01
5.49076259E+07	 2.51494422E-01	-1.31211048E-01
5.49198340E+07	 2.51297849E-01	-1.31594674E-01
5.49320420E+07	 2.51091535E-01	-1.31987184E-01
5.49442500E+07	 2.50883716E-01	-1.32369719E-01
5.49564580E+07	 2.50687955E-01	-1.32757744E-01
5.49686661E+07	 2.50482130E-01	-1.33143484E-01
5.49808741E+07	 2.50282323E-01	-1.33526440E-01
5.49930821E+07	 2.50080042E-01	-1.33909089E-01
5.50052901E+07	 2.49872810E-01	-1.34301156E-01
5.50174982E+07	 2.49661317E-01	-1.34680797E-01
5.50297062E+07	 2.49465057E-01	-1.35061001E-01
5.50419142E+07	 2.49256781E-01	-1.35437441E-01
5.50541222E+07	 2.49047151E-01	-1.35828123E-01
5.50663303E+07	 2.48843910E-01	-1.36208081E-01
5.50785383E+07	 2.48633394E-01	-1.36590357E-01
5.50907463E+07	 2.48427851E-01	-1.36973449E-01
5.51029543E+07	 2.48212011E-01	-1.37352063E-01
5.51151624E+07	 2.48005082E-01	-1.37737986E-01
5.51273704E+07	 2.47791014E-01	-1.38115288E-01
