! COPPER MOUNTAIN TECHNOLOGIES, PLANAR TR1300/1, 00071119, 20.2.2/1.0
! Date: 1/7/2024 7:40:14 PM
! Data: Format [Calibration Info]
! Freq          	S11: Re/Im F1                  
# HZ S RI R 50
5.00000000E+07	 2.84491281E-03	-4.14114828E-03
5.00122080E+07	 2.84448412E-03	-4.14605231E-03
5.00244160E+07	 2.84239770E-03	-4.14489618E-03
5.00366241E+07	 2.84219071E-03	-4.14464695E-03
5.00488321E+07	 2.84094596E-03	-4.15058247E-03
5.00610401E+07	 2.84080694E-03	-4.14066033E-03
5.00732481E+07	 2.84238873E-03	-4.15065964E-03
5.00854562E+07	 2.83584830E-03	-4.14782150E-03
5.00976642E+07	 2.83332308E-03	-4.15386427E-03
5.01098722E+07	 2.83552730E-03	-4.14617004E-03
5.01220802E+07	 2.83852887E-03	-4.15949100E-03
5.01342883E+07	 2.83749627E-03	-4.16230658E-03
5.01464963E+07	 2.83426250E-03	-4.15728054E-03
5.01587043E+07	 2.83205792E-03	-4.16366305E-03
5.01709123E+07	 2.82898534E-03	-4.16359486E-03
5.01831204E+07	 2.83150862E-03	-4.16257876E-03
5.01953284E+07	 2.83042299E-03	-4.16282381E-03
5.02075364E+07	 2.83179336E-03	-4.16716822E-03
5.02197444E+07	 2.82659276E-03	-4.16875510E-03
5.02319525E+07	 2.82073926E-03	-4.16863675E-03
5.02441605E+07	 2.82854542E-03	-4.17378450E-03
5.02563685E+07	 2.82804414E-03	-4.17403192E-03
5.02685765E+07	 2.82188207E-03	-4.17282785E-03
5.02807846E+07	 2.82443745E-03	-4.18168033E-03
5.02929926E+07	 2.82633143E-03	-4.17620375E-03
5.03052006E+07	 2.82422261E-03	-4.18106014E-03
5.03174086E+07	 2.82226038E-03	-4.18079374E-03
5.03296167E+07	 2.82513083E-03	-4.18582262E-03
5.03418247E+07	 2.82101411E-03	-4.18842108E-03
5.03540327E+07	 2.82066054E-03	-4.18048367E-03
5.03662407E+07	 2.81805109E-03	-4.19207173E-03
5.03784488E+07	 2.81412402E-03	-4.19376068E-03
5.03906568E+07	 2.81230826E-03	-4.19027176E-03
5.04028648E+07	 2.81114215E-03	-4.19221123E-03
5.04150728E+07	 2.81910266E-03	-4.19758668E-03
5.04272809E+07	 2.80961948E-03	-4.19276659E-03
5.04394889E+07	 2.81190837E-03	-4.19839470E-03
5.04516969E+07	 2.80468637E-03	-4.20077240E-03
5.04639049E+07	 2.81060659E-03	-4.20530756E-03
5.04761130E+07	 2.80425999E-03	-4.20404954E-03
5.04883210E+07	 2.80493002E-03	-4.20301062E-03
5.05005290E+07	 2.81012812E-03	-4.20184024E-03
5.05127370E+07	 2.80421256E-03	-4.20548695E-03
5.05249451E+07	 2.80497936E-03	-4.20739411E-03
5.05371531E+07	 2.80073999E-03	-4.20842806E-03
5.05493611E+07	 2.80340965E-03	-4.20611200E-03
5.05615691E+07	 2.80102754E-03	-4.21115546E-03
5.05737772E+07	 2.80377222E-03	-4.21186879E-03
5.05859852E+07	 2.79309603E-03	-4.21452503E-03
5.05981932E+07	 2.79663075E-03	-4.21739660E-03
5.06104012E+07	 2.79391585E-03	-4.21818744E-03
5.06226093E+07	 2.79660546E-03	-4.22273208E-03
5.06348173E+07	 2.79223273E-03	-4.21690335E-03
5.06470253E+07	 2.79634261E-03	-4.21848344E-03
5.06592333E+07	 2.79085292E-03	-4.22809543E-03
5.06714414E+07	 2.79649040E-03	-4.22760775E-03
5.06836494E+07	 2.79259250E-03	-4.22903457E-03
5.06958574E+07	 2.78845450E-03	-4.23413319E-03
5.07080654E+07	 2.78787749E-03	-4.22983209E-03
5.07202735E+07	 2.78596759E-03	-4.23313174E-03
5.07324815E+07	 2.78350387E-03	-4.22952263E-03
5.07446895E+07	 2.78418938E-03	-4.23311629E-03
5.07568975E+07	 2.78578470E-03	-4.23576744E-03
5.07691056E+07	 2.79030508E-03	-4.24087012E-03
5.07813136E+07	 2.78463061E-03	-4.23735112E-03
5.07935216E+07	 2.78078990E-03	-4.24065554E-03
5.08057296E+07	 2.78238976E-03	-4.24524804E-03
5.08179377E+07	 2.77842461E-03	-4.24384834E-03
5.08301457E+07	 2.77240390E-03	-4.24434362E-03
5.08423537E+07	 2.77857072E-03	-4.24583997E-03
5.08545617E+07	 2.77469755E-03	-4.24841172E-03
5.08667698E+07	 2.77898582E-03	-4.24954115E-03
5.08789778E+07	 2.77788600E-03	-4.25172252E-03
5.08911858E+07	 2.77100481E-03	-4.25379570E-03
5.09033938E+07	 2.77188714E-03	-4.25498342E-03
5.09156019E+07	 2.77476192E-03	-4.25640815E-03
5.09278099E+07	 2.76867916E-03	-4.25678169E-03
5.09400179E+07	 2.77544070E-03	-4.25933435E-03
5.09522259E+07	 2.77081975E-03	-4.25741322E-03
5.09644340E+07	 2.76744726E-03	-4.26313037E-03
5.09766420E+07	 2.76388933E-03	-4.26163850E-03
5.09888500E+07	 2.76065122E-03	-4.26295876E-03
5.10010580E+07	 2.77009258E-03	-4.26458236E-03
5.10132661E+07	 2.76383524E-03	-4.26776997E-03
5.10254741E+07	 2.76096186E-03	-4.27267454E-03
5.10376821E+07	 2.76737737E-03	-4.27159524E-03
5.10498901E+07	 2.76305664E-03	-4.27470469E-03
5.10620982E+07	 2.76302743E-03	-4.27186665E-03
5.10743062E+07	 2.76221622E-03	-4.27242010E-03
5.10865142E+07	 2.76408568E-03	-4.27612159E-03
5.10987222E+07	 2.76190453E-03	-4.28503021E-03
5.11109303E+07	 2.76366554E-03	-4.28114519E-03
5.11231383E+07	 2.76180108E-03	-4.28616403E-03
5.11353463E+07	 2.75684323E-03	-4.28790734E-03
5.11475543E+07	 2.76162296E-03	-4.28878707E-03
5.11597624E+07	 2.75839541E-03	-4.29038188E-03
5.11719704E+07	 2.75515154E-03	-4.29081750E-03
5.11841784E+07	 2.75728770E-03	-4.29424737E-03
5.11963864E+07	 2.75547421E-03	-4.29322015E-03
5.12085944E+07	 2.75360166E-03	-4.29792979E-03
5.12208025E+07	 2.75717264E-03	-4.29982879E-03
5.12330105E+07	 2.75497955E-03	-4.29929789E-03
5.12452185E+07	 2.75436637E-03	-4.30199795E-03
5.12574265E+07	 2.75693407E-03	-4.30299054E-03
5.12696346E+07	 2.75380353E-03	-4.30676134E-03
5.12818426E+07	 2.74975795E-03	-4.30777275E-03
5.12940506E+07	 2.75359872E-03	-4.30699648E-03
5.13062586E+07	 2.75003140E-03	-4.30451215E-03
5.13184667E+07	 2.74916349E-03	-4.31096340E-03
5.13306747E+07	 2.75585803E-03	-4.30545498E-03
5.13428827E+07	 2.74878589E-03	-4.31267144E-03
5.13550907E+07	 2.75024818E-03	-4.31911867E-03
5.13672988E+07	 2.75121034E-03	-4.31274954E-03
5.13795068E+07	 2.74971259E-03	-4.31810412E-03
5.13917148E+07	 2.74572656E-03	-4.31775606E-03
5.14039228E+07	 2.74434796E-03	-4.32551217E-03
5.14161309E+07	 2.74533996E-03	-4.31993847E-03
5.14283389E+07	 2.74505235E-03	-4.32418681E-03
5.14405469E+07	 2.74379217E-03	-4.32743162E-03
5.14527549E+07	 2.74137823E-03	-4.32638862E-03
5.14649630E+07	 2.74358443E-03	-4.32742258E-03
5.14771710E+07	 2.74336151E-03	-4.32725230E-03
5.14893790E+07	 2.74111305E-03	-4.33192126E-03
5.15015870E+07	 2.74566102E-03	-4.33054501E-03
5.15137951E+07	 2.73996239E-03	-4.33766075E-03
5.15260031E+07	 2.74148941E-03	-4.33693820E-03
5.15382111E+07	 2.74092236E-03	-4.33795462E-03
5.15504191E+07	 2.73522552E-03	-4.33765321E-03
5.15626272E+07	 2.74179594E-03	-4.34033005E-03
5.15748352E+07	 2.73966450E-03	-4.34111555E-03
5.15870432E+07	 2.73884319E-03	-4.34105443E-03
5.15992512E+07	 2.73527083E-03	-4.34681082E-03
5.16114593E+07	 2.73649662E-03	-4.34695717E-03
5.16236673E+07	 2.73440721E-03	-4.34704111E-03
5.16358753E+07	 2.73410477E-03	-4.35127553E-03
5.16480833E+07	 2.72930676E-03	-4.35101428E-03
5.16602914E+07	 2.73574843E-03	-4.35168927E-03
5.16724994E+07	 2.73703088E-03	-4.35482021E-03
5.16847074E+07	 2.73169105E-03	-4.35192470E-03
5.16969154E+07	 2.73679351E-03	-4.36162009E-03
5.17091235E+07	 2.72724500E-03	-4.35793281E-03
5.17213315E+07	 2.73306688E-03	-4.36148876E-03
5.17335395E+07	 2.73166502E-03	-4.36158558E-03
5.17457475E+07	 2.73166912E-03	-4.36575046E-03
5.17579556E+07	 2.72934184E-03	-4.36495648E-03
5.17701636E+07	 2.72948396E-03	-4.36764795E-03
5.17823716E+07	 2.72951235E-03	-4.37100278E-03
5.17945796E+07	 2.73111064E-03	-4.37017685E-03
5.18067877E+07	 2.72314221E-03	-4.36799308E-03
5.18189957E+07	 2.72911060E-03	-4.37705414E-03
5.18312037E+07	 2.73040412E-03	-4.38283410E-03
5.18434117E+07	 2.72881756E-03	-4.37686037E-03
5.18556198E+07	 2.72265068E-03	-4.37685124E-03
5.18678278E+07	 2.72353772E-03	-4.38315680E-03
5.18800358E+07	 2.72150687E-03	-4.38343855E-03
5.18922438E+07	 2.72674151E-03	-4.38190658E-03
5.19044519E+07	 2.72651935E-03	-4.38790005E-03
5.19166599E+07	 2.72639764E-03	-4.39066732E-03
5.19288679E+07	 2.72124787E-03	-4.39227398E-03
5.19410759E+07	 2.72404249E-03	-4.38944128E-03
5.19532840E+07	 2.71523695E-03	-4.39197605E-03
5.19654920E+07	 2.72329536E-03	-4.39487719E-03
5.19777000E+07	 2.72034249E-03	-4.40276449E-03
5.19899080E+07	 2.72143625E-03	-4.39328251E-03
5.20021161E+07	 2.71584702E-03	-4.40333917E-03
5.20143241E+07	 2.71829484E-03	-4.39896634E-03
5.20265321E+07	 2.71589228E-03	-4.40325326E-03
5.20387401E+07	 2.71426136E-03	-4.40040639E-03
5.20509482E+07	 2.71512189E-03	-4.40377779E-03
5.20631562E+07	 2.71512296E-03	-4.40797622E-03
5.20753642E+07	 2.70942058E-03	-4.40612631E-03
5.20875722E+07	 2.70852945E-03	-4.40972930E-03
5.20997803E+07	 2.70935618E-03	-4.41138719E-03
5.21119883E+07	 2.70922776E-03	-4.41090672E-03
5.21241963E+07	 2.70838148E-03	-4.41128072E-03
5.21364043E+07	 2.70950093E-03	-4.41609299E-03
5.21486124E+07	 2.71066486E-03	-4.42135341E-03
5.21608204E+07	 2.70900420E-03	-4.42028898E-03
5.21730284E+07	 2.69808410E-03	-4.42248358E-03
5.21852364E+07	 2.70733940E-03	-4.42603697E-03
5.21974445E+07	 2.69994541E-03	-4.42275533E-03
5.22096525E+07	 2.70677866E-03	-4.42199241E-03
5.22218605E+07	 2.69635611E-03	-4.42672878E-03
5.22340685E+07	 2.70242611E-03	-4.42581076E-03
5.22462766E+07	 2.69880093E-03	-4.43014096E-03
5.22584846E+07	 2.69812751E-03	-4.43173481E-03
5.22706926E+07	 2.69492005E-03	-4.43021232E-03
5.22829006E+07	 2.69769291E-03	-4.43473642E-03
5.22951087E+07	 2.69999737E-03	-4.43563897E-03
5.23073167E+07	 2.69530702E-03	-4.43527698E-03
5.23195247E+07	 2.69511520E-03	-4.43449698E-03
5.23317327E+07	 2.69344260E-03	-4.44014898E-03
5.23439408E+07	 2.69457036E-03	-4.44455288E-03
5.23561488E+07	 2.69420067E-03	-4.44473529E-03
5.23683568E+07	 2.69002125E-03	-4.44231870E-03
5.23805648E+07	 2.68838000E-03	-4.44386019E-03
5.23927728E+07	 2.68802110E-03	-4.44932755E-03
5.24049809E+07	 2.68897726E-03	-4.44344125E-03
5.24171889E+07	 2.68300850E-03	-4.44532800E-03
5.24293969E+07	 2.68487606E-03	-4.45163761E-03
5.24416049E+07	 2.68097210E-03	-4.45319576E-03
5.24538130E+07	 2.68106649E-03	-4.45096164E-03
5.24660210E+07	 2.68189792E-03	-4.45590299E-03
5.24782290E+07	 2.67949243E-03	-4.45815843E-03
5.24904370E+07	 2.67942675E-03	-4.45842281E-03
5.25026451E+07	 2.67942467E-03	-4.45567913E-03
5.25148531E+07	 2.68295653E-03	-4.46142678E-03
5.25270611E+07	 2.67880293E-03	-4.46518660E-03
5.25392691E+07	 2.67925159E-03	-4.45889711E-03
5.25514772E+07	 2.67471700E-03	-4.46253638E-03
5.25636852E+07	 2.67214707E-03	-4.46425590E-03
5.25758932E+07	 2.66944530E-03	-4.46761409E-03
5.25881012E+07	 2.67347207E-03	-4.46724780E-03
5.26003093E+07	 2.67218603E-03	-4.47028594E-03
5.26125173E+07	 2.66577293E-03	-4.47548772E-03
5.26247253E+07	 2.67189316E-03	-4.47677547E-03
5.26369333E+07	 2.66860830E-03	-4.47594063E-03
5.26491414E+07	 2.66708694E-03	-4.47724561E-03
5.26613494E+07	 2.66404566E-03	-4.47492634E-03
5.26735574E+07	 2.66093395E-03	-4.48141526E-03
5.26857654E+07	 2.66164861E-03	-4.48838829E-03
5.26979735E+07	 2.66572726E-03	-4.48073857E-03
5.27101815E+07	 2.67004901E-03	-4.48173601E-03
5.27223895E+07	 2.65832024E-03	-4.48447538E-03
5.27345975E+07	 2.65744807E-03	-4.48409724E-03
5.27468056E+07	 2.65958872E-03	-4.48979887E-03
5.27590136E+07	 2.66129889E-03	-4.48492905E-03
5.27712216E+07	 2.65869423E-03	-4.49264867E-03
5.27834296E+07	 2.65644337E-03	-4.49106967E-03
5.27956377E+07	 2.65419805E-03	-4.49454175E-03
5.28078457E+07	 2.66021806E-03	-4.49221004E-03
5.28200537E+07	 2.65136291E-03	-4.49771536E-03
5.28322617E+07	 2.65351021E-03	-4.50079268E-03
5.28444698E+07	 2.65447123E-03	-4.50191257E-03
5.28566778E+07	 2.65193700E-03	-4.49953817E-03
5.28688858E+07	 2.64903526E-03	-4.49586506E-03
5.28810938E+07	 2.65128909E-03	-4.50450931E-03
5.28933019E+07	 2.64716685E-03	-4.50582559E-03
5.29055099E+07	 2.64557318E-03	-4.50864807E-03
5.29177179E+07	 2.64539194E-03	-4.50879139E-03
5.29299259E+07	 2.64355322E-03	-4.50823362E-03
5.29421340E+07	 2.63660598E-03	-4.50716949E-03
5.29543420E+07	 2.64070229E-03	-4.51297243E-03
5.29665500E+07	 2.63595481E-03	-4.51828341E-03
5.29787580E+07	 2.64279242E-03	-4.51971454E-03
5.29909661E+07	 2.64115923E-03	-4.51785936E-03
5.30031741E+07	 2.63773217E-03	-4.51319210E-03
5.30153821E+07	 2.63535795E-03	-4.51976849E-03
5.30275901E+07	 2.63817168E-03	-4.52254439E-03
5.30397982E+07	 2.63684554E-03	-4.52582053E-03
5.30520062E+07	 2.63512230E-03	-4.52233848E-03
5.30642142E+07	 2.63207474E-03	-4.52325444E-03
5.30764222E+07	 2.63572393E-03	-4.52898403E-03
5.30886303E+07	 2.63301547E-03	-4.52650896E-03
5.31008383E+07	 2.63006528E-03	-4.52878294E-03
5.31130463E+07	 2.63008426E-03	-4.53322377E-03
5.31252543E+07	 2.62980257E-03	-4.53299687E-03
5.31374624E+07	 2.63839761E-03	-4.53121038E-03
5.31496704E+07	 2.62830086E-03	-4.53424422E-03
5.31618784E+07	 2.62190389E-03	-4.53419947E-03
5.31740864E+07	 2.62567112E-03	-4.53582683E-03
5.31862945E+07	 2.62481474E-03	-4.53747441E-03
5.31985025E+07	 2.62697125E-03	-4.53932268E-03
5.32107105E+07	 2.61989816E-03	-4.54219557E-03
5.32229185E+07	 2.62291308E-03	-4.54444734E-03
5.32351266E+07	 2.62069084E-03	-4.54292966E-03
5.32473346E+07	 2.62089491E-03	-4.54535593E-03
5.32595426E+07	 2.62099869E-03	-4.54864814E-03
5.32717506E+07	 2.62149678E-03	-4.54611724E-03
5.32839587E+07	 2.61884846E-03	-4.54823936E-03
5.32961667E+07	 2.61818281E-03	-4.55680815E-03
5.33083747E+07	 2.61850907E-03	-4.55003304E-03
5.33205827E+07	 2.62524568E-03	-4.54954696E-03
5.33327908E+07	 2.60831276E-03	-4.55646084E-03
5.33449988E+07	 2.61354571E-03	-4.55540480E-03
5.33572068E+07	 2.61780735E-03	-4.55588186E-03
5.33694148E+07	 2.61244143E-03	-4.55727188E-03
5.33816229E+07	 2.60689806E-03	-4.56285859E-03
5.33938309E+07	 2.61169150E-03	-4.55838015E-03
5.34060389E+07	 2.60473521E-03	-4.56184646E-03
5.34182469E+07	 2.60755136E-03	-4.56459251E-03
5.34304550E+07	 2.60078104E-03	-4.56753115E-03
5.34426630E+07	 2.61002131E-03	-4.57213689E-03
5.34548710E+07	 2.60636795E-03	-4.56509150E-03
5.34670790E+07	 2.60920842E-03	-4.57117429E-03
5.34792871E+07	 2.60828748E-03	-4.57532638E-03
5.34914951E+07	 2.60712366E-03	-4.57746513E-03
5.35037031E+07	 2.60559896E-03	-4.57833769E-03
5.35159111E+07	 2.60510889E-03	-4.57618451E-03
5.35281192E+07	 2.60111528E-03	-4.57545268E-03
5.35403272E+07	 2.59944906E-03	-4.57956807E-03
5.35525352E+07	 2.60104417E-03	-4.58205132E-03
5.35647432E+07	 2.60114312E-03	-4.58062345E-03
5.35769512E+07	 2.59932751E-03	-4.58329119E-03
5.35891593E+07	 2.60142318E-03	-4.58443563E-03
5.36013673E+07	 2.60134952E-03	-4.58721665E-03
5.36135753E+07	 2.59631275E-03	-4.59515198E-03
5.36257833E+07	 2.59111904E-03	-4.58960116E-03
5.36379914E+07	 2.59560844E-03	-4.58820848E-03
5.36501994E+07	 2.59039469E-03	-4.59422467E-03
5.36624074E+07	 2.59225246E-03	-4.59598172E-03
5.36746154E+07	 2.59189129E-03	-4.59688464E-03
5.36868235E+07	 2.58963487E-03	-4.59751581E-03
5.36990315E+07	 2.59126218E-03	-4.59447269E-03
5.37112395E+07	 2.58988025E-03	-4.60216618E-03
5.37234475E+07	 2.58866961E-03	-4.59743476E-03
5.37356556E+07	 2.58717411E-03	-4.60569511E-03
5.37478636E+07	 2.58823879E-03	-4.60196557E-03
5.37600716E+07	 2.58279062E-03	-4.60232530E-03
5.37722796E+07	 2.58625767E-03	-4.60612572E-03
5.37844877E+07	 2.58467461E-03	-4.61263590E-03
5.37966957E+07	 2.58085346E-03	-4.61261100E-03
5.38089037E+07	 2.58245330E-03	-4.61549591E-03
5.38211117E+07	 2.58081879E-03	-4.61104219E-03
5.38333198E+07	 2.57530448E-03	-4.61345420E-03
5.38455278E+07	 2.57688212E-03	-4.61620879E-03
5.38577358E+07	 2.58130726E-03	-4.61772640E-03
5.38699438E+07	 2.57900042E-03	-4.61794623E-03
5.38821519E+07	 2.57595509E-03	-4.62372134E-03
5.38943599E+07	 2.57428115E-03	-4.61676277E-03
5.39065679E+07	 2.57969809E-03	-4.62104731E-03
5.39187759E+07	 2.57576221E-03	-4.62559998E-03
5.39309840E+07	 2.57329811E-03	-4.62133566E-03
5.39431920E+07	 2.56974509E-03	-4.62776528E-03
5.39554000E+07	 2.57504147E-03	-4.63055697E-03
5.39676080E+07	 2.57051426E-03	-4.62867930E-03
5.39798161E+07	 2.57223111E-03	-4.62787565E-03
5.39920241E+07	 2.56309716E-03	-4.63153413E-03
5.40042321E+07	 2.56517672E-03	-4.63474889E-03
5.40164401E+07	 2.56792867E-03	-4.63688410E-03
5.40286482E+07	 2.56422329E-03	-4.63553720E-03
5.40408562E+07	 2.56567218E-03	-4.64255196E-03
5.40530642E+07	 2.56529662E-03	-4.63732435E-03
5.40652722E+07	 2.56372007E-03	-4.63984273E-03
5.40774803E+07	 2.56015750E-03	-4.64046843E-03
5.40896883E+07	 2.55940975E-03	-4.64427679E-03
5.41018963E+07	 2.55902647E-03	-4.64326448E-03
5.41141043E+07	 2.56076242E-03	-4.64637557E-03
5.41263124E+07	 2.56144874E-03	-4.64614732E-03
5.41385204E+07	 2.55963760E-03	-4.65069771E-03
5.41507284E+07	 2.55098643E-03	-4.65242188E-03
5.41629364E+07	 2.55786347E-03	-4.65557951E-03
5.41751445E+07	 2.55401257E-03	-4.65123674E-03
5.41873525E+07	 2.55277663E-03	-4.65306470E-03
5.41995605E+07	 2.55545480E-03	-4.66069209E-03
5.42117685E+07	 2.55149517E-03	-4.66077708E-03
5.42239766E+07	 2.54902875E-03	-4.66181607E-03
5.42361846E+07	 2.54777568E-03	-4.66112442E-03
5.42483926E+07	 2.54308760E-03	-4.66115906E-03
5.42606006E+07	 2.54434587E-03	-4.66418966E-03
5.42728087E+07	 2.54388226E-03	-4.66609006E-03
5.42850167E+07	 2.54838254E-03	-4.66580244E-03
5.42972247E+07	 2.53969701E-03	-4.66206222E-03
5.43094327E+07	 2.54321460E-03	-4.67121469E-03
5.43216408E+07	 2.54058150E-03	-4.66836239E-03
5.43338488E+07	 2.53907975E-03	-4.67325477E-03
5.43460568E+07	 2.54042897E-03	-4.67574599E-03
5.43582648E+07	 2.53535436E-03	-4.67685158E-03
5.43704729E+07	 2.53535349E-03	-4.67588484E-03
5.43826809E+07	 2.53883987E-03	-4.67944543E-03
5.43948889E+07	 2.53754162E-03	-4.67390867E-03
5.44070969E+07	 2.53229374E-03	-4.68183219E-03
5.44193050E+07	 2.53177778E-03	-4.67686799E-03
5.44315130E+07	 2.52515021E-03	-4.68232394E-03
5.44437210E+07	 2.53273185E-03	-4.68434763E-03
5.44559290E+07	 2.52731104E-03	-4.68763624E-03
5.44681371E+07	 2.52647294E-03	-4.69014414E-03
5.44803451E+07	 2.52623635E-03	-4.68518793E-03
5.44925531E+07	 2.52433178E-03	-4.69247852E-03
5.45047611E+07	 2.52317149E-03	-4.69506740E-03
5.45169692E+07	 2.52399400E-03	-4.69435547E-03
5.45291772E+07	 2.52113940E-03	-4.69625037E-03
5.45413852E+07	 2.52326207E-03	-4.69126810E-03
5.45535932E+07	 2.51730517E-03	-4.69914414E-03
5.45658013E+07	 2.52191979E-03	-4.69680877E-03
5.45780093E+07	 2.51605640E-03	-4.70006131E-03
5.45902173E+07	 2.52199419E-03	-4.70179034E-03
5.46024253E+07	 2.51570503E-03	-4.70422591E-03
5.46146334E+07	 2.51587742E-03	-4.70757536E-03
5.46268414E+07	 2.51688967E-03	-4.71273248E-03
5.46390494E+07	 2.51191188E-03	-4.70847302E-03
5.46512574E+07	 2.50978819E-03	-4.70972336E-03
5.46634655E+07	 2.50888655E-03	-4.70848558E-03
5.46756735E+07	 2.50665422E-03	-4.71529398E-03
5.46878815E+07	 2.51021298E-03	-4.71257299E-03
5.47000895E+07	 2.50400600E-03	-4.71068869E-03
5.47122976E+07	 2.50713818E-03	-4.71906988E-03
5.47245056E+07	 2.50179786E-03	-4.71570186E-03
5.47367136E+07	 2.50219335E-03	-4.71746236E-03
5.47489216E+07	 2.50144788E-03	-4.72059373E-03
5.47611296E+07	 2.50308124E-03	-4.71829482E-03
5.47733377E+07	 2.50005532E-03	-4.72083262E-03
5.47855457E+07	 2.50259386E-03	-4.72385733E-03
5.47977537E+07	 2.50166175E-03	-4.72710320E-03
5.48099617E+07	 2.49742208E-03	-4.72912478E-03
5.48221698E+07	 2.49488594E-03	-4.72998298E-03
5.48343778E+07	 2.49183282E-03	-4.73194033E-03
5.48465858E+07	 2.48985962E-03	-4.73382044E-03
5.48587938E+07	 2.49433827E-03	-4.73780456E-03
5.48710019E+07	 2.48728809E-03	-4.73230946E-03
5.48832099E+07	 2.49147494E-03	-4.73705512E-03
5.48954179E+07	 2.48769799E-03	-4.73737747E-03
5.49076259E+07	 2.48535050E-03	-4.73338953E-03
5.49198340E+07	 2.48881425E-03	-4.73775669E-03
5.49320420E+07	 2.48407924E-03	-4.74203994E-03
5.49442500E+07	 2.48423628E-03	-4.74203771E-03
5.49564580E+07	 2.48110409E-03	-4.74400494E-03
5.49686661E+07	 2.47707860E-03	-4.74770218E-03
5.49808741E+07	 2.47974853E-03	-4.74581179E-03
5.49930821E+07	 2.48223922E-03	-4.75039521E-03
5.50052901E+07	 2.48336370E-03	-4.75453239E-03
5.50174982E+07	 2.47078558E-03	-4.74969746E-03
5.50297062E+07	 2.47628133E-03	-4.75399444E-03
5.50419142E+07	 2.47354120E-03	-4.76044751E-03
5.50541222E+07	 2.48438359E-03	-4.75753275E-03
5.50663303E+07	 2.47684661E-03	-4.75649978E-03
5.50785383E+07	 2.47480627E-03	-4.76633223E-03
5.50907463E+07	 2.47625246E-03	-4.75984371E-03
5.51029543E+07	 2.47371355E-03	-4.76362853E-03
5.51151624E+07	 2.46987315E-03	-4.77314512E-03
5.51273704E+07	 2.47234143E-03	-4.76633613E-03
