! COPPER MOUNTAIN TECHNOLOGIES, PLANAR TR1300/1, 00071119, 20.2.2/1.0
! Date: 1/7/2024 7:13:53 PM
! Data: Format [Calibration Info]
! Freq          	S11: Re/Im F1                  
# HZ S RI R 50
5.00000000E+07	 7.39516171E-03	-1.11839415E-02
5.00122080E+07	 7.39168544E-03	-1.11891094E-02
5.00244160E+07	 7.39119903E-03	-1.11887289E-02
5.00366241E+07	 7.38742603E-03	-1.11940175E-02
5.00488321E+07	 7.38019134E-03	-1.12008103E-02
5.00610401E+07	 7.37932118E-03	-1.11956658E-02
5.00732481E+07	 7.37399860E-03	-1.11996716E-02
5.00854562E+07	 7.37342860E-03	-1.12007540E-02
5.00976642E+07	 7.36709914E-03	-1.12057566E-02
5.01098722E+07	 7.36878801E-03	-1.12058449E-02
5.01220802E+07	 7.36438239E-03	-1.12164813E-02
5.01342883E+07	 7.36478346E-03	-1.12164142E-02
5.01464963E+07	 7.35981587E-03	-1.12166069E-02
5.01587043E+07	 7.35822120E-03	-1.12225572E-02
5.01709123E+07	 7.34935012E-03	-1.12228138E-02
5.01831204E+07	 7.34950598E-03	-1.12292720E-02
5.01953284E+07	 7.35361262E-03	-1.12300994E-02
5.02075364E+07	 7.34985394E-03	-1.12319446E-02
5.02197444E+07	 7.34073934E-03	-1.12386843E-02
5.02319525E+07	 7.33610948E-03	-1.12372907E-02
5.02441605E+07	 7.33772228E-03	-1.12442628E-02
5.02563685E+07	 7.33129552E-03	-1.12440021E-02
5.02685765E+07	 7.33200811E-03	-1.12485529E-02
5.02807846E+07	 7.33102430E-03	-1.12515439E-02
5.02929926E+07	 7.32883304E-03	-1.12509347E-02
5.03052006E+07	 7.32345772E-03	-1.12576401E-02
5.03174086E+07	 7.32228127E-03	-1.12549190E-02
5.03296167E+07	 7.32411638E-03	-1.12619196E-02
5.03418247E+07	 7.31922947E-03	-1.12660140E-02
5.03540327E+07	 7.31501056E-03	-1.12666543E-02
5.03662407E+07	 7.30949758E-03	-1.12669652E-02
5.03784488E+07	 7.30638810E-03	-1.12757852E-02
5.03906568E+07	 7.30257661E-03	-1.12770694E-02
5.04028648E+07	 7.29972186E-03	-1.12821657E-02
5.04150728E+07	 7.30222501E-03	-1.12825789E-02
5.04272809E+07	 7.29506746E-03	-1.12844232E-02
5.04394889E+07	 7.28932315E-03	-1.12888248E-02
5.04516969E+07	 7.28250565E-03	-1.12958570E-02
5.04639049E+07	 7.28891695E-03	-1.13003846E-02
5.04761130E+07	 7.28134974E-03	-1.13022775E-02
5.04883210E+07	 7.28387857E-03	-1.12969571E-02
5.05005290E+07	 7.27951033E-03	-1.13036842E-02
5.05127370E+07	 7.27460551E-03	-1.13053240E-02
5.05249451E+07	 7.26983424E-03	-1.13088801E-02
5.05371531E+07	 7.26957517E-03	-1.13159504E-02
5.05493611E+07	 7.26701841E-03	-1.13112094E-02
5.05615691E+07	 7.26591000E-03	-1.13144155E-02
5.05737772E+07	 7.26658738E-03	-1.13179724E-02
5.05859852E+07	 7.26057861E-03	-1.13246266E-02
5.05981932E+07	 7.25633163E-03	-1.13277065E-02
5.06104012E+07	 7.25199620E-03	-1.13264747E-02
5.06226093E+07	 7.24959672E-03	-1.13300928E-02
5.06348173E+07	 7.24840366E-03	-1.13310822E-02
5.06470253E+07	 7.24912108E-03	-1.13369196E-02
5.06592333E+07	 7.24404699E-03	-1.13394376E-02
5.06714414E+07	 7.24062036E-03	-1.13411619E-02
5.06836494E+07	 7.23721581E-03	-1.13461699E-02
5.06958574E+07	 7.23288268E-03	-1.13536226E-02
5.07080654E+07	 7.23331250E-03	-1.13488089E-02
5.07202735E+07	 7.22766841E-03	-1.13550482E-02
5.07324815E+07	 7.22137421E-03	-1.13556024E-02
5.07446895E+07	 7.21967578E-03	-1.13589369E-02
5.07568975E+07	 7.22093863E-03	-1.13592940E-02
5.07691056E+07	 7.21571674E-03	-1.13677505E-02
5.07813136E+07	 7.20992801E-03	-1.13685987E-02
5.07935216E+07	 7.21087395E-03	-1.13675130E-02
5.08057296E+07	 7.20776218E-03	-1.13758928E-02
5.08179377E+07	 7.20382797E-03	-1.13747716E-02
5.08301457E+07	 7.19856957E-03	-1.13839102E-02
5.08423537E+07	 7.19823235E-03	-1.13815314E-02
5.08545617E+07	 7.19569695E-03	-1.13852924E-02
5.08667698E+07	 7.19462134E-03	-1.13894696E-02
5.08789778E+07	 7.18613519E-03	-1.13896177E-02
5.08911858E+07	 7.18408402E-03	-1.13917562E-02
5.09033938E+07	 7.18327060E-03	-1.13996273E-02
5.09156019E+07	 7.18567365E-03	-1.13979432E-02
5.09278099E+07	 7.17508590E-03	-1.14004733E-02
5.09400179E+07	 7.17795734E-03	-1.14037942E-02
5.09522259E+07	 7.17459197E-03	-1.14092051E-02
5.09644340E+07	 7.16860495E-03	-1.14116291E-02
5.09766420E+07	 7.16567025E-03	-1.14136226E-02
5.09888500E+07	 7.16285870E-03	-1.14165069E-02
5.10010580E+07	 7.16718875E-03	-1.14219776E-02
5.10132661E+07	 7.15764548E-03	-1.14212537E-02
5.10254741E+07	 7.15742914E-03	-1.14268417E-02
5.10376821E+07	 7.15804210E-03	-1.14324644E-02
5.10498901E+07	 7.15470423E-03	-1.14365425E-02
5.10620982E+07	 7.15085628E-03	-1.14309409E-02
5.10743062E+07	 7.14704019E-03	-1.14391515E-02
5.10865142E+07	 7.14681570E-03	-1.14394057E-02
5.10987222E+07	 7.14230166E-03	-1.14440662E-02
5.11109303E+07	 7.14573574E-03	-1.14467112E-02
5.11231383E+07	 7.13711007E-03	-1.14483669E-02
5.11353463E+07	 7.13124737E-03	-1.14566893E-02
5.11475543E+07	 7.13418401E-03	-1.14549898E-02
5.11597624E+07	 7.13357049E-03	-1.14624054E-02
5.11719704E+07	 7.12302744E-03	-1.14613670E-02
5.11841784E+07	 7.12819774E-03	-1.14672049E-02
5.11963864E+07	 7.12406007E-03	-1.14670441E-02
5.12085944E+07	 7.11608991E-03	-1.14709979E-02
5.12208025E+07	 7.12068776E-03	-1.14767597E-02
5.12330105E+07	 7.11804265E-03	-1.14766354E-02
5.12452185E+07	 7.11665495E-03	-1.14801139E-02
5.12574265E+07	 7.11513805E-03	-1.14805522E-02
5.12696346E+07	 7.10768947E-03	-1.14857251E-02
5.12818426E+07	 7.10710512E-03	-1.14826092E-02
5.12940506E+07	 7.10613223E-03	-1.14925695E-02
5.13062586E+07	 7.10004986E-03	-1.14912356E-02
5.13184667E+07	 7.10195090E-03	-1.14956425E-02
5.13306747E+07	 7.10215963E-03	-1.14929415E-02
5.13428827E+07	 7.09459838E-03	-1.15012876E-02
5.13550907E+07	 7.08914992E-03	-1.15080219E-02
5.13672988E+07	 7.09132540E-03	-1.15087135E-02
5.13795068E+07	 7.08576957E-03	-1.15116834E-02
5.13917148E+07	 7.08521160E-03	-1.15161584E-02
5.14039228E+07	 7.08179745E-03	-1.15188258E-02
5.14161309E+07	 7.08013977E-03	-1.15166077E-02
5.14283389E+07	 7.07846896E-03	-1.15188603E-02
5.14405469E+07	 7.07483355E-03	-1.15227803E-02
5.14527549E+07	 7.07476827E-03	-1.15274009E-02
5.14649630E+07	 7.07062620E-03	-1.15296374E-02
5.14771710E+07	 7.06549822E-03	-1.15300164E-02
5.14893790E+07	 7.06530252E-03	-1.15342074E-02
5.15015870E+07	 7.06470333E-03	-1.15361059E-02
5.15137951E+07	 7.05835462E-03	-1.15441609E-02
5.15260031E+07	 7.05518444E-03	-1.15437835E-02
5.15382111E+07	 7.05072536E-03	-1.15471637E-02
5.15504191E+07	 7.05295789E-03	-1.15496700E-02
5.15626272E+07	 7.05478927E-03	-1.15563193E-02
5.15748352E+07	 7.05300598E-03	-1.15548870E-02
5.15870432E+07	 7.04552104E-03	-1.15533403E-02
5.15992512E+07	 7.04226868E-03	-1.15591619E-02
5.16114593E+07	 7.03813281E-03	-1.15643339E-02
5.16236673E+07	 7.03854233E-03	-1.15633830E-02
5.16358753E+07	 7.03773729E-03	-1.15712197E-02
5.16480833E+07	 7.03172015E-03	-1.15731592E-02
5.16602914E+07	 7.03198970E-03	-1.15672409E-02
5.16724994E+07	 7.02935902E-03	-1.15794824E-02
5.16847074E+07	 7.02968221E-03	-1.15773315E-02
5.16969154E+07	 7.01991866E-03	-1.15834300E-02
5.17091235E+07	 7.01366137E-03	-1.15865696E-02
5.17213315E+07	 7.01965109E-03	-1.15896014E-02
5.17335395E+07	 7.01782627E-03	-1.15884513E-02
5.17457475E+07	 7.01551981E-03	-1.15970649E-02
5.17579556E+07	 7.01027835E-03	-1.15956031E-02
5.17701636E+07	 7.00969278E-03	-1.15992114E-02
5.17823716E+07	 7.00527797E-03	-1.16051839E-02
5.17945796E+07	 7.00895394E-03	-1.16042065E-02
5.18067877E+07	 7.00014273E-03	-1.16061906E-02
5.18189957E+07	 7.00129019E-03	-1.16140962E-02
5.18312037E+07	 6.99851606E-03	-1.16199552E-02
5.18434117E+07	 6.99625523E-03	-1.16176569E-02
5.18556198E+07	 6.98978399E-03	-1.16181847E-02
5.18678278E+07	 6.98940884E-03	-1.16268674E-02
5.18800358E+07	 6.98407692E-03	-1.16256020E-02
5.18922438E+07	 6.98528718E-03	-1.16266010E-02
5.19044519E+07	 6.98464541E-03	-1.16331340E-02
5.19166599E+07	 6.98229487E-03	-1.16394424E-02
5.19288679E+07	 6.97978979E-03	-1.16410824E-02
5.19410759E+07	 6.97719698E-03	-1.16391703E-02
5.19532840E+07	 6.96829875E-03	-1.16421796E-02
5.19654920E+07	 6.97408048E-03	-1.16479526E-02
5.19777000E+07	 6.96431760E-03	-1.16509738E-02
5.19899080E+07	 6.96418230E-03	-1.16504926E-02
5.20021161E+07	 6.95727796E-03	-1.16574539E-02
5.20143241E+07	 6.95915398E-03	-1.16581467E-02
5.20265321E+07	 6.95616057E-03	-1.16650251E-02
5.20387401E+07	 6.95244691E-03	-1.16598213E-02
5.20509482E+07	 6.95150542E-03	-1.16659273E-02
5.20631562E+07	 6.94519174E-03	-1.16661988E-02
5.20753642E+07	 6.94045303E-03	-1.16704639E-02
5.20875722E+07	 6.93788261E-03	-1.16735088E-02
5.20997803E+07	 6.94021544E-03	-1.16778578E-02
5.21119883E+07	 6.93767437E-03	-1.16788641E-02
5.21241963E+07	 6.93388009E-03	-1.16785167E-02
5.21364043E+07	 6.93044375E-03	-1.16895078E-02
5.21486124E+07	 6.92942134E-03	-1.16878475E-02
5.21608204E+07	 6.92838885E-03	-1.16904454E-02
5.21730284E+07	 6.91494829E-03	-1.16971966E-02
5.21852364E+07	 6.92495728E-03	-1.16993852E-02
5.21974445E+07	 6.91433140E-03	-1.16942955E-02
5.22096525E+07	 6.91723338E-03	-1.16964112E-02
5.22218605E+07	 6.90690518E-03	-1.17049656E-02
5.22340685E+07	 6.90988597E-03	-1.17089818E-02
5.22462766E+07	 6.90520560E-03	-1.17138758E-02
5.22584846E+07	 6.90050615E-03	-1.17140383E-02
5.22706926E+07	 6.89980773E-03	-1.17166056E-02
5.22829006E+07	 6.89709725E-03	-1.17163818E-02
5.22951087E+07	 6.89420775E-03	-1.17175895E-02
5.23073167E+07	 6.89076443E-03	-1.17245622E-02
5.23195247E+07	 6.88392137E-03	-1.17226143E-02
5.23317327E+07	 6.88475067E-03	-1.17335664E-02
5.23439408E+07	 6.88149917E-03	-1.17339720E-02
5.23561488E+07	 6.88299529E-03	-1.17363600E-02
5.23683568E+07	 6.87558612E-03	-1.17377005E-02
5.23805648E+07	 6.87585869E-03	-1.17409309E-02
5.23927728E+07	 6.87319979E-03	-1.17428540E-02
5.24049809E+07	 6.86839037E-03	-1.17455103E-02
5.24171889E+07	 6.86530681E-03	-1.17425743E-02
5.24293969E+07	 6.86071868E-03	-1.17560165E-02
5.24416049E+07	 6.85605331E-03	-1.17532953E-02
5.24538130E+07	 6.85540150E-03	-1.17531407E-02
5.24660210E+07	 6.85294921E-03	-1.17584486E-02
5.24782290E+07	 6.85087107E-03	-1.17585361E-02
5.24904370E+07	 6.84194421E-03	-1.17645186E-02
5.25026451E+07	 6.84355410E-03	-1.17636197E-02
5.25148531E+07	 6.84689965E-03	-1.17703515E-02
5.25270611E+07	 6.83914789E-03	-1.17698333E-02
5.25392691E+07	 6.84066044E-03	-1.17718583E-02
5.25514772E+07	 6.83337616E-03	-1.17708245E-02
5.25636852E+07	 6.83142993E-03	-1.17769174E-02
5.25758932E+07	 6.82302264E-03	-1.17794456E-02
5.25881012E+07	 6.82796994E-03	-1.17872619E-02
5.26003093E+07	 6.82340084E-03	-1.17869463E-02
5.26125173E+07	 6.81351482E-03	-1.17934285E-02
5.26247253E+07	 6.81503526E-03	-1.17942519E-02
5.26369333E+07	 6.81163310E-03	-1.17973416E-02
5.26491414E+07	 6.81057158E-03	-1.17956034E-02
5.26613494E+07	 6.80508105E-03	-1.17993173E-02
5.26735574E+07	 6.80520635E-03	-1.18032046E-02
5.26857654E+07	 6.80301658E-03	-1.18082574E-02
5.26979735E+07	 6.80084288E-03	-1.18117155E-02
5.27101815E+07	 6.80064413E-03	-1.18092411E-02
5.27223895E+07	 6.79585831E-03	-1.18134591E-02
5.27345975E+07	 6.78456940E-03	-1.18175519E-02
5.27468056E+07	 6.78916917E-03	-1.18164984E-02
5.27590136E+07	 6.78621206E-03	-1.18162233E-02
5.27712216E+07	 6.78411899E-03	-1.18275857E-02
5.27834296E+07	 6.77504993E-03	-1.18284116E-02
5.27956377E+07	 6.77400439E-03	-1.18278126E-02
5.28078457E+07	 6.77360892E-03	-1.18300981E-02
5.28200537E+07	 6.76660923E-03	-1.18349613E-02
5.28322617E+07	 6.76641445E-03	-1.18359522E-02
5.28444698E+07	 6.76437612E-03	-1.18404988E-02
5.28566778E+07	 6.75774105E-03	-1.18403617E-02
5.28688858E+07	 6.75629836E-03	-1.18417051E-02
5.28810938E+07	 6.75546316E-03	-1.18452939E-02
5.28933019E+07	 6.75166372E-03	-1.18508096E-02
5.29055099E+07	 6.75057222E-03	-1.18512816E-02
5.29177179E+07	 6.74459240E-03	-1.18545965E-02
5.29299259E+07	 6.74403457E-03	-1.18591420E-02
5.29421340E+07	 6.73348902E-03	-1.18634151E-02
5.29543420E+07	 6.73645270E-03	-1.18647818E-02
5.29665500E+07	 6.73348670E-03	-1.18697342E-02
5.29787580E+07	 6.73403181E-03	-1.18681966E-02
5.29909661E+07	 6.73173374E-03	-1.18729177E-02
5.30031741E+07	 6.72575608E-03	-1.18752892E-02
5.30153821E+07	 6.72268026E-03	-1.18786150E-02
5.30275901E+07	 6.72006928E-03	-1.18780148E-02
5.30397982E+07	 6.71527558E-03	-1.18863034E-02
5.30520062E+07	 6.71535873E-03	-1.18839593E-02
5.30642142E+07	 6.71172616E-03	-1.18882153E-02
5.30764222E+07	 6.70711070E-03	-1.18938144E-02
5.30886303E+07	 6.70471175E-03	-1.18929064E-02
5.31008383E+07	 6.70320741E-03	-1.18943130E-02
5.31130463E+07	 6.70286277E-03	-1.18986772E-02
5.31252543E+07	 6.69737220E-03	-1.19033414E-02
5.31374624E+07	 6.69834647E-03	-1.18990340E-02
5.31496704E+07	 6.69179667E-03	-1.19050509E-02
5.31618784E+07	 6.68897623E-03	-1.19039611E-02
5.31740864E+07	 6.68605077E-03	-1.19137487E-02
5.31862945E+07	 6.68458448E-03	-1.19135170E-02
5.31985025E+07	 6.68324323E-03	-1.19189546E-02
5.32107105E+07	 6.67834274E-03	-1.19182978E-02
5.32229185E+07	 6.67677726E-03	-1.19216537E-02
5.32351266E+07	 6.67066387E-03	-1.19251948E-02
5.32473346E+07	 6.66905739E-03	-1.19234634E-02
5.32595426E+07	 6.66722382E-03	-1.19287169E-02
5.32717506E+07	 6.66532740E-03	-1.19334820E-02
5.32839587E+07	 6.65999708E-03	-1.19305607E-02
5.32961667E+07	 6.65938631E-03	-1.19359302E-02
5.33083747E+07	 6.65971637E-03	-1.19410939E-02
5.33205827E+07	 6.65676143E-03	-1.19413819E-02
5.33327908E+07	 6.64375374E-03	-1.19494393E-02
5.33449988E+07	 6.64980598E-03	-1.19489806E-02
5.33572068E+07	 6.64455943E-03	-1.19501924E-02
5.33694148E+07	 6.64234526E-03	-1.19508244E-02
5.33816229E+07	 6.63237756E-03	-1.19558627E-02
5.33938309E+07	 6.63531198E-03	-1.19515518E-02
5.34060389E+07	 6.63122415E-03	-1.19598583E-02
5.34182469E+07	 6.63023245E-03	-1.19607786E-02
5.34304550E+07	 6.62697714E-03	-1.19630065E-02
5.34426630E+07	 6.63379097E-03	-1.19695550E-02
5.34548710E+07	 6.62280473E-03	-1.19662722E-02
5.34670790E+07	 6.61799194E-03	-1.19729864E-02
5.34792871E+07	 6.61764488E-03	-1.19777273E-02
5.34914951E+07	 6.61443445E-03	-1.19786534E-02
5.35037031E+07	 6.61133668E-03	-1.19803363E-02
5.35159111E+07	 6.60875318E-03	-1.19836550E-02
5.35281192E+07	 6.60034275E-03	-1.19849431E-02
5.35403272E+07	 6.60315592E-03	-1.19886850E-02
5.35525352E+07	 6.59985308E-03	-1.19901294E-02
5.35647432E+07	 6.59754617E-03	-1.19897456E-02
5.35769512E+07	 6.59325932E-03	-1.19935811E-02
5.35891593E+07	 6.59336104E-03	-1.19987316E-02
5.36013673E+07	 6.58914591E-03	-1.20005530E-02
5.36135753E+07	 6.58496858E-03	-1.20056646E-02
5.36257833E+07	 6.58553319E-03	-1.20075022E-02
5.36379914E+07	 6.58077969E-03	-1.20072290E-02
5.36501994E+07	 6.57591028E-03	-1.20087460E-02
5.36624074E+07	 6.57165991E-03	-1.20175998E-02
5.36746154E+07	 6.57562285E-03	-1.20175982E-02
5.36868235E+07	 6.56957915E-03	-1.20184545E-02
5.36990315E+07	 6.56691787E-03	-1.20197929E-02
5.37112395E+07	 6.56782391E-03	-1.20268614E-02
5.37234475E+07	 6.56159196E-03	-1.20245405E-02
5.37356556E+07	 6.55722590E-03	-1.20288851E-02
5.37478636E+07	 6.55722078E-03	-1.20323356E-02
5.37600716E+07	 6.54947036E-03	-1.20372252E-02
5.37722796E+07	 6.55073878E-03	-1.20399484E-02
5.37844877E+07	 6.55116448E-03	-1.20442997E-02
5.37966957E+07	 6.54310789E-03	-1.20401775E-02
5.38089037E+07	 6.54118446E-03	-1.20487317E-02
5.38211117E+07	 6.53698352E-03	-1.20469057E-02
5.38333198E+07	 6.53352768E-03	-1.20521660E-02
5.38455278E+07	 6.53189292E-03	-1.20488565E-02
5.38577358E+07	 6.52887070E-03	-1.20602505E-02
5.38699438E+07	 6.52649085E-03	-1.20585416E-02
5.38821519E+07	 6.52609102E-03	-1.20644521E-02
5.38943599E+07	 6.52085388E-03	-1.20642483E-02
5.39065679E+07	 6.51977651E-03	-1.20651726E-02
5.39187759E+07	 6.51959155E-03	-1.20700057E-02
5.39309840E+07	 6.51471061E-03	-1.20702323E-02
5.39431920E+07	 6.50641621E-03	-1.20731699E-02
5.39554000E+07	 6.50701814E-03	-1.20752359E-02
5.39676080E+07	 6.50620879E-03	-1.20767195E-02
5.39798161E+07	 6.50483582E-03	-1.20820900E-02
5.39920241E+07	 6.49498769E-03	-1.20806919E-02
5.40042321E+07	 6.49248088E-03	-1.20867884E-02
5.40164401E+07	 6.49154010E-03	-1.20890873E-02
5.40286482E+07	 6.48971122E-03	-1.20896265E-02
5.40408562E+07	 6.48548289E-03	-1.20968004E-02
5.40530642E+07	 6.48793441E-03	-1.20975193E-02
5.40652722E+07	 6.47656996E-03	-1.21023361E-02
5.40774803E+07	 6.48108201E-03	-1.21031387E-02
5.40896883E+07	 6.47730546E-03	-1.21032757E-02
5.41018963E+07	 6.47124850E-03	-1.21078931E-02
5.41141043E+07	 6.46571196E-03	-1.21112479E-02
5.41263124E+07	 6.46458864E-03	-1.21122642E-02
5.41385204E+07	 6.46499643E-03	-1.21160106E-02
5.41507284E+07	 6.45932972E-03	-1.21159378E-02
5.41629364E+07	 6.46099411E-03	-1.21240403E-02
5.41751445E+07	 6.45550053E-03	-1.21240711E-02
5.41873525E+07	 6.45377023E-03	-1.21281589E-02
5.41995605E+07	 6.45041957E-03	-1.21315091E-02
5.42117685E+07	 6.44358912E-03	-1.21334958E-02
5.42239766E+07	 6.44351146E-03	-1.21335440E-02
5.42361846E+07	 6.44172946E-03	-1.21404643E-02
5.42483926E+07	 6.43251423E-03	-1.21360563E-02
5.42606006E+07	 6.42935218E-03	-1.21443810E-02
5.42728087E+07	 6.42950818E-03	-1.21469590E-02
5.42850167E+07	 6.42792220E-03	-1.21464556E-02
5.42972247E+07	 6.42421972E-03	-1.21463428E-02
5.43094327E+07	 6.42147802E-03	-1.21553326E-02
5.43216408E+07	 6.42307969E-03	-1.21519859E-02
5.43338488E+07	 6.41821161E-03	-1.21575077E-02
5.43460568E+07	 6.41327817E-03	-1.21603335E-02
5.43582648E+07	 6.40800468E-03	-1.21628674E-02
5.43704729E+07	 6.40751347E-03	-1.21613391E-02
5.43826809E+07	 6.40267232E-03	-1.21690329E-02
5.43948889E+07	 6.39900342E-03	-1.21671845E-02
5.44070969E+07	 6.39408225E-03	-1.21739412E-02
5.44193050E+07	 6.39568737E-03	-1.21726751E-02
5.44315130E+07	 6.38609823E-03	-1.21767265E-02
5.44437210E+07	 6.38541620E-03	-1.21775013E-02
5.44559290E+07	 6.38706274E-03	-1.21825130E-02
5.44681371E+07	 6.37936055E-03	-1.21871212E-02
5.44803451E+07	 6.37498885E-03	-1.21862859E-02
5.44925531E+07	 6.37279276E-03	-1.21909338E-02
5.45047611E+07	 6.37041172E-03	-1.21906014E-02
5.45169692E+07	 6.36879938E-03	-1.21966045E-02
5.45291772E+07	 6.36737965E-03	-1.21994079E-02
5.45413852E+07	 6.36280002E-03	-1.21969907E-02
5.45535932E+07	 6.35921212E-03	-1.22001395E-02
5.45658013E+07	 6.35772567E-03	-1.22053273E-02
5.45780093E+07	 6.35302408E-03	-1.22073492E-02
5.45902173E+07	 6.35080180E-03	-1.22122080E-02
5.46024253E+07	 6.34746965E-03	-1.22156935E-02
5.46146334E+07	 6.34578423E-03	-1.22195593E-02
5.46268414E+07	 6.34343861E-03	-1.22240365E-02
5.46390494E+07	 6.33567999E-03	-1.22236197E-02
5.46512574E+07	 6.33605181E-03	-1.22242031E-02
5.46634655E+07	 6.33132132E-03	-1.22233645E-02
5.46756735E+07	 6.32858220E-03	-1.22293489E-02
5.46878815E+07	 6.32910167E-03	-1.22315114E-02
5.47000895E+07	 6.32182270E-03	-1.22330124E-02
5.47122976E+07	 6.32210878E-03	-1.22376916E-02
5.47245056E+07	 6.31287289E-03	-1.22405388E-02
5.47367136E+07	 6.31365311E-03	-1.22439738E-02
5.47489216E+07	 6.30464784E-03	-1.22432869E-02
5.47611296E+07	 6.30756243E-03	-1.22430673E-02
5.47733377E+07	 6.30295792E-03	-1.22451767E-02
5.47855457E+07	 6.30089675E-03	-1.22521935E-02
5.47977537E+07	 6.29608413E-03	-1.22543230E-02
5.48099617E+07	 6.29384430E-03	-1.22564809E-02
5.48221698E+07	 6.29214652E-03	-1.22585163E-02
5.48343778E+07	 6.28787812E-03	-1.22596546E-02
5.48465858E+07	 6.28385116E-03	-1.22659024E-02
5.48587938E+07	 6.28172595E-03	-1.22708896E-02
5.48710019E+07	 6.27590266E-03	-1.22656976E-02
5.48832099E+07	 6.27529469E-03	-1.22702921E-02
5.48954179E+07	 6.26876685E-03	-1.22711102E-02
5.49076259E+07	 6.26650804E-03	-1.22751754E-02
5.49198340E+07	 6.26828706E-03	-1.22760207E-02
5.49320420E+07	 6.25834652E-03	-1.22822316E-02
5.49442500E+07	 6.25896451E-03	-1.22822131E-02
5.49564580E+07	 6.25353078E-03	-1.22868307E-02
5.49686661E+07	 6.25264839E-03	-1.22937961E-02
5.49808741E+07	 6.25039848E-03	-1.22903907E-02
5.49930821E+07	 6.24671016E-03	-1.22975787E-02
5.50052901E+07	 6.24979737E-03	-1.22993934E-02
5.50174982E+07	 6.23878375E-03	-1.22982120E-02
5.50297062E+07	 6.23581862E-03	-1.23023440E-02
5.50419142E+07	 6.23672215E-03	-1.23063125E-02
5.50541222E+07	 6.23952437E-03	-1.23127135E-02
5.50663303E+07	 6.23094476E-03	-1.23116203E-02
5.50785383E+07	 6.22816384E-03	-1.23128755E-02
5.50907463E+07	 6.22859018E-03	-1.23158553E-02
5.51029543E+07	 6.22367374E-03	-1.23155090E-02
5.51151624E+07	 6.22147295E-03	-1.23249047E-02
5.51273704E+07	 6.21838477E-03	-1.23218261E-02
