! COPPER MOUNTAIN TECHNOLOGIES, PLANAR TR1300/1, 00071119, 20.2.2/1.0
! Date: 1/7/2024 7:56:22 PM
! Data: Format [Calibration Info]
! Freq          	S11: Re/Im F1                  
# HZ S RI R 50
5.00000000E+07	-2.11933298E-02	 8.66115346E-03
5.00122080E+07	-2.12416128E-02	 8.68600742E-03
5.00244160E+07	-2.15385972E-02	 8.90716362E-03
5.00366241E+07	-2.12920249E-02	 8.65148339E-03
5.00488321E+07	-2.11936134E-02	 8.72043778E-03
5.00610401E+07	-2.13773742E-02	 8.78106259E-03
5.00732481E+07	-2.12097620E-02	 8.77338444E-03
5.00854562E+07	-2.11416806E-02	 8.98633576E-03
5.00976642E+07	-2.10422429E-02	 8.99078137E-03
5.01098722E+07	-2.15335452E-02	 8.78322773E-03
5.01220802E+07	-2.12852926E-02	 8.76484959E-03
5.01342883E+07	-2.14446549E-02	 8.91139731E-03
5.01464963E+07	-2.14659422E-02	 9.03358625E-03
5.01587043E+07	-2.11631148E-02	 8.87802699E-03
5.01709123E+07	-2.13858826E-02	 8.54335406E-03
5.01831204E+07	-2.12779427E-02	 8.74350387E-03
5.01953284E+07	-2.14277202E-02	 8.82761312E-03
5.02075364E+07	-2.14874443E-02	 8.92290994E-03
5.02197444E+07	-2.12876034E-02	 8.69110338E-03
5.02319525E+07	-2.12655774E-02	 8.61864032E-03
5.02441605E+07	-2.13127410E-02	 8.98067026E-03
5.02563685E+07	-2.13614453E-02	 8.96667928E-03
5.02685765E+07	-2.12263229E-02	 9.01061481E-03
5.02807846E+07	-2.11906283E-02	 8.80199226E-03
5.02929926E+07	-2.13910691E-02	 8.67745454E-03
5.03052006E+07	-2.12802944E-02	 8.72628990E-03
5.03174086E+07	-2.13689084E-02	 8.83756461E-03
5.03296167E+07	-2.12459302E-02	 8.98644184E-03
5.03418247E+07	-2.11754790E-02	 8.88490764E-03
5.03540327E+07	-2.12949882E-02	 8.75046947E-03
5.03662407E+07	-2.12459083E-02	 8.78096472E-03
5.03784488E+07	-2.13165642E-02	 8.96567050E-03
5.03906568E+07	-2.10503965E-02	 9.05966998E-03
5.04028648E+07	-2.13895005E-02	 8.83378674E-03
5.04150728E+07	-2.11539386E-02	 8.84858384E-03
5.04272809E+07	-2.12743978E-02	 8.75115189E-03
5.04394889E+07	-2.12420853E-02	 8.85065847E-03
5.04516969E+07	-2.12735055E-02	 8.94309798E-03
5.04639049E+07	-2.12342781E-02	 9.21328205E-03
5.04761130E+07	-2.14170143E-02	 8.89863751E-03
5.04883210E+07	-2.10867099E-02	 8.99112584E-03
5.05005290E+07	-2.13989215E-02	 8.98511155E-03
5.05127370E+07	-2.12012842E-02	 8.88179629E-03
5.05249451E+07	-2.09719469E-02	 9.05526134E-03
5.05371531E+07	-2.11768502E-02	 8.70143541E-03
5.05493611E+07	-2.12413862E-02	 8.99166769E-03
5.05615691E+07	-2.12611904E-02	 9.19866088E-03
5.05737772E+07	-2.09417186E-02	 8.90064958E-03
5.05859852E+07	-2.12128425E-02	 8.82106596E-03
5.05981932E+07	-2.10291833E-02	 8.82734444E-03
5.06104012E+07	-2.12432843E-02	 8.81735790E-03
5.06226093E+07	-2.09946975E-02	 8.90110789E-03
5.06348173E+07	-2.10016911E-02	 8.84803068E-03
5.06470253E+07	-2.10742341E-02	 9.04951711E-03
5.06592333E+07	-2.11710317E-02	 8.94269830E-03
5.06714414E+07	-2.10123591E-02	 8.89367383E-03
5.06836494E+07	-2.12796706E-02	 8.91715491E-03
5.06958574E+07	-2.11064913E-02	 9.01655194E-03
5.07080654E+07	-2.12011878E-02	 9.06534413E-03
5.07202735E+07	-2.10512870E-02	 9.05164474E-03
5.07324815E+07	-2.10153421E-02	 9.12010101E-03
5.07446895E+07	-2.10694925E-02	 9.12325571E-03
5.07568975E+07	-2.10249937E-02	 8.93392241E-03
5.07691056E+07	-2.13162005E-02	 8.75245791E-03
5.07813136E+07	-2.11433635E-02	 9.00234164E-03
5.07935216E+07	-2.09192420E-02	 9.10916162E-03
5.08057296E+07	-2.10114564E-02	 9.02127220E-03
5.08179377E+07	-2.10745981E-02	 9.21200088E-03
5.08301457E+07	-2.11033926E-02	 9.10307312E-03
5.08423537E+07	-2.08201818E-02	 9.09420131E-03
5.08545617E+07	-2.10055987E-02	 9.05007369E-03
5.08667698E+07	-2.09638735E-02	 9.02278357E-03
5.08789778E+07	-2.09581526E-02	 9.12379326E-03
5.08911858E+07	-2.12157836E-02	 8.94339352E-03
5.09033938E+07	-2.11395875E-02	 8.84761785E-03
5.09156019E+07	-2.08010404E-02	 9.19504347E-03
5.09278099E+07	-2.13116152E-02	 9.20802945E-03
5.09400179E+07	-2.10377142E-02	 9.16236469E-03
5.09522259E+07	-2.10645423E-02	 9.18703857E-03
5.09644340E+07	-2.11200510E-02	 9.29113742E-03
5.09766420E+07	-2.09791339E-02	 9.22906792E-03
5.09888500E+07	-2.08880246E-02	 9.24167235E-03
5.10010580E+07	-2.06794708E-02	 9.26328365E-03
5.10132661E+07	-2.10382621E-02	 8.90435256E-03
5.10254741E+07	-2.11053887E-02	 8.93270365E-03
5.10376821E+07	-2.10995443E-02	 8.98471192E-03
5.10498901E+07	-2.11481710E-02	 9.15961058E-03
5.10620982E+07	-2.08557484E-02	 9.11614785E-03
5.10743062E+07	-2.11200984E-02	 9.15348210E-03
5.10865142E+07	-2.11178782E-02	 9.29050721E-03
5.10987222E+07	-2.11299439E-02	 9.21464211E-03
5.11109303E+07	-2.08404998E-02	 8.89453430E-03
5.11231383E+07	-2.08450348E-02	 8.96851702E-03
5.11353463E+07	-2.05503223E-02	 9.37797057E-03
5.11475543E+07	-2.07680783E-02	 9.41915952E-03
5.11597624E+07	-2.11764325E-02	 9.02818852E-03
5.11719704E+07	-2.09783260E-02	 9.17581148E-03
5.11841784E+07	-2.09634955E-02	 8.96712663E-03
5.11963864E+07	-2.11650104E-02	 8.69649989E-03
5.12085944E+07	-2.08607946E-02	 9.23798258E-03
5.12208025E+07	-2.11009563E-02	 9.22611479E-03
5.12330105E+07	-2.08299810E-02	 8.98370271E-03
5.12452185E+07	-2.06414771E-02	 9.46021642E-03
5.12574265E+07	-2.11011969E-02	 9.20144825E-03
5.12696346E+07	-2.07425573E-02	 9.39008350E-03
5.12818426E+07	-2.09020957E-02	 9.12544272E-03
5.12940506E+07	-2.07706462E-02	 9.34586125E-03
5.13062586E+07	-2.10296805E-02	 9.09455825E-03
5.13184667E+07	-2.07704009E-02	 9.33806273E-03
5.13306747E+07	-2.09013390E-02	 9.20341767E-03
5.13428827E+07	-2.08959850E-02	 8.98192481E-03
5.13550907E+07	-2.08524382E-02	 9.20052906E-03
5.13672988E+07	-2.09421305E-02	 9.29492692E-03
5.13795068E+07	-2.07575841E-02	 9.09418848E-03
5.13917148E+07	-2.06107867E-02	 9.17208581E-03
5.14039228E+07	-2.07639538E-02	 9.01514119E-03
5.14161309E+07	-2.09106232E-02	 9.27032441E-03
5.14283389E+07	-2.04753190E-02	 9.21101598E-03
5.14405469E+07	-2.04434369E-02	 9.11291478E-03
5.14527549E+07	-2.06516802E-02	 9.11615508E-03
5.14649630E+07	-2.08152552E-02	 9.19935883E-03
5.14771710E+07	-2.04802301E-02	 9.33592294E-03
5.14893790E+07	-2.10344487E-02	 9.37026739E-03
5.15015870E+07	-2.07342289E-02	 9.26290418E-03
5.15137951E+07	-2.06263525E-02	 9.02746952E-03
5.15260031E+07	-2.05553965E-02	 8.95962156E-03
5.15382111E+07	-2.08278130E-02	 9.18629355E-03
5.15504191E+07	-2.07036252E-02	 9.52531952E-03
5.15626272E+07	-2.05338895E-02	 9.24560428E-03
5.15748352E+07	-2.08816396E-02	 9.45750102E-03
5.15870432E+07	-2.07478022E-02	 9.30155410E-03
5.15992512E+07	-2.09161294E-02	 9.36481622E-03
5.16114593E+07	-2.08054480E-02	 9.25135826E-03
5.16236673E+07	-2.07754851E-02	 9.43348125E-03
5.16358753E+07	-2.09320705E-02	 9.09896495E-03
5.16480833E+07	-2.06748818E-02	 9.33190834E-03
5.16602914E+07	-2.06631720E-02	 9.52683954E-03
5.16724994E+07	-2.07383347E-02	 9.55231621E-03
5.16847074E+07	-2.08836809E-02	 9.19640545E-03
5.16969154E+07	-2.08442227E-02	 9.26844230E-03
5.17091235E+07	-2.04697944E-02	 9.15880256E-03
5.17213315E+07	-2.07689492E-02	 9.26742230E-03
5.17335395E+07	-2.06589183E-02	 9.44023836E-03
5.17457475E+07	-2.07905825E-02	 9.00829885E-03
5.17579556E+07	-2.08287144E-02	 9.32891776E-03
5.17701636E+07	-2.07586715E-02	 9.75013504E-03
5.17823716E+07	-2.07730022E-02	 9.72625829E-03
5.17945796E+07	-2.07343047E-02	 9.31624624E-03
5.18067877E+07	-2.06556306E-02	 9.27261365E-03
5.18189957E+07	-2.07270774E-02	 9.30458370E-03
5.18312037E+07	-2.05865770E-02	 9.39352635E-03
5.18434117E+07	-2.06480076E-02	 9.41772316E-03
5.18556198E+07	-2.08157651E-02	 9.45048273E-03
5.18678278E+07	-2.05896418E-02	 9.19193214E-03
5.18800358E+07	-2.08233661E-02	 9.38690446E-03
5.18922438E+07	-2.07200693E-02	 9.40653498E-03
5.19044519E+07	-2.05365335E-02	 9.58899876E-03
5.19166599E+07	-2.08079333E-02	 9.30507711E-03
5.19288679E+07	-2.10375022E-02	 9.29439937E-03
5.19410759E+07	-2.06162797E-02	 9.37217278E-03
5.19532840E+07	-2.06913990E-02	 9.55738354E-03
5.19654920E+07	-2.08375376E-02	 9.50209781E-03
5.19777000E+07	-2.03465976E-02	 9.58510677E-03
5.19899080E+07	-2.04503034E-02	 9.30577772E-03
5.20021161E+07	-2.05571895E-02	 9.59317227E-03
5.20143241E+07	-2.06057669E-02	 9.55022977E-03
5.20265321E+07	-2.07711690E-02	 9.45424722E-03
5.20387401E+07	-2.07169475E-02	 9.52489406E-03
5.20509482E+07	-2.04514744E-02	 9.39171331E-03
5.20631562E+07	-2.06255550E-02	 9.51038142E-03
5.20753642E+07	-2.05827541E-02	 9.66766819E-03
5.20875722E+07	-2.08252145E-02	 9.27541588E-03
5.20997803E+07	-2.07192090E-02	 9.36791419E-03
5.21119883E+07	-2.06055554E-02	 9.18036364E-03
5.21241963E+07	-2.08570234E-02	 9.31741055E-03
5.21364043E+07	-2.05981115E-02	 9.30961950E-03
5.21486124E+07	-2.04374339E-02	 9.42247532E-03
5.21608204E+07	-2.06143465E-02	 9.44220245E-03
5.21730284E+07	-2.07397013E-02	 9.32874774E-03
5.21852364E+07	-2.04743880E-02	 9.21342439E-03
5.21974445E+07	-2.04989994E-02	 9.61659367E-03
5.22096525E+07	-2.04048932E-02	 9.44177562E-03
5.22218605E+07	-2.07153419E-02	 9.49069866E-03
5.22340685E+07	-2.06251501E-02	 9.67778860E-03
5.22462766E+07	-2.05898829E-02	 9.52610486E-03
5.22584846E+07	-2.06129192E-02	 9.38446974E-03
5.22706926E+07	-2.07566040E-02	 9.38456684E-03
5.22829006E+07	-2.05495980E-02	 9.45370725E-03
5.22951087E+07	-2.05474577E-02	 9.69037697E-03
5.23073167E+07	-2.05941839E-02	 9.50419167E-03
5.23195247E+07	-2.04480887E-02	 9.90398445E-03
5.23317327E+07	-2.07563776E-02	 9.77838625E-03
5.23439408E+07	-2.06121989E-02	 9.41320791E-03
5.23561488E+07	-2.06386457E-02	 9.77292724E-03
5.23683568E+07	-2.04560762E-02	 9.81526780E-03
5.23805648E+07	-2.05737847E-02	 9.55181827E-03
5.23927728E+07	-2.04034012E-02	 9.71856442E-03
5.24049809E+07	-2.04982204E-02	 9.43941634E-03
5.24171889E+07	-2.04217875E-02	 9.30497788E-03
5.24293969E+07	-2.03720455E-02	 9.70306024E-03
5.24416049E+07	-2.08771610E-02	 9.58093310E-03
5.24538130E+07	-2.07583084E-02	 9.25234642E-03
5.24660210E+07	-2.04525573E-02	 9.45238638E-03
5.24782290E+07	-2.04716684E-02	 9.54085151E-03
5.24904370E+07	-2.03605462E-02	 9.84231365E-03
5.25026451E+07	-2.06537083E-02	 9.23726409E-03
5.25148531E+07	-2.05582504E-02	 9.71464823E-03
5.25270611E+07	-2.04390040E-02	 9.65335796E-03
5.25392691E+07	-2.04983964E-02	 9.84747454E-03
5.25514772E+07	-2.02037337E-02	 9.47684017E-03
5.25636852E+07	-2.04551954E-02	 9.78619496E-03
5.25758932E+07	-2.02723173E-02	 9.83646836E-03
5.25881012E+07	-2.04586265E-02	 9.69055258E-03
5.26003093E+07	-2.04622725E-02	 9.61246343E-03
5.26125173E+07	-2.02071081E-02	 9.60042694E-03
5.26247253E+07	-2.04162755E-02	 9.56465983E-03
5.26369333E+07	-2.04846869E-02	 9.73494496E-03
5.26491414E+07	-2.06604536E-02	 9.64004320E-03
5.26613494E+07	-2.05809029E-02	 9.92015404E-03
5.26735574E+07	-2.03580927E-02	 9.54316916E-03
5.26857654E+07	-2.06061263E-02	 9.63163536E-03
5.26979735E+07	-2.03278407E-02	 9.54659159E-03
5.27101815E+07	-2.06747746E-02	 9.74427058E-03
5.27223895E+07	-2.03248990E-02	 9.46554157E-03
5.27345975E+07	-2.06417721E-02	 9.82597073E-03
5.27468056E+07	-2.04983647E-02	 9.50628570E-03
5.27590136E+07	-2.02118759E-02	 9.58574456E-03
5.27712216E+07	-2.05666459E-02	 9.86518220E-03
5.27834296E+07	-2.05443730E-02	 9.76249392E-03
5.27956377E+07	-2.03215014E-02	 9.85677564E-03
5.28078457E+07	-2.02815635E-02	 9.77383923E-03
5.28200537E+07	-2.04988330E-02	 9.56282867E-03
5.28322617E+07	-2.02020127E-02	 9.46517773E-03
5.28444698E+07	-2.03767194E-02	 9.65846705E-03
5.28566778E+07	-2.05191389E-02	 9.76973814E-03
5.28688858E+07	-2.03700935E-02	 9.74866169E-03
5.28810938E+07	-2.03478936E-02	 9.73981002E-03
5.28933019E+07	-2.03969437E-02	 9.61262835E-03
5.29055099E+07	-2.03484317E-02	 9.61973301E-03
5.29177179E+07	-2.02524805E-02	 9.59029269E-03
5.29299259E+07	-2.03625608E-02	 9.78184413E-03
5.29421340E+07	-2.04467719E-02	 9.93590739E-03
5.29543420E+07	-2.03491785E-02	 9.72955806E-03
5.29665500E+07	-2.03647853E-02	 9.44592084E-03
5.29787580E+07	-2.04419499E-02	 9.82777860E-03
5.29909661E+07	-2.04439417E-02	 9.61717641E-03
5.30031741E+07	-2.02054474E-02	 9.94697410E-03
5.30153821E+07	-2.04158384E-02	 9.96764155E-03
5.30275901E+07	-2.05584935E-02	 9.90227565E-03
5.30397982E+07	-2.02454707E-02	 9.73836003E-03
5.30520062E+07	-2.03928655E-02	 9.77250240E-03
5.30642142E+07	-2.00318559E-02	 9.85240268E-03
5.30764222E+07	-2.07359955E-02	 9.91671587E-03
5.30886303E+07	-2.02686061E-02	 9.93092912E-03
5.31008383E+07	-2.03093336E-02	 9.77987153E-03
5.31130463E+07	-2.03266380E-02	 9.71058570E-03
5.31252543E+07	-2.04581625E-02	 9.74958420E-03
5.31374624E+07	-2.02299963E-02	 9.63273650E-03
5.31496704E+07	-2.04656401E-02	 9.69682556E-03
5.31618784E+07	-2.01531932E-02	 9.69885119E-03
5.31740864E+07	-2.02482552E-02	 9.57753834E-03
5.31862945E+07	-2.00514109E-02	 9.67118179E-03
5.31985025E+07	-2.02373874E-02	 1.00009936E-02
5.32107105E+07	-2.05438619E-02	 9.96595935E-03
5.32229185E+07	-2.03035113E-02	 9.50411621E-03
5.32351266E+07	-2.01654957E-02	 9.57240926E-03
5.32473346E+07	-2.02830626E-02	 9.94839126E-03
5.32595426E+07	-2.04766617E-02	 9.99643394E-03
5.32717506E+07	-2.03980457E-02	 1.02208674E-02
5.32839587E+07	-2.02548726E-02	 9.80437365E-03
5.32961667E+07	-2.03690774E-02	 9.85534741E-03
5.33083747E+07	-2.03935613E-02	 9.95984705E-03
5.33205827E+07	-2.01387410E-02	 9.70961618E-03
5.33327908E+07	-2.03595762E-02	 9.57746793E-03
5.33449988E+07	-2.06339092E-02	 9.92512302E-03
5.33572068E+07	-2.03511755E-02	 9.87599456E-03
5.33694148E+07	-2.05531910E-02	 9.97178458E-03
5.33816229E+07	-2.02745991E-02	 9.83078870E-03
5.33938309E+07	-2.01447882E-02	 9.83207657E-03
5.34060389E+07	-2.03264864E-02	 9.87450672E-03
5.34182469E+07	-2.05445280E-02	 1.00178757E-02
5.34304550E+07	-2.02733664E-02	 9.95337720E-03
5.34426630E+07	-2.01285644E-02	 9.82954877E-03
5.34548710E+07	-2.02657550E-02	 9.80959711E-03
5.34670790E+07	-2.03037044E-02	 9.83800509E-03
5.34792871E+07	-2.03144528E-02	 1.01043578E-02
5.34914951E+07	-2.01643751E-02	 9.78597346E-03
5.35037031E+07	-2.03838797E-02	 1.01133451E-02
5.35159111E+07	-2.03175516E-02	 9.95685660E-03
5.35281192E+07	-1.97781591E-02	 9.96308182E-03
5.35403272E+07	-2.03535894E-02	 9.88000496E-03
5.35525352E+07	-1.99700989E-02	 1.00003076E-02
5.35647432E+07	-2.02880811E-02	 9.89780893E-03
5.35769512E+07	-2.02279652E-02	 9.90496476E-03
5.35891593E+07	-2.04479202E-02	 9.96683759E-03
5.36013673E+07	-2.03440760E-02	 1.00556178E-02
5.36135753E+07	-1.99553534E-02	 1.01485605E-02
5.36257833E+07	-2.01182501E-02	 1.01064358E-02
5.36379914E+07	-2.00555333E-02	 9.84113337E-03
5.36501994E+07	-2.01539201E-02	 9.92081554E-03
5.36624074E+07	-1.98432454E-02	 1.02067391E-02
5.36746154E+07	-2.02133908E-02	 9.88167260E-03
5.36868235E+07	-2.02488635E-02	 9.78269178E-03
5.36990315E+07	-2.01312919E-02	 1.00011421E-02
5.37112395E+07	-2.01501878E-02	 9.94770574E-03
5.37234475E+07	-2.01783698E-02	 1.00341521E-02
5.37356556E+07	-1.99428984E-02	 1.01643692E-02
5.37478636E+07	-1.98884501E-02	 9.84830110E-03
5.37600716E+07	-2.01335637E-02	 9.99570768E-03
5.37722796E+07	-2.04139526E-02	 1.00198359E-02
5.37844877E+07	-2.02008824E-02	 1.01255616E-02
5.37966957E+07	-1.99605626E-02	 9.61374714E-03
5.38089037E+07	-2.01865762E-02	 9.93410527E-03
5.38211117E+07	-2.04005605E-02	 1.00265994E-02
5.38333198E+07	-2.01258203E-02	 1.00815720E-02
5.38455278E+07	-2.00212670E-02	 1.00777657E-02
5.38577358E+07	-1.98915853E-02	 1.01674688E-02
5.38699438E+07	-2.01311629E-02	 1.02169948E-02
5.38821519E+07	-1.98807470E-02	 9.79095812E-03
5.38943599E+07	-2.01793757E-02	 1.03725874E-02
5.39065679E+07	-1.97958592E-02	 1.00539137E-02
5.39187759E+07	-2.00514385E-02	 1.00948274E-02
5.39309840E+07	-2.02334883E-02	 9.99660322E-03
5.39431920E+07	-1.98849153E-02	 1.01383274E-02
5.39554000E+07	-2.00021904E-02	 1.00816686E-02
5.39676080E+07	-1.99953350E-02	 1.00154350E-02
5.39798161E+07	-1.99800096E-02	 1.01237756E-02
5.39920241E+07	-2.01227152E-02	 1.00626503E-02
5.40042321E+07	-1.98933577E-02	 1.02908460E-02
5.40164401E+07	-2.02490927E-02	 9.98068030E-03
5.40286482E+07	-2.00823314E-02	 1.02821230E-02
5.40408562E+07	-2.00457568E-02	 1.00299036E-02
5.40530642E+07	-2.00624755E-02	 1.00568761E-02
5.40652722E+07	-2.01065359E-02	 9.99597608E-03
5.40774803E+07	-2.02395857E-02	 1.00719305E-02
5.40896883E+07	-1.96914207E-02	 1.04778393E-02
5.41018963E+07	-1.99461627E-02	 1.01743659E-02
5.41141043E+07	-1.99324773E-02	 1.01296101E-02
5.41263124E+07	-2.03650714E-02	 1.00443347E-02
5.41385204E+07	-1.97812648E-02	 9.93375562E-03
5.41507284E+07	-1.98964501E-02	 9.97298608E-03
5.41629364E+07	-2.00800661E-02	 1.01715736E-02
5.41751445E+07	-1.97361701E-02	 1.02258082E-02
5.41873525E+07	-2.01585225E-02	 1.01496353E-02
5.41995605E+07	-2.00512976E-02	 1.00629403E-02
5.42117685E+07	-2.00064221E-02	 1.01536726E-02
5.42239766E+07	-1.99766861E-02	 1.01773189E-02
5.42361846E+07	-1.99182002E-02	 1.02191947E-02
5.42483926E+07	-1.98655744E-02	 1.03557339E-02
5.42606006E+07	-1.98433306E-02	 1.04161008E-02
5.42728087E+07	-1.99780304E-02	 1.02249640E-02
5.42850167E+07	-1.98748349E-02	 1.03602284E-02
5.42972247E+07	-1.97357767E-02	 1.00114175E-02
5.43094327E+07	-1.99367514E-02	 1.03039702E-02
5.43216408E+07	-2.02393219E-02	 1.00978034E-02
5.43338488E+07	-1.98702705E-02	 1.02839481E-02
5.43460568E+07	-2.00763590E-02	 1.00690454E-02
5.43582648E+07	-1.98723639E-02	 1.02173902E-02
5.43704729E+07	-2.02794290E-02	 9.91176982E-03
5.43826809E+07	-2.01370686E-02	 1.02734889E-02
5.43948889E+07	-1.95684425E-02	 1.00732325E-02
5.44070969E+07	-1.98485717E-02	 1.01547241E-02
5.44193050E+07	-1.99312437E-02	 1.02925117E-02
5.44315130E+07	-2.01620050E-02	 1.01083146E-02
5.44437210E+07	-1.97739984E-02	 1.01241522E-02
5.44559290E+07	-1.98214863E-02	 1.00433917E-02
5.44681371E+07	-1.99953616E-02	 1.02497361E-02
5.44803451E+07	-2.01075021E-02	 1.02931539E-02
5.44925531E+07	-1.98904771E-02	 1.00389534E-02
5.45047611E+07	-1.97566469E-02	 1.04211805E-02
5.45169692E+07	-1.98542004E-02	 1.05034727E-02
5.45291772E+07	-1.99340235E-02	 1.01907676E-02
5.45413852E+07	-1.97281561E-02	 1.01242685E-02
5.45535932E+07	-2.00590834E-02	 1.03651634E-02
5.45658013E+07	-1.99503238E-02	 1.00795981E-02
5.45780093E+07	-2.01642483E-02	 1.00063439E-02
5.45902173E+07	-1.98781430E-02	 1.05304252E-02
5.46024253E+07	-2.01119319E-02	 1.05921181E-02
5.46146334E+07	-1.99046146E-02	 1.04819982E-02
5.46268414E+07	-1.96170866E-02	 1.02518547E-02
5.46390494E+07	-1.98967654E-02	 1.03959810E-02
5.46512574E+07	-1.99277734E-02	 1.03800449E-02
5.46634655E+07	-1.97096956E-02	 1.01491509E-02
5.46756735E+07	-1.97710061E-02	 1.01191341E-02
5.46878815E+07	-1.98150582E-02	 1.04595078E-02
5.47000895E+07	-1.99146292E-02	 1.02262344E-02
5.47122976E+07	-1.94270667E-02	 1.03647099E-02
5.47245056E+07	-2.00612238E-02	 1.03017456E-02
5.47367136E+07	-1.98517471E-02	 1.03573509E-02
5.47489216E+07	-1.99733984E-02	 1.02985350E-02
5.47611296E+07	-1.99779889E-02	 1.04226103E-02
5.47733377E+07	-1.99542786E-02	 1.02132422E-02
5.47855457E+07	-1.97166905E-02	 1.03544871E-02
5.47977537E+07	-1.96804605E-02	 1.03910350E-02
5.48099617E+07	-2.00819350E-02	 1.05374389E-02
5.48221698E+07	-1.96330109E-02	 1.05589627E-02
5.48343778E+07	-1.98086813E-02	 1.03988923E-02
5.48465858E+07	-1.97218876E-02	 1.03207186E-02
5.48587938E+07	-1.98214940E-02	 1.05499994E-02
5.48710019E+07	-1.99177267E-02	 1.03524259E-02
5.48832099E+07	-2.00442864E-02	 1.06298409E-02
5.48954179E+07	-1.98675125E-02	 1.03260841E-02
5.49076259E+07	-1.98582088E-02	 1.04320440E-02
5.49198340E+07	-1.95192668E-02	 1.06044346E-02
5.49320420E+07	-1.96585334E-02	 1.05053387E-02
5.49442500E+07	-1.98359470E-02	 1.02444033E-02
5.49564580E+07	-1.98642060E-02	 1.00274085E-02
5.49686661E+07	-1.99587316E-02	 1.05129891E-02
5.49808741E+07	-1.98135884E-02	 1.05016911E-02
5.49930821E+07	-1.96702346E-02	 1.03828370E-02
5.50052901E+07	-1.98278938E-02	 1.05200474E-02
5.50174982E+07	-1.98755831E-02	 1.04597208E-02
5.50297062E+07	-1.97195143E-02	 1.01912144E-02
5.50419142E+07	-1.95495188E-02	 1.02925234E-02
5.50541222E+07	-1.98124756E-02	 1.04844919E-02
5.50663303E+07	-1.97021980E-02	 1.04075212E-02
5.50785383E+07	-1.97644536E-02	 1.05726694E-02
5.50907463E+07	-1.98494518E-02	 1.06172389E-02
5.51029543E+07	-1.96550722E-02	 1.05297092E-02
5.51151624E+07	-1.98084882E-02	 1.05528980E-02
5.51273704E+07	-1.97609085E-02	 1.04700992E-02
