! COPPER MOUNTAIN TECHNOLOGIES, PLANAR TR1300/1, 00071119, 20.2.2/1.0
! Date: 1/7/2024 7:37:53 PM
! Data: Format [Calibration Info]
! Freq          	S11: Re/Im F1                  
# HZ S RI R 50
5.00000000E+07	 1.79836141E-01	-2.82010811E-01
5.00122080E+07	 1.79775509E-01	-2.82057315E-01
5.00244160E+07	 1.79703140E-01	-2.82096568E-01
5.00366241E+07	 1.79629861E-01	-2.82139477E-01
5.00488321E+07	 1.79561363E-01	-2.82188186E-01
5.00610401E+07	 1.79489799E-01	-2.82237191E-01
5.00732481E+07	 1.79420055E-01	-2.82282530E-01
5.00854562E+07	 1.79352190E-01	-2.82316120E-01
5.00976642E+07	 1.79280714E-01	-2.82370749E-01
5.01098722E+07	 1.79217588E-01	-2.82404617E-01
5.01220802E+07	 1.79148903E-01	-2.82455982E-01
5.01342883E+07	 1.79080900E-01	-2.82500911E-01
5.01464963E+07	 1.79007850E-01	-2.82543334E-01
5.01587043E+07	 1.78937024E-01	-2.82588155E-01
5.01709123E+07	 1.78868590E-01	-2.82633224E-01
5.01831204E+07	 1.78801353E-01	-2.82676942E-01
5.01953284E+07	 1.78731902E-01	-2.82712223E-01
5.02075364E+07	 1.78662851E-01	-2.82761286E-01
5.02197444E+07	 1.78591641E-01	-2.82806339E-01
5.02319525E+07	 1.78519129E-01	-2.82858763E-01
5.02441605E+07	 1.78455558E-01	-2.82901407E-01
5.02563685E+07	 1.78388117E-01	-2.82943610E-01
5.02685765E+07	 1.78311982E-01	-2.82984137E-01
5.02807846E+07	 1.78250396E-01	-2.83029644E-01
5.02929926E+07	 1.78175830E-01	-2.83076870E-01
5.03052006E+07	 1.78103199E-01	-2.83114496E-01
5.03174086E+07	 1.78039550E-01	-2.83157432E-01
5.03296167E+07	 1.77963019E-01	-2.83205673E-01
5.03418247E+07	 1.77902636E-01	-2.83254685E-01
5.03540327E+07	 1.77833967E-01	-2.83293587E-01
5.03662407E+07	 1.77760315E-01	-2.83340825E-01
5.03784488E+07	 1.77693614E-01	-2.83388722E-01
5.03906568E+07	 1.77617650E-01	-2.83422710E-01
5.04028648E+07	 1.77545394E-01	-2.83473996E-01
5.04150728E+07	 1.77479818E-01	-2.83516429E-01
5.04272809E+07	 1.77413956E-01	-2.83558340E-01
5.04394889E+07	 1.77337838E-01	-2.83606122E-01
5.04516969E+07	 1.77268139E-01	-2.83652874E-01
5.04639049E+07	 1.77206754E-01	-2.83696736E-01
5.04761130E+07	 1.77127754E-01	-2.83741101E-01
5.04883210E+07	 1.77058537E-01	-2.83777823E-01
5.05005290E+07	 1.76996799E-01	-2.83816896E-01
5.05127370E+07	 1.76917741E-01	-2.83869933E-01
5.05249451E+07	 1.76855121E-01	-2.83907163E-01
5.05371531E+07	 1.76782737E-01	-2.83952321E-01
5.05493611E+07	 1.76713671E-01	-2.83995879E-01
5.05615691E+07	 1.76639507E-01	-2.84039252E-01
5.05737772E+07	 1.76581929E-01	-2.84074720E-01
5.05859852E+07	 1.76506906E-01	-2.84128235E-01
5.05981932E+07	 1.76440975E-01	-2.84172181E-01
5.06104012E+07	 1.76367736E-01	-2.84215766E-01
5.06226093E+07	 1.76301983E-01	-2.84263414E-01
5.06348173E+07	 1.76227626E-01	-2.84301552E-01
5.06470253E+07	 1.76160951E-01	-2.84342484E-01
5.06592333E+07	 1.76092466E-01	-2.84393437E-01
5.06714414E+07	 1.76025243E-01	-2.84438142E-01
5.06836494E+07	 1.75954429E-01	-2.84483780E-01
5.06958574E+07	 1.75880592E-01	-2.84525413E-01
5.07080654E+07	 1.75814008E-01	-2.84566252E-01
5.07202735E+07	 1.75744672E-01	-2.84609672E-01
5.07324815E+07	 1.75669437E-01	-2.84652716E-01
5.07446895E+07	 1.75594809E-01	-2.84698842E-01
5.07568975E+07	 1.75534815E-01	-2.84732524E-01
5.07691056E+07	 1.75463782E-01	-2.84789657E-01
5.07813136E+07	 1.75391040E-01	-2.84831642E-01
5.07935216E+07	 1.75324208E-01	-2.84870635E-01
5.08057296E+07	 1.75255235E-01	-2.84915321E-01
5.08179377E+07	 1.75181003E-01	-2.84957650E-01
5.08301457E+07	 1.75113975E-01	-2.85006460E-01
5.08423537E+07	 1.75044132E-01	-2.85046045E-01
5.08545617E+07	 1.74977725E-01	-2.85087003E-01
5.08667698E+07	 1.74906988E-01	-2.85133894E-01
5.08789778E+07	 1.74832267E-01	-2.85178276E-01
5.08911858E+07	 1.74766011E-01	-2.85218807E-01
5.09033938E+07	 1.74693848E-01	-2.85263903E-01
5.09156019E+07	 1.74629416E-01	-2.85303109E-01
5.09278099E+07	 1.74555524E-01	-2.85353795E-01
5.09400179E+07	 1.74482845E-01	-2.85394540E-01
5.09522259E+07	 1.74419466E-01	-2.85435205E-01
5.09644340E+07	 1.74344580E-01	-2.85476881E-01
5.09766420E+07	 1.74277714E-01	-2.85526105E-01
5.09888500E+07	 1.74201280E-01	-2.85565553E-01
5.10010580E+07	 1.74135906E-01	-2.85607142E-01
5.10132661E+07	 1.74066714E-01	-2.85652180E-01
5.10254741E+07	 1.73986834E-01	-2.85699641E-01
5.10376821E+07	 1.73929647E-01	-2.85740685E-01
5.10498901E+07	 1.73859338E-01	-2.85786205E-01
5.10620982E+07	 1.73789734E-01	-2.85820072E-01
5.10743062E+07	 1.73722795E-01	-2.85866591E-01
5.10865142E+07	 1.73655231E-01	-2.85909963E-01
5.10987222E+07	 1.73581921E-01	-2.85955660E-01
5.11109303E+07	 1.73515916E-01	-2.85993492E-01
5.11231383E+07	 1.73445030E-01	-2.86041418E-01
5.11353463E+07	 1.73377460E-01	-2.86080602E-01
5.11475543E+07	 1.73308255E-01	-2.86127840E-01
5.11597624E+07	 1.73227209E-01	-2.86168498E-01
5.11719704E+07	 1.73166825E-01	-2.86210444E-01
5.11841784E+07	 1.73097202E-01	-2.86261270E-01
5.11963864E+07	 1.73023456E-01	-2.86299361E-01
5.12085944E+07	 1.72952133E-01	-2.86339335E-01
5.12208025E+07	 1.72888889E-01	-2.86382533E-01
5.12330105E+07	 1.72821980E-01	-2.86424972E-01
5.12452185E+07	 1.72745556E-01	-2.86468734E-01
5.12574265E+07	 1.72680385E-01	-2.86512736E-01
5.12696346E+07	 1.72604960E-01	-2.86552537E-01
5.12818426E+07	 1.72536910E-01	-2.86600022E-01
5.12940506E+07	 1.72468118E-01	-2.86639418E-01
5.13062586E+07	 1.72398462E-01	-2.86683057E-01
5.13184667E+07	 1.72333316E-01	-2.86715878E-01
5.13306747E+07	 1.72259731E-01	-2.86764904E-01
5.13428827E+07	 1.72187886E-01	-2.86811362E-01
5.13550907E+07	 1.72115637E-01	-2.86845959E-01
5.13672988E+07	 1.72047774E-01	-2.86888263E-01
5.13795068E+07	 1.71978522E-01	-2.86937324E-01
5.13917148E+07	 1.71912620E-01	-2.86982087E-01
5.14039228E+07	 1.71838260E-01	-2.87021877E-01
5.14161309E+07	 1.71765237E-01	-2.87058544E-01
5.14283389E+07	 1.71699988E-01	-2.87103813E-01
5.14405469E+07	 1.71626966E-01	-2.87140295E-01
5.14527549E+07	 1.71556304E-01	-2.87189406E-01
5.14649630E+07	 1.71495546E-01	-2.87228212E-01
5.14771710E+07	 1.71418835E-01	-2.87272204E-01
5.14893790E+07	 1.71354520E-01	-2.87309060E-01
5.15015870E+07	 1.71282651E-01	-2.87351373E-01
5.15137951E+07	 1.71209193E-01	-2.87393698E-01
5.15260031E+07	 1.71140561E-01	-2.87442687E-01
5.15382111E+07	 1.71068899E-01	-2.87485766E-01
5.15504191E+07	 1.71001837E-01	-2.87522947E-01
5.15626272E+07	 1.70935255E-01	-2.87566123E-01
5.15748352E+07	 1.70864228E-01	-2.87606429E-01
5.15870432E+07	 1.70794409E-01	-2.87655155E-01
5.15992512E+07	 1.70724961E-01	-2.87701661E-01
5.16114593E+07	 1.70649490E-01	-2.87734857E-01
5.16236673E+07	 1.70581275E-01	-2.87775906E-01
5.16358753E+07	 1.70511544E-01	-2.87821832E-01
5.16480833E+07	 1.70444808E-01	-2.87864108E-01
5.16602914E+07	 1.70381681E-01	-2.87904680E-01
5.16724994E+07	 1.70301002E-01	-2.87946163E-01
5.16847074E+07	 1.70230778E-01	-2.87981899E-01
5.16969154E+07	 1.70165419E-01	-2.88034436E-01
5.17091235E+07	 1.70095268E-01	-2.88071121E-01
5.17213315E+07	 1.70024627E-01	-2.88113822E-01
5.17335395E+07	 1.69955087E-01	-2.88157325E-01
5.17457475E+07	 1.69883625E-01	-2.88197749E-01
5.17579556E+07	 1.69810820E-01	-2.88235053E-01
5.17701636E+07	 1.69741791E-01	-2.88278284E-01
5.17823716E+07	 1.69667866E-01	-2.88330548E-01
5.17945796E+07	 1.69598661E-01	-2.88367629E-01
5.18067877E+07	 1.69534431E-01	-2.88404532E-01
5.18189957E+07	 1.69465853E-01	-2.88448356E-01
5.18312037E+07	 1.69397533E-01	-2.88497983E-01
5.18434117E+07	 1.69328702E-01	-2.88533328E-01
5.18556198E+07	 1.69252702E-01	-2.88570435E-01
5.18678278E+07	 1.69181410E-01	-2.88621436E-01
5.18800358E+07	 1.69107792E-01	-2.88656228E-01
5.18922438E+07	 1.69041764E-01	-2.88697989E-01
5.19044519E+07	 1.68972100E-01	-2.88744110E-01
5.19166599E+07	 1.68904612E-01	-2.88784926E-01
5.19288679E+07	 1.68835657E-01	-2.88825601E-01
5.19410759E+07	 1.68764230E-01	-2.88870495E-01
5.19532840E+07	 1.68688974E-01	-2.88906630E-01
5.19654920E+07	 1.68621001E-01	-2.88951355E-01
5.19777000E+07	 1.68558330E-01	-2.88996927E-01
5.19899080E+07	 1.68488209E-01	-2.89033446E-01
5.20021161E+07	 1.68405629E-01	-2.89083150E-01
5.20143241E+07	 1.68342965E-01	-2.89111747E-01
5.20265321E+07	 1.68271382E-01	-2.89160743E-01
5.20387401E+07	 1.68204488E-01	-2.89198315E-01
5.20509482E+07	 1.68130949E-01	-2.89244397E-01
5.20631562E+07	 1.68057216E-01	-2.89285589E-01
5.20753642E+07	 1.67984303E-01	-2.89331154E-01
5.20875722E+07	 1.67921089E-01	-2.89366782E-01
5.20997803E+07	 1.67845697E-01	-2.89406083E-01
5.21119883E+07	 1.67774748E-01	-2.89450143E-01
5.21241963E+07	 1.67704496E-01	-2.89488171E-01
5.21364043E+07	 1.67637610E-01	-2.89537644E-01
5.21486124E+07	 1.67562488E-01	-2.89577556E-01
5.21608204E+07	 1.67490790E-01	-2.89617067E-01
5.21730284E+07	 1.67417197E-01	-2.89658928E-01
5.21852364E+07	 1.67349899E-01	-2.89699303E-01
5.21974445E+07	 1.67278787E-01	-2.89739586E-01
5.22096525E+07	 1.67211512E-01	-2.89775109E-01
5.22218605E+07	 1.67133826E-01	-2.89822766E-01
5.22340685E+07	 1.67061468E-01	-2.89864514E-01
5.22462766E+07	 1.66991005E-01	-2.89908521E-01
5.22584846E+07	 1.66919169E-01	-2.89942866E-01
5.22706926E+07	 1.66852156E-01	-2.89986024E-01
5.22829006E+07	 1.66776528E-01	-2.90032196E-01
5.22951087E+07	 1.66715688E-01	-2.90067566E-01
5.23073167E+07	 1.66643748E-01	-2.90109283E-01
5.23195247E+07	 1.66565459E-01	-2.90145397E-01
5.23317327E+07	 1.66494046E-01	-2.90192953E-01
5.23439408E+07	 1.66425049E-01	-2.90234612E-01
5.23561488E+07	 1.66357587E-01	-2.90276053E-01
5.23683568E+07	 1.66286154E-01	-2.90311791E-01
5.23805648E+07	 1.66208608E-01	-2.90351646E-01
5.23927728E+07	 1.66140359E-01	-2.90395799E-01
5.24049809E+07	 1.66074533E-01	-2.90437628E-01
5.24171889E+07	 1.66000897E-01	-2.90477486E-01
5.24293969E+07	 1.65928753E-01	-2.90523292E-01
5.24416049E+07	 1.65854682E-01	-2.90557445E-01
5.24538130E+07	 1.65780545E-01	-2.90596510E-01
5.24660210E+07	 1.65710159E-01	-2.90641525E-01
5.24782290E+07	 1.65643323E-01	-2.90683832E-01
5.24904370E+07	 1.65560362E-01	-2.90731777E-01
5.25026451E+07	 1.65498145E-01	-2.90756149E-01
5.25148531E+07	 1.65430592E-01	-2.90801895E-01
5.25270611E+07	 1.65358185E-01	-2.90847054E-01
5.25392691E+07	 1.65287335E-01	-2.90885501E-01
5.25514772E+07	 1.65220193E-01	-2.90929900E-01
5.25636852E+07	 1.65142276E-01	-2.90967784E-01
5.25758932E+07	 1.65068213E-01	-2.91002767E-01
5.25881012E+07	 1.65002286E-01	-2.91051268E-01
5.26003093E+07	 1.64932952E-01	-2.91086960E-01
5.26125173E+07	 1.64856181E-01	-2.91131282E-01
5.26247253E+07	 1.64790192E-01	-2.91172752E-01
5.26369333E+07	 1.64722217E-01	-2.91207871E-01
5.26491414E+07	 1.64644701E-01	-2.91258390E-01
5.26613494E+07	 1.64576173E-01	-2.91284808E-01
5.26735574E+07	 1.64507704E-01	-2.91331947E-01
5.26857654E+07	 1.64437083E-01	-2.91381949E-01
5.26979735E+07	 1.64362225E-01	-2.91412010E-01
5.27101815E+07	 1.64296675E-01	-2.91455153E-01
5.27223895E+07	 1.64221608E-01	-2.91492492E-01
5.27345975E+07	 1.64145746E-01	-2.91532435E-01
5.27468056E+07	 1.64080230E-01	-2.91573092E-01
5.27590136E+07	 1.64004731E-01	-2.91610568E-01
5.27712216E+07	 1.63936700E-01	-2.91661905E-01
5.27834296E+07	 1.63854858E-01	-2.91700649E-01
5.27956377E+07	 1.63787498E-01	-2.91740116E-01
5.28078457E+07	 1.63720606E-01	-2.91770225E-01
5.28200537E+07	 1.63637889E-01	-2.91821826E-01
5.28322617E+07	 1.63574115E-01	-2.91856646E-01
5.28444698E+07	 1.63503455E-01	-2.91894754E-01
5.28566778E+07	 1.63433581E-01	-2.91933658E-01
5.28688858E+07	 1.63364016E-01	-2.91975360E-01
5.28810938E+07	 1.63286710E-01	-2.92018627E-01
5.28933019E+07	 1.63213828E-01	-2.92060021E-01
5.29055099E+07	 1.63147612E-01	-2.92098556E-01
5.29177179E+07	 1.63073752E-01	-2.92141596E-01
5.29299259E+07	 1.63005388E-01	-2.92178641E-01
5.29421340E+07	 1.62927527E-01	-2.92219906E-01
5.29543420E+07	 1.62856065E-01	-2.92259290E-01
5.29665500E+07	 1.62784631E-01	-2.92304724E-01
5.29787580E+07	 1.62714175E-01	-2.92340063E-01
5.29909661E+07	 1.62654473E-01	-2.92382155E-01
5.30031741E+07	 1.62572448E-01	-2.92420410E-01
5.30153821E+07	 1.62500751E-01	-2.92465372E-01
5.30275901E+07	 1.62431788E-01	-2.92501175E-01
5.30397982E+07	 1.62357693E-01	-2.92541150E-01
5.30520062E+07	 1.62286234E-01	-2.92574192E-01
5.30642142E+07	 1.62223295E-01	-2.92624656E-01
5.30764222E+07	 1.62147502E-01	-2.92658831E-01
5.30886303E+07	 1.62068343E-01	-2.92700709E-01
5.31008383E+07	 1.62005555E-01	-2.92739691E-01
5.31130463E+07	 1.61932348E-01	-2.92779178E-01
5.31252543E+07	 1.61865409E-01	-2.92820217E-01
5.31374624E+07	 1.61793387E-01	-2.92847318E-01
5.31496704E+07	 1.61718532E-01	-2.92895754E-01
5.31618784E+07	 1.61644351E-01	-2.92938271E-01
5.31740864E+07	 1.61570862E-01	-2.92975683E-01
5.31862945E+07	 1.61505113E-01	-2.93018430E-01
5.31985025E+07	 1.61431303E-01	-2.93055510E-01
5.32107105E+07	 1.61360161E-01	-2.93094059E-01
5.32229185E+07	 1.61295657E-01	-2.93136356E-01
5.32351266E+07	 1.61217643E-01	-2.93170136E-01
5.32473346E+07	 1.61149166E-01	-2.93212124E-01
5.32595426E+07	 1.61079713E-01	-2.93256311E-01
5.32717506E+07	 1.61006945E-01	-2.93292420E-01
5.32839587E+07	 1.60937105E-01	-2.93333825E-01
5.32961667E+07	 1.60864566E-01	-2.93373939E-01
5.33083747E+07	 1.60798930E-01	-2.93408887E-01
5.33205827E+07	 1.60730420E-01	-2.93444885E-01
5.33327908E+07	 1.60644961E-01	-2.93497538E-01
5.33449988E+07	 1.60579864E-01	-2.93531463E-01
5.33572068E+07	 1.60508179E-01	-2.93565759E-01
5.33694148E+07	 1.60437767E-01	-2.93601891E-01
5.33816229E+07	 1.60363269E-01	-2.93654540E-01
5.33938309E+07	 1.60290645E-01	-2.93683309E-01
5.34060389E+07	 1.60222556E-01	-2.93725502E-01
5.34182469E+07	 1.60149558E-01	-2.93765382E-01
5.34304550E+07	 1.60078378E-01	-2.93805729E-01
5.34426630E+07	 1.60014048E-01	-2.93847300E-01
5.34548710E+07	 1.59939377E-01	-2.93884470E-01
5.34670790E+07	 1.59865158E-01	-2.93923096E-01
5.34792871E+07	 1.59793244E-01	-2.93967280E-01
5.34914951E+07	 1.59718746E-01	-2.94007834E-01
5.35037031E+07	 1.59656304E-01	-2.94042529E-01
5.35159111E+07	 1.59582433E-01	-2.94077917E-01
5.35281192E+07	 1.59504049E-01	-2.94114916E-01
5.35403272E+07	 1.59445197E-01	-2.94160587E-01
5.35525352E+07	 1.59368975E-01	-2.94200427E-01
5.35647432E+07	 1.59292703E-01	-2.94232300E-01
5.35769512E+07	 1.59218950E-01	-2.94275362E-01
5.35891593E+07	 1.59153475E-01	-2.94316375E-01
5.36013673E+07	 1.59074663E-01	-2.94353227E-01
5.36135753E+07	 1.59000490E-01	-2.94401049E-01
5.36257833E+07	 1.58933733E-01	-2.94436292E-01
5.36379914E+07	 1.58865636E-01	-2.94475222E-01
5.36501994E+07	 1.58787898E-01	-2.94513332E-01
5.36624074E+07	 1.58719035E-01	-2.94558886E-01
5.36746154E+07	 1.58645793E-01	-2.94588356E-01
5.36868235E+07	 1.58573255E-01	-2.94625228E-01
5.36990315E+07	 1.58507073E-01	-2.94666489E-01
5.37112395E+07	 1.58433173E-01	-2.94709047E-01
5.37234475E+07	 1.58363234E-01	-2.94748568E-01
5.37356556E+07	 1.58285980E-01	-2.94782515E-01
5.37478636E+07	 1.58218241E-01	-2.94820506E-01
5.37600716E+07	 1.58148173E-01	-2.94865009E-01
5.37722796E+07	 1.58076135E-01	-2.94906043E-01
5.37844877E+07	 1.58002938E-01	-2.94941128E-01
5.37966957E+07	 1.57929764E-01	-2.94978735E-01
5.38089037E+07	 1.57854677E-01	-2.95021660E-01
5.38211117E+07	 1.57789597E-01	-2.95058311E-01
5.38333198E+07	 1.57714660E-01	-2.95097632E-01
5.38455278E+07	 1.57640694E-01	-2.95137174E-01
5.38577358E+07	 1.57575838E-01	-2.95182298E-01
5.38699438E+07	 1.57497644E-01	-2.95212998E-01
5.38821519E+07	 1.57433726E-01	-2.95251521E-01
5.38943599E+07	 1.57356315E-01	-2.95283116E-01
5.39065679E+07	 1.57280110E-01	-2.95327209E-01
5.39187759E+07	 1.57213899E-01	-2.95367916E-01
5.39309840E+07	 1.57138586E-01	-2.95404061E-01
5.39431920E+07	 1.57066976E-01	-2.95449316E-01
5.39554000E+07	 1.57003033E-01	-2.95483797E-01
5.39676080E+07	 1.56932956E-01	-2.95516425E-01
5.39798161E+07	 1.56862226E-01	-2.95557786E-01
5.39920241E+07	 1.56779534E-01	-2.95599001E-01
5.40042321E+07	 1.56705396E-01	-2.95639076E-01
5.40164401E+07	 1.56641258E-01	-2.95678949E-01
5.40286482E+07	 1.56563081E-01	-2.95713191E-01
5.40408562E+07	 1.56492456E-01	-2.95756409E-01
5.40530642E+07	 1.56413491E-01	-2.95793945E-01
5.40652722E+07	 1.56349332E-01	-2.95822533E-01
5.40774803E+07	 1.56277651E-01	-2.95868976E-01
5.40896883E+07	 1.56212841E-01	-2.95907124E-01
5.41018963E+07	 1.56133543E-01	-2.95946859E-01
5.41141043E+07	 1.56054286E-01	-2.95981956E-01
5.41263124E+07	 1.55987784E-01	-2.96016431E-01
5.41385204E+07	 1.55915831E-01	-2.96068545E-01
5.41507284E+07	 1.55838208E-01	-2.96100820E-01
5.41629364E+07	 1.55763125E-01	-2.96139720E-01
5.41751445E+07	 1.55698476E-01	-2.96179321E-01
5.41873525E+07	 1.55623458E-01	-2.96213924E-01
5.41995605E+07	 1.55553991E-01	-2.96260550E-01
5.42117685E+07	 1.55476272E-01	-2.96295054E-01
5.42239766E+07	 1.55402004E-01	-2.96338210E-01
5.42361846E+07	 1.55322526E-01	-2.96377181E-01
5.42483926E+07	 1.55254867E-01	-2.96408167E-01
5.42606006E+07	 1.55186736E-01	-2.96447252E-01
5.42728087E+07	 1.55112957E-01	-2.96491902E-01
5.42850167E+07	 1.55043254E-01	-2.96521476E-01
5.42972247E+07	 1.54967223E-01	-2.96555521E-01
5.43094327E+07	 1.54899360E-01	-2.96599386E-01
5.43216408E+07	 1.54828117E-01	-2.96642065E-01
5.43338488E+07	 1.54745711E-01	-2.96680852E-01
5.43460568E+07	 1.54675701E-01	-2.96722316E-01
5.43582648E+07	 1.54597986E-01	-2.96756387E-01
5.43704729E+07	 1.54533196E-01	-2.96792726E-01
5.43826809E+07	 1.54456737E-01	-2.96832081E-01
5.43948889E+07	 1.54388537E-01	-2.96864164E-01
5.44070969E+07	 1.54310107E-01	-2.96911839E-01
5.44193050E+07	 1.54234886E-01	-2.96940288E-01
5.44315130E+07	 1.54160488E-01	-2.96977669E-01
5.44437210E+07	 1.54098974E-01	-2.97020996E-01
5.44559290E+07	 1.54021526E-01	-2.97058802E-01
5.44681371E+07	 1.53949092E-01	-2.97100258E-01
5.44803451E+07	 1.53868849E-01	-2.97134065E-01
5.44925531E+07	 1.53795968E-01	-2.97177865E-01
5.45047611E+07	 1.53729908E-01	-2.97213809E-01
5.45169692E+07	 1.53652623E-01	-2.97256508E-01
5.45291772E+07	 1.53586574E-01	-2.97285910E-01
5.45413852E+07	 1.53506895E-01	-2.97321913E-01
5.45535932E+07	 1.53434456E-01	-2.97357545E-01
5.45658013E+07	 1.53371749E-01	-2.97400328E-01
5.45780093E+07	 1.53288094E-01	-2.97442724E-01
5.45902173E+07	 1.53223513E-01	-2.97483710E-01
5.46024253E+07	 1.53141902E-01	-2.97516637E-01
5.46146334E+07	 1.53068797E-01	-2.97554151E-01
5.46268414E+07	 1.53004623E-01	-2.97596033E-01
5.46390494E+07	 1.52924992E-01	-2.97635043E-01
5.46512574E+07	 1.52854217E-01	-2.97671525E-01
5.46634655E+07	 1.52782815E-01	-2.97709288E-01
5.46756735E+07	 1.52701398E-01	-2.97747486E-01
5.46878815E+07	 1.52638362E-01	-2.97780546E-01
5.47000895E+07	 1.52562613E-01	-2.97818866E-01
5.47122976E+07	 1.52493107E-01	-2.97862072E-01
5.47245056E+07	 1.52408464E-01	-2.97894198E-01
5.47367136E+07	 1.52344119E-01	-2.97933724E-01
5.47489216E+07	 1.52272700E-01	-2.97964674E-01
5.47611296E+07	 1.52197981E-01	-2.98009112E-01
5.47733377E+07	 1.52121428E-01	-2.98043595E-01
5.47855457E+07	 1.52045442E-01	-2.98080392E-01
5.47977537E+07	 1.51979611E-01	-2.98125382E-01
5.48099617E+07	 1.51896998E-01	-2.98159283E-01
5.48221698E+07	 1.51826506E-01	-2.98197103E-01
5.48343778E+07	 1.51756686E-01	-2.98235239E-01
5.48465858E+07	 1.51679556E-01	-2.98268865E-01
5.48587938E+07	 1.51615111E-01	-2.98312120E-01
5.48710019E+07	 1.51536785E-01	-2.98342789E-01
5.48832099E+07	 1.51468497E-01	-2.98386258E-01
5.48954179E+07	 1.51390935E-01	-2.98421068E-01
5.49076259E+07	 1.51320285E-01	-2.98455675E-01
5.49198340E+07	 1.51246644E-01	-2.98494212E-01
5.49320420E+07	 1.51174839E-01	-2.98532858E-01
5.49442500E+07	 1.51091472E-01	-2.98572287E-01
5.49564580E+07	 1.51024705E-01	-2.98608709E-01
5.49686661E+07	 1.50952735E-01	-2.98645136E-01
5.49808741E+07	 1.50882279E-01	-2.98679765E-01
5.49930821E+07	 1.50812783E-01	-2.98715764E-01
5.50052901E+07	 1.50735952E-01	-2.98763750E-01
5.50174982E+07	 1.50654282E-01	-2.98796430E-01
5.50297062E+07	 1.50585119E-01	-2.98833778E-01
5.50419142E+07	 1.50520021E-01	-2.98866689E-01
5.50541222E+07	 1.50446550E-01	-2.98909910E-01
5.50663303E+07	 1.50373339E-01	-2.98941687E-01
5.50785383E+07	 1.50298030E-01	-2.98986470E-01
5.50907463E+07	 1.50225151E-01	-2.99022678E-01
5.51029543E+07	 1.50153679E-01	-2.99062670E-01
5.51151624E+07	 1.50084581E-01	-2.99092898E-01
5.51273704E+07	 1.50002341E-01	-2.99124190E-01
