! COPPER MOUNTAIN TECHNOLOGIES, PLANAR TR1300/1, 00071119, 20.2.2/1.0
! Date: 1/7/2024 7:35:33 PM
! Data: Format [Calibration Info]
! Freq          	S11: Re/Im F1                  
# HZ S RI R 50
5.00000000E+07	-1.71103049E-01	 2.74224037E-01
5.00122080E+07	-1.71045205E-01	 2.74265118E-01
5.00244160E+07	-1.70974830E-01	 2.74308620E-01
5.00366241E+07	-1.70903178E-01	 2.74347275E-01
5.00488321E+07	-1.70841928E-01	 2.74381822E-01
5.00610401E+07	-1.70770107E-01	 2.74442090E-01
5.00732481E+07	-1.70697534E-01	 2.74473509E-01
5.00854562E+07	-1.70634730E-01	 2.74511892E-01
5.00976642E+07	-1.70563844E-01	 2.74551496E-01
5.01098722E+07	-1.70499800E-01	 2.74592913E-01
5.01220802E+07	-1.70430973E-01	 2.74630036E-01
5.01342883E+07	-1.70359141E-01	 2.74673389E-01
5.01464963E+07	-1.70300909E-01	 2.74718306E-01
5.01587043E+07	-1.70232441E-01	 2.74745677E-01
5.01709123E+07	-1.70168297E-01	 2.74791355E-01
5.01831204E+07	-1.70095229E-01	 2.74831652E-01
5.01953284E+07	-1.70025485E-01	 2.74872703E-01
5.02075364E+07	-1.69948675E-01	 2.74920910E-01
5.02197444E+07	-1.69894623E-01	 2.74951108E-01
5.02319525E+07	-1.69819870E-01	 2.75000278E-01
5.02441605E+07	-1.69752764E-01	 2.75038537E-01
5.02563685E+07	-1.69685844E-01	 2.75075441E-01
5.02685765E+07	-1.69613775E-01	 2.75116962E-01
5.02807846E+07	-1.69552824E-01	 2.75158568E-01
5.02929926E+07	-1.69482424E-01	 2.75201978E-01
5.03052006E+07	-1.69413916E-01	 2.75235475E-01
5.03174086E+07	-1.69344342E-01	 2.75283280E-01
5.03296167E+07	-1.69278739E-01	 2.75315958E-01
5.03418247E+07	-1.69213077E-01	 2.75359701E-01
5.03540327E+07	-1.69142076E-01	 2.75403168E-01
5.03662407E+07	-1.69069853E-01	 2.75443446E-01
5.03784488E+07	-1.69006466E-01	 2.75481799E-01
5.03906568E+07	-1.68940579E-01	 2.75520409E-01
5.04028648E+07	-1.68875385E-01	 2.75565576E-01
5.04150728E+07	-1.68794867E-01	 2.75599692E-01
5.04272809E+07	-1.68734095E-01	 2.75644768E-01
5.04394889E+07	-1.68669650E-01	 2.75680850E-01
5.04516969E+07	-1.68598559E-01	 2.75716031E-01
5.04639049E+07	-1.68527432E-01	 2.75757186E-01
5.04761130E+07	-1.68460097E-01	 2.75802649E-01
5.04883210E+07	-1.68386673E-01	 2.75842746E-01
5.05005290E+07	-1.68322397E-01	 2.75881320E-01
5.05127370E+07	-1.68256551E-01	 2.75926385E-01
5.05249451E+07	-1.68190665E-01	 2.75956952E-01
5.05371531E+07	-1.68125852E-01	 2.76002948E-01
5.05493611E+07	-1.68053998E-01	 2.76042798E-01
5.05615691E+07	-1.67984548E-01	 2.76082722E-01
5.05737772E+07	-1.67913570E-01	 2.76121128E-01
5.05859852E+07	-1.67854917E-01	 2.76160718E-01
5.05981932E+07	-1.67786514E-01	 2.76200730E-01
5.06104012E+07	-1.67717559E-01	 2.76234726E-01
5.06226093E+07	-1.67645401E-01	 2.76283188E-01
5.06348173E+07	-1.67584876E-01	 2.76324581E-01
5.06470253E+07	-1.67507365E-01	 2.76356867E-01
5.06592333E+07	-1.67439162E-01	 2.76404045E-01
5.06714414E+07	-1.67369687E-01	 2.76441432E-01
5.06836494E+07	-1.67304796E-01	 2.76479700E-01
5.06958574E+07	-1.67244511E-01	 2.76512981E-01
5.07080654E+07	-1.67171638E-01	 2.76566572E-01
5.07202735E+07	-1.67105526E-01	 2.76594502E-01
5.07324815E+07	-1.67030635E-01	 2.76643426E-01
5.07446895E+07	-1.66966023E-01	 2.76679535E-01
5.07568975E+07	-1.66893254E-01	 2.76715735E-01
5.07691056E+07	-1.66824290E-01	 2.76758979E-01
5.07813136E+07	-1.66758805E-01	 2.76802691E-01
5.07935216E+07	-1.66691758E-01	 2.76840521E-01
5.08057296E+07	-1.66618247E-01	 2.76875258E-01
5.08179377E+07	-1.66554363E-01	 2.76916447E-01
5.08301457E+07	-1.66496053E-01	 2.76958704E-01
5.08423537E+07	-1.66421696E-01	 2.76998228E-01
5.08545617E+07	-1.66349996E-01	 2.77033606E-01
5.08667698E+07	-1.66277431E-01	 2.77075053E-01
5.08789778E+07	-1.66211562E-01	 2.77120331E-01
5.08911858E+07	-1.66144306E-01	 2.77152816E-01
5.09033938E+07	-1.66075285E-01	 2.77191053E-01
5.09156019E+07	-1.66006758E-01	 2.77230434E-01
5.09278099E+07	-1.65938920E-01	 2.77268830E-01
5.09400179E+07	-1.65865555E-01	 2.77317727E-01
5.09522259E+07	-1.65805329E-01	 2.77354802E-01
5.09644340E+07	-1.65728965E-01	 2.77390742E-01
5.09766420E+07	-1.65666471E-01	 2.77429638E-01
5.09888500E+07	-1.65599932E-01	 2.77467995E-01
5.10010580E+07	-1.65523525E-01	 2.77513170E-01
5.10132661E+07	-1.65465001E-01	 2.77545561E-01
5.10254741E+07	-1.65396844E-01	 2.77585839E-01
5.10376821E+07	-1.65326153E-01	 2.77619648E-01
5.10498901E+07	-1.65252004E-01	 2.77664112E-01
5.10620982E+07	-1.65191890E-01	 2.77711362E-01
5.10743062E+07	-1.65114525E-01	 2.77744931E-01
5.10865142E+07	-1.65051010E-01	 2.77780972E-01
5.10987222E+07	-1.64976946E-01	 2.77815675E-01
5.11109303E+07	-1.64910670E-01	 2.77857682E-01
5.11231383E+07	-1.64839125E-01	 2.77895143E-01
5.11353463E+07	-1.64770864E-01	 2.77932554E-01
5.11475543E+07	-1.64696262E-01	 2.77977586E-01
5.11597624E+07	-1.64629259E-01	 2.78008440E-01
5.11719704E+07	-1.64567633E-01	 2.78049183E-01
5.11841784E+07	-1.64489502E-01	 2.78090734E-01
5.11963864E+07	-1.64429318E-01	 2.78133665E-01
5.12085944E+07	-1.64358539E-01	 2.78170388E-01
5.12208025E+07	-1.64287993E-01	 2.78206164E-01
5.12330105E+07	-1.64217341E-01	 2.78244612E-01
5.12452185E+07	-1.64150146E-01	 2.78289844E-01
5.12574265E+07	-1.64078244E-01	 2.78323130E-01
5.12696346E+07	-1.64011241E-01	 2.78364258E-01
5.12818426E+07	-1.63943573E-01	 2.78406588E-01
5.12940506E+07	-1.63868608E-01	 2.78439717E-01
5.13062586E+07	-1.63805072E-01	 2.78485398E-01
5.13184667E+07	-1.63737913E-01	 2.78516149E-01
5.13306747E+07	-1.63662847E-01	 2.78559658E-01
5.13428827E+07	-1.63598030E-01	 2.78598961E-01
5.13550907E+07	-1.63523322E-01	 2.78632877E-01
5.13672988E+07	-1.63453012E-01	 2.78673209E-01
5.13795068E+07	-1.63388923E-01	 2.78717703E-01
5.13917148E+07	-1.63323069E-01	 2.78750657E-01
5.14039228E+07	-1.63248801E-01	 2.78786838E-01
5.14161309E+07	-1.63186748E-01	 2.78832760E-01
5.14283389E+07	-1.63116876E-01	 2.78865486E-01
5.14405469E+07	-1.63038957E-01	 2.78905290E-01
5.14527549E+07	-1.62976080E-01	 2.78940115E-01
5.14649630E+07	-1.62903246E-01	 2.78983564E-01
5.14771710E+07	-1.62838936E-01	 2.79021404E-01
5.14893790E+07	-1.62764348E-01	 2.79059974E-01
5.15015870E+07	-1.62693684E-01	 2.79098920E-01
5.15137951E+07	-1.62627800E-01	 2.79135093E-01
5.15260031E+07	-1.62559845E-01	 2.79177879E-01
5.15382111E+07	-1.62487519E-01	 2.79211856E-01
5.15504191E+07	-1.62417521E-01	 2.79249106E-01
5.15626272E+07	-1.62357106E-01	 2.79289361E-01
5.15748352E+07	-1.62285943E-01	 2.79325884E-01
5.15870432E+07	-1.62208063E-01	 2.79369465E-01
5.15992512E+07	-1.62141329E-01	 2.79410352E-01
5.16114593E+07	-1.62080512E-01	 2.79448504E-01
5.16236673E+07	-1.62003788E-01	 2.79481930E-01
5.16358753E+07	-1.61944575E-01	 2.79521037E-01
5.16480833E+07	-1.61868454E-01	 2.79562498E-01
5.16602914E+07	-1.61803043E-01	 2.79601318E-01
5.16724994E+07	-1.61724405E-01	 2.79628461E-01
5.16847074E+07	-1.61658526E-01	 2.79675923E-01
5.16969154E+07	-1.61588251E-01	 2.79705903E-01
5.17091235E+07	-1.61524647E-01	 2.79749126E-01
5.17213315E+07	-1.61455734E-01	 2.79786422E-01
5.17335395E+07	-1.61379686E-01	 2.79828056E-01
5.17457475E+07	-1.61305883E-01	 2.79863012E-01
5.17579556E+07	-1.61245337E-01	 2.79900845E-01
5.17701636E+07	-1.61182208E-01	 2.79944616E-01
5.17823716E+07	-1.61107459E-01	 2.79979665E-01
5.17945796E+07	-1.61038646E-01	 2.80014250E-01
5.18067877E+07	-1.60974539E-01	 2.80054924E-01
5.18189957E+07	-1.60902088E-01	 2.80092678E-01
5.18312037E+07	-1.60825658E-01	 2.80124755E-01
5.18434117E+07	-1.60761051E-01	 2.80167585E-01
5.18556198E+07	-1.60686371E-01	 2.80208432E-01
5.18678278E+07	-1.60623001E-01	 2.80235645E-01
5.18800358E+07	-1.60549257E-01	 2.80280492E-01
5.18922438E+07	-1.60476351E-01	 2.80320484E-01
5.19044519E+07	-1.60407732E-01	 2.80352519E-01
5.19166599E+07	-1.60338535E-01	 2.80392181E-01
5.19288679E+07	-1.60270957E-01	 2.80432949E-01
5.19410759E+07	-1.60199011E-01	 2.80471078E-01
5.19532840E+07	-1.60139114E-01	 2.80510427E-01
5.19654920E+07	-1.60060925E-01	 2.80544416E-01
5.19777000E+07	-1.60001919E-01	 2.80579061E-01
5.19899080E+07	-1.59928968E-01	 2.80625460E-01
5.20021161E+07	-1.59858724E-01	 2.80660867E-01
5.20143241E+07	-1.59787412E-01	 2.80695382E-01
5.20265321E+07	-1.59713812E-01	 2.80735246E-01
5.20387401E+07	-1.59653689E-01	 2.80776502E-01
5.20509482E+07	-1.59578077E-01	 2.80812671E-01
5.20631562E+07	-1.59511290E-01	 2.80844059E-01
5.20753642E+07	-1.59443645E-01	 2.80885339E-01
5.20875722E+07	-1.59377352E-01	 2.80924102E-01
5.20997803E+07	-1.59302764E-01	 2.80958002E-01
5.21119883E+07	-1.59233078E-01	 2.80995848E-01
5.21241963E+07	-1.59162727E-01	 2.81037188E-01
5.21364043E+07	-1.59099397E-01	 2.81073696E-01
5.21486124E+07	-1.59023182E-01	 2.81116120E-01
5.21608204E+07	-1.58954023E-01	 2.81155213E-01
5.21730284E+07	-1.58887601E-01	 2.81189660E-01
5.21852364E+07	-1.58820127E-01	 2.81221599E-01
5.21974445E+07	-1.58742653E-01	 2.81267116E-01
5.22096525E+07	-1.58676671E-01	 2.81308988E-01
5.22218605E+07	-1.58610900E-01	 2.81343888E-01
5.22340685E+07	-1.58537598E-01	 2.81374567E-01
5.22462766E+07	-1.58462197E-01	 2.81410524E-01
5.22584846E+07	-1.58399386E-01	 2.81450593E-01
5.22706926E+07	-1.58326541E-01	 2.81489654E-01
5.22829006E+07	-1.58253552E-01	 2.81528762E-01
5.22951087E+07	-1.58192004E-01	 2.81561297E-01
5.23073167E+07	-1.58117365E-01	 2.81599247E-01
5.23195247E+07	-1.58054854E-01	 2.81637196E-01
5.23317327E+07	-1.57978437E-01	 2.81665016E-01
5.23439408E+07	-1.57912482E-01	 2.81713875E-01
5.23561488E+07	-1.57839146E-01	 2.81748534E-01
5.23683568E+07	-1.57775543E-01	 2.81782734E-01
5.23805648E+07	-1.57705291E-01	 2.81820396E-01
5.23927728E+07	-1.57638425E-01	 2.81855300E-01
5.24049809E+07	-1.57566884E-01	 2.81906451E-01
5.24171889E+07	-1.57496663E-01	 2.81942048E-01
5.24293969E+07	-1.57427416E-01	 2.81971111E-01
5.24416049E+07	-1.57361271E-01	 2.82006170E-01
5.24538130E+07	-1.57283841E-01	 2.82044443E-01
5.24660210E+07	-1.57222500E-01	 2.82079005E-01
5.24782290E+07	-1.57151416E-01	 2.82116358E-01
5.24904370E+07	-1.57075525E-01	 2.82163031E-01
5.25026451E+07	-1.57011713E-01	 2.82197978E-01
5.25148531E+07	-1.56937853E-01	 2.82229883E-01
5.25270611E+07	-1.56866671E-01	 2.82268344E-01
5.25392691E+07	-1.56799935E-01	 2.82308753E-01
5.25514772E+07	-1.56728633E-01	 2.82349908E-01
5.25636852E+07	-1.56657614E-01	 2.82380404E-01
5.25758932E+07	-1.56594016E-01	 2.82415714E-01
5.25881012E+07	-1.56517505E-01	 2.82453641E-01
5.26003093E+07	-1.56451916E-01	 2.82493862E-01
5.26125173E+07	-1.56386086E-01	 2.82526503E-01
5.26247253E+07	-1.56314269E-01	 2.82559279E-01
5.26369333E+07	-1.56242849E-01	 2.82601454E-01
5.26491414E+07	-1.56171400E-01	 2.82641508E-01
5.26613494E+07	-1.56107897E-01	 2.82676025E-01
5.26735574E+07	-1.56037096E-01	 2.82708628E-01
5.26857654E+07	-1.55963171E-01	 2.82745565E-01
5.26979735E+07	-1.55892318E-01	 2.82783428E-01
5.27101815E+07	-1.55822173E-01	 2.82825658E-01
5.27223895E+07	-1.55754678E-01	 2.82855758E-01
5.27345975E+07	-1.55683732E-01	 2.82893374E-01
5.27468056E+07	-1.55616084E-01	 2.82935547E-01
5.27590136E+07	-1.55541766E-01	 2.82972070E-01
5.27712216E+07	-1.55468865E-01	 2.83007732E-01
5.27834296E+07	-1.55404209E-01	 2.83039463E-01
5.27956377E+07	-1.55339973E-01	 2.83078540E-01
5.28078457E+07	-1.55258459E-01	 2.83111888E-01
5.28200537E+07	-1.55197376E-01	 2.83153387E-01
5.28322617E+07	-1.55120159E-01	 2.83187910E-01
5.28444698E+07	-1.55059705E-01	 2.83223071E-01
5.28566778E+07	-1.54986151E-01	 2.83261192E-01
5.28688858E+07	-1.54920407E-01	 2.83308297E-01
5.28810938E+07	-1.54842870E-01	 2.83331078E-01
5.28933019E+07	-1.54779587E-01	 2.83375304E-01
5.29055099E+07	-1.54711055E-01	 2.83409210E-01
5.29177179E+07	-1.54634675E-01	 2.83443829E-01
5.29299259E+07	-1.54568289E-01	 2.83484691E-01
5.29421340E+07	-1.54499794E-01	 2.83522769E-01
5.29543420E+07	-1.54431673E-01	 2.83553461E-01
5.29665500E+07	-1.54364954E-01	 2.83585861E-01
5.29787580E+07	-1.54282065E-01	 2.83624910E-01
5.29909661E+07	-1.54219791E-01	 2.83664496E-01
5.30031741E+07	-1.54154869E-01	 2.83702696E-01
5.30153821E+07	-1.54080966E-01	 2.83731789E-01
5.30275901E+07	-1.54011600E-01	 2.83769092E-01
5.30397982E+07	-1.53938934E-01	 2.83808050E-01
5.30520062E+07	-1.53871545E-01	 2.83844239E-01
5.30642142E+07	-1.53798663E-01	 2.83884666E-01
5.30764222E+07	-1.53731429E-01	 2.83919112E-01
5.30886303E+07	-1.53657342E-01	 2.83954650E-01
5.31008383E+07	-1.53591698E-01	 2.83993434E-01
5.31130463E+07	-1.53518793E-01	 2.84023916E-01
5.31252543E+07	-1.53451455E-01	 2.84062437E-01
5.31374624E+07	-1.53375828E-01	 2.84100743E-01
5.31496704E+07	-1.53307256E-01	 2.84134315E-01
5.31618784E+07	-1.53237761E-01	 2.84175155E-01
5.31740864E+07	-1.53162229E-01	 2.84213965E-01
5.31862945E+07	-1.53098826E-01	 2.84243937E-01
5.31985025E+07	-1.53025892E-01	 2.84282598E-01
5.32107105E+07	-1.52960285E-01	 2.84320248E-01
5.32229185E+07	-1.52890594E-01	 2.84350426E-01
5.32351266E+07	-1.52816540E-01	 2.84389392E-01
5.32473346E+07	-1.52750411E-01	 2.84426285E-01
5.32595426E+07	-1.52683840E-01	 2.84465404E-01
5.32717506E+07	-1.52610208E-01	 2.84498633E-01
5.32839587E+07	-1.52544095E-01	 2.84541541E-01
5.32961667E+07	-1.52470578E-01	 2.84571971E-01
5.33083747E+07	-1.52396669E-01	 2.84607565E-01
5.33205827E+07	-1.52328331E-01	 2.84643844E-01
5.33327908E+07	-1.52264091E-01	 2.84679820E-01
5.33449988E+07	-1.52188591E-01	 2.84713959E-01
5.33572068E+07	-1.52112409E-01	 2.84748929E-01
5.33694148E+07	-1.52050714E-01	 2.84788690E-01
5.33816229E+07	-1.51982258E-01	 2.84822943E-01
5.33938309E+07	-1.51905150E-01	 2.84860114E-01
5.34060389E+07	-1.51841503E-01	 2.84893372E-01
5.34182469E+07	-1.51767239E-01	 2.84930354E-01
5.34304550E+07	-1.51700351E-01	 2.84969172E-01
5.34426630E+07	-1.51627325E-01	 2.85003364E-01
5.34548710E+07	-1.51553983E-01	 2.85041916E-01
5.34670790E+07	-1.51482657E-01	 2.85074603E-01
5.34792871E+07	-1.51408774E-01	 2.85113521E-01
5.34914951E+07	-1.51345507E-01	 2.85144199E-01
5.35037031E+07	-1.51274145E-01	 2.85176571E-01
5.35159111E+07	-1.51213907E-01	 2.85216526E-01
5.35281192E+07	-1.51137022E-01	 2.85252587E-01
5.35403272E+07	-1.51068230E-01	 2.85293061E-01
5.35525352E+07	-1.50999302E-01	 2.85325399E-01
5.35647432E+07	-1.50923541E-01	 2.85362644E-01
5.35769512E+07	-1.50855650E-01	 2.85396445E-01
5.35891593E+07	-1.50779788E-01	 2.85432285E-01
5.36013673E+07	-1.50708616E-01	 2.85462693E-01
5.36135753E+07	-1.50634407E-01	 2.85501176E-01
5.36257833E+07	-1.50569992E-01	 2.85535600E-01
5.36379914E+07	-1.50503968E-01	 2.85576554E-01
5.36501994E+07	-1.50435245E-01	 2.85608780E-01
5.36624074E+07	-1.50358452E-01	 2.85650066E-01
5.36746154E+07	-1.50288280E-01	 2.85673954E-01
5.36868235E+07	-1.50220636E-01	 2.85718994E-01
5.36990315E+07	-1.50149196E-01	 2.85755930E-01
5.37112395E+07	-1.50073597E-01	 2.85782761E-01
5.37234475E+07	-1.50005002E-01	 2.85830599E-01
5.37356556E+07	-1.49937490E-01	 2.85861325E-01
5.37478636E+07	-1.49862281E-01	 2.85893187E-01
5.37600716E+07	-1.49802723E-01	 2.85931457E-01
5.37722796E+07	-1.49725706E-01	 2.85965240E-01
5.37844877E+07	-1.49653996E-01	 2.85995613E-01
5.37966957E+07	-1.49582361E-01	 2.86037656E-01
5.38089037E+07	-1.49510248E-01	 2.86071973E-01
5.38211117E+07	-1.49445795E-01	 2.86108306E-01
5.38333198E+07	-1.49373467E-01	 2.86147373E-01
5.38455278E+07	-1.49305116E-01	 2.86177920E-01
5.38577358E+07	-1.49233013E-01	 2.86216400E-01
5.38699438E+07	-1.49154910E-01	 2.86245330E-01
5.38821519E+07	-1.49087912E-01	 2.86281596E-01
5.38943599E+07	-1.49019091E-01	 2.86321219E-01
5.39065679E+07	-1.48950081E-01	 2.86354164E-01
5.39187759E+07	-1.48873616E-01	 2.86388175E-01
5.39309840E+07	-1.48808619E-01	 2.86428471E-01
5.39431920E+07	-1.48738198E-01	 2.86460190E-01
5.39554000E+07	-1.48665264E-01	 2.86492015E-01
5.39676080E+07	-1.48599208E-01	 2.86531444E-01
5.39798161E+07	-1.48520188E-01	 2.86568956E-01
5.39920241E+07	-1.48457257E-01	 2.86604048E-01
5.40042321E+07	-1.48386801E-01	 2.86636562E-01
5.40164401E+07	-1.48312818E-01	 2.86671092E-01
5.40286482E+07	-1.48245029E-01	 2.86703506E-01
5.40408562E+07	-1.48166916E-01	 2.86741795E-01
5.40530642E+07	-1.48094820E-01	 2.86779577E-01
5.40652722E+07	-1.48034108E-01	 2.86806959E-01
5.40774803E+07	-1.47962310E-01	 2.86847592E-01
5.40896883E+07	-1.47891833E-01	 2.86882072E-01
5.41018963E+07	-1.47818563E-01	 2.86915697E-01
5.41141043E+07	-1.47744160E-01	 2.86951850E-01
5.41263124E+07	-1.47678501E-01	 2.86980207E-01
5.41385204E+07	-1.47605299E-01	 2.87018300E-01
5.41507284E+07	-1.47538319E-01	 2.87059668E-01
5.41629364E+07	-1.47454656E-01	 2.87079023E-01
5.41751445E+07	-1.47391981E-01	 2.87124972E-01
5.41873525E+07	-1.47322142E-01	 2.87159315E-01
5.41995605E+07	-1.47244957E-01	 2.87192645E-01
5.42117685E+07	-1.47179732E-01	 2.87226487E-01
5.42239766E+07	-1.47104964E-01	 2.87260005E-01
5.42361846E+07	-1.47035633E-01	 2.87287441E-01
5.42483926E+07	-1.46974474E-01	 2.87331259E-01
5.42606006E+07	-1.46906902E-01	 2.87364139E-01
5.42728087E+07	-1.46828114E-01	 2.87397662E-01
5.42850167E+07	-1.46754049E-01	 2.87433601E-01
5.42972247E+07	-1.46694012E-01	 2.87468682E-01
5.43094327E+07	-1.46613551E-01	 2.87495053E-01
5.43216408E+07	-1.46547038E-01	 2.87537860E-01
5.43338488E+07	-1.46469855E-01	 2.87567675E-01
5.43460568E+07	-1.46400269E-01	 2.87602828E-01
5.43582648E+07	-1.46325690E-01	 2.87634053E-01
5.43704729E+07	-1.46260098E-01	 2.87678577E-01
5.43826809E+07	-1.46186347E-01	 2.87707321E-01
5.43948889E+07	-1.46119100E-01	 2.87745364E-01
5.44070969E+07	-1.46043236E-01	 2.87777352E-01
5.44193050E+07	-1.45974101E-01	 2.87811269E-01
5.44315130E+07	-1.45906393E-01	 2.87843757E-01
5.44437210E+07	-1.45833937E-01	 2.87884322E-01
5.44559290E+07	-1.45764103E-01	 2.87907970E-01
5.44681371E+07	-1.45697366E-01	 2.87948577E-01
5.44803451E+07	-1.45615021E-01	 2.87988657E-01
5.44925531E+07	-1.45549446E-01	 2.88017940E-01
5.45047611E+07	-1.45480228E-01	 2.88051534E-01
5.45169692E+07	-1.45408474E-01	 2.88085998E-01
5.45291772E+07	-1.45340656E-01	 2.88115120E-01
5.45413852E+07	-1.45267012E-01	 2.88158193E-01
5.45535932E+07	-1.45198120E-01	 2.88187455E-01
5.45658013E+07	-1.45131318E-01	 2.88221508E-01
5.45780093E+07	-1.45052731E-01	 2.88257982E-01
5.45902173E+07	-1.44976528E-01	 2.88291425E-01
5.46024253E+07	-1.44910074E-01	 2.88318537E-01
5.46146334E+07	-1.44838043E-01	 2.88359781E-01
5.46268414E+07	-1.44765872E-01	 2.88388762E-01
5.46390494E+07	-1.44702754E-01	 2.88424799E-01
5.46512574E+07	-1.44627341E-01	 2.88462680E-01
5.46634655E+07	-1.44558952E-01	 2.88498977E-01
5.46756735E+07	-1.44481184E-01	 2.88521971E-01
5.46878815E+07	-1.44416991E-01	 2.88559875E-01
5.47000895E+07	-1.44341505E-01	 2.88599229E-01
5.47122976E+07	-1.44270497E-01	 2.88635586E-01
5.47245056E+07	-1.44211952E-01	 2.88662890E-01
5.47367136E+07	-1.44128451E-01	 2.88698966E-01
5.47489216E+07	-1.44066123E-01	 2.88728401E-01
5.47611296E+07	-1.43990749E-01	 2.88761105E-01
5.47733377E+07	-1.43921860E-01	 2.88797590E-01
5.47855457E+07	-1.43837751E-01	 2.88830621E-01
5.47977537E+07	-1.43778572E-01	 2.88869059E-01
5.48099617E+07	-1.43695156E-01	 2.88894484E-01
5.48221698E+07	-1.43631104E-01	 2.88939903E-01
5.48343778E+07	-1.43561729E-01	 2.88969338E-01
5.48465858E+07	-1.43494483E-01	 2.88996114E-01
5.48587938E+07	-1.43419962E-01	 2.89031220E-01
5.48710019E+07	-1.43352960E-01	 2.89069573E-01
5.48832099E+07	-1.43277446E-01	 2.89106691E-01
5.48954179E+07	-1.43207153E-01	 2.89138011E-01
5.49076259E+07	-1.43135684E-01	 2.89175479E-01
5.49198340E+07	-1.43064106E-01	 2.89207621E-01
5.49320420E+07	-1.42996800E-01	 2.89236566E-01
5.49442500E+07	-1.42915809E-01	 2.89277399E-01
5.49564580E+07	-1.42855176E-01	 2.89306208E-01
5.49686661E+07	-1.42779158E-01	 2.89330730E-01
5.49808741E+07	-1.42712054E-01	 2.89371400E-01
5.49930821E+07	-1.42640120E-01	 2.89399935E-01
5.50052901E+07	-1.42558292E-01	 2.89439291E-01
5.50174982E+07	-1.42497925E-01	 2.89475455E-01
5.50297062E+07	-1.42429312E-01	 2.89503813E-01
5.50419142E+07	-1.42363407E-01	 2.89535646E-01
5.50541222E+07	-1.42276616E-01	 2.89570464E-01
5.50663303E+07	-1.42207734E-01	 2.89605531E-01
5.50785383E+07	-1.42134784E-01	 2.89634303E-01
5.50907463E+07	-1.42063484E-01	 2.89669595E-01
5.51029543E+07	-1.41995763E-01	 2.89709247E-01
5.51151624E+07	-1.41921043E-01	 2.89731240E-01
5.51273704E+07	-1.41849594E-01	 2.89766219E-01
