! COPPER MOUNTAIN TECHNOLOGIES, PLANAR TR1300/1, 00071119, 20.2.2/1.0
! Date: 1/7/2024 7:53:58 PM
! Data: Format [Calibration Info]
! Freq          	S11: Re/Im F1                  
# HZ S RI R 50
5.00000000E+07	-1.85086319E-02	 1.72964092E-03
5.00122080E+07	-1.88979593E-02	 1.57301522E-03
5.00244160E+07	-1.87266327E-02	 1.69781529E-03
5.00366241E+07	-1.87634348E-02	 1.85705877E-03
5.00488321E+07	-1.86821294E-02	 1.65849258E-03
5.00610401E+07	-1.86702576E-02	 1.67965500E-03
5.00732481E+07	-1.88034270E-02	 1.48185108E-03
5.00854562E+07	-1.86069633E-02	 1.73951302E-03
5.00976642E+07	-1.87507223E-02	 1.86773829E-03
5.01098722E+07	-1.89911628E-02	 1.40327100E-03
5.01220802E+07	-1.86152779E-02	 1.63826902E-03
5.01342883E+07	-1.89145428E-02	 1.89720199E-03
5.01464963E+07	-1.86125706E-02	 1.80131890E-03
5.01587043E+07	-1.86630664E-02	 1.92834473E-03
5.01709123E+07	-1.88649339E-02	 1.55669064E-03
5.01831204E+07	-1.85851522E-02	 1.73180344E-03
5.01953284E+07	-1.90921444E-02	 1.98029881E-03
5.02075364E+07	-1.87644415E-02	 1.93292186E-03
5.02197444E+07	-1.86082846E-02	 1.58950210E-03
5.02319525E+07	-1.86579256E-02	 1.60320897E-03
5.02441605E+07	-1.89091108E-02	 1.89589397E-03
5.02563685E+07	-1.87608466E-02	 1.87527883E-03
5.02685765E+07	-1.87260284E-02	 1.83758149E-03
5.02807846E+07	-1.87790713E-02	 1.63961643E-03
5.02929926E+07	-1.87094102E-02	 1.47834348E-03
5.03052006E+07	-1.85222472E-02	 1.58262373E-03
5.03174086E+07	-1.87009026E-02	 1.54270325E-03
5.03296167E+07	-1.88477414E-02	 1.78679938E-03
5.03418247E+07	-1.84280188E-02	 1.59794928E-03
5.03540327E+07	-1.88326003E-02	 1.72012243E-03
5.03662407E+07	-1.87014849E-02	 1.77107330E-03
5.03784488E+07	-1.86560337E-02	 2.00784763E-03
5.03906568E+07	-1.85603275E-02	 1.83834520E-03
5.04028648E+07	-1.85059556E-02	 1.66074595E-03
5.04150728E+07	-1.86764573E-02	 1.86562717E-03
5.04272809E+07	-1.88081085E-02	 1.38157811E-03
5.04394889E+07	-1.85892727E-02	 1.62097903E-03
5.04516969E+07	-1.88777829E-02	 1.79633601E-03
5.04639049E+07	-1.84259324E-02	 1.81618744E-03
5.04761130E+07	-1.90509120E-02	 1.79575700E-03
5.04883210E+07	-1.86101707E-02	 1.73744761E-03
5.05005290E+07	-1.87918719E-02	 1.74482777E-03
5.05127370E+07	-1.87912150E-02	 1.67851908E-03
5.05249451E+07	-1.86689122E-02	 1.64449223E-03
5.05371531E+07	-1.87639220E-02	 1.68940345E-03
5.05493611E+07	-1.88085193E-02	 1.72285594E-03
5.05615691E+07	-1.88802579E-02	 1.79105948E-03
5.05737772E+07	-1.87273775E-02	 1.58122383E-03
5.05859852E+07	-1.85854374E-02	 1.53637234E-03
5.05981932E+07	-1.89234519E-02	 1.66225650E-03
5.06104012E+07	-1.89224419E-02	 1.69527925E-03
5.06226093E+07	-1.85193867E-02	 1.73211407E-03
5.06348173E+07	-1.85311970E-02	 1.54389766E-03
5.06470253E+07	-1.85898927E-02	 1.76490092E-03
5.06592333E+07	-1.88232542E-02	 1.67094611E-03
5.06714414E+07	-1.88531788E-02	 1.66900524E-03
5.06836494E+07	-1.89207912E-02	 1.92980338E-03
5.06958574E+07	-1.88610558E-02	 1.73840784E-03
5.07080654E+07	-1.87422601E-02	 1.79495236E-03
5.07202735E+07	-1.87423913E-02	 1.69529470E-03
5.07324815E+07	-1.86799407E-02	 1.57803992E-03
5.07446895E+07	-1.84503479E-02	 1.73820067E-03
5.07568975E+07	-1.87592407E-02	 1.62725637E-03
5.07691056E+07	-1.89566928E-02	 1.58730729E-03
5.07813136E+07	-1.85967500E-02	 1.61705069E-03
5.07935216E+07	-1.86076066E-02	 1.71508500E-03
5.08057296E+07	-1.89169323E-02	 1.73675214E-03
5.08179377E+07	-1.87795197E-02	 1.74369396E-03
5.08301457E+07	-1.88651884E-02	 1.90617436E-03
5.08423537E+07	-1.87179178E-02	 1.77268800E-03
5.08545617E+07	-1.86099100E-02	 1.83917222E-03
5.08667698E+07	-1.85754557E-02	 1.83676849E-03
5.08789778E+07	-1.88303114E-02	 1.82229123E-03
5.08911858E+07	-1.87653313E-02	 1.71951224E-03
5.09033938E+07	-1.87360714E-02	 1.59253822E-03
5.09156019E+07	-1.85854947E-02	 1.84023402E-03
5.09278099E+07	-1.89177636E-02	 1.69679366E-03
5.09400179E+07	-1.88247423E-02	 1.70673280E-03
5.09522259E+07	-1.86842397E-02	 1.71537856E-03
5.09644340E+07	-1.89626886E-02	 1.54844839E-03
5.09766420E+07	-1.87683676E-02	 2.00857043E-03
5.09888500E+07	-1.87697137E-02	 1.69380126E-03
5.10010580E+07	-1.85467697E-02	 1.83188822E-03
5.10132661E+07	-1.86934955E-02	 1.54487751E-03
5.10254741E+07	-1.89032683E-02	 1.63148881E-03
5.10376821E+07	-1.87938181E-02	 1.86083359E-03
5.10498901E+07	-1.91293442E-02	 1.61840795E-03
5.10620982E+07	-1.87721799E-02	 1.82746651E-03
5.10743062E+07	-1.89397075E-02	 1.69218908E-03
5.10865142E+07	-1.88356377E-02	 1.76727357E-03
5.10987222E+07	-1.85683252E-02	 2.00273398E-03
5.11109303E+07	-1.86428167E-02	 1.45578666E-03
5.11231383E+07	-1.87648169E-02	 1.59572513E-03
5.11353463E+07	-1.85613500E-02	 1.92399973E-03
5.11475543E+07	-1.87265996E-02	 1.99799483E-03
5.11597624E+07	-1.91610271E-02	 1.69926721E-03
5.11719704E+07	-1.88911532E-02	 2.05415356E-03
5.11841784E+07	-1.86709365E-02	 1.72295266E-03
5.11963864E+07	-1.86908319E-02	 1.40859574E-03
5.12085944E+07	-1.88613626E-02	 1.73210701E-03
5.12208025E+07	-1.89254425E-02	 1.63883734E-03
5.12330105E+07	-1.88199876E-02	 1.69878629E-03
5.12452185E+07	-1.83981850E-02	 1.79787250E-03
5.12574265E+07	-1.87075991E-02	 1.90616583E-03
5.12696346E+07	-1.85230407E-02	 2.06083638E-03
5.12818426E+07	-1.83861785E-02	 1.51079177E-03
5.12940506E+07	-1.85767616E-02	 1.86988191E-03
5.13062586E+07	-1.88535422E-02	 1.39505265E-03
5.13184667E+07	-1.85006830E-02	 1.69335415E-03
5.13306747E+07	-1.89502965E-02	 1.70907103E-03
5.13428827E+07	-1.87098976E-02	 1.47429924E-03
5.13550907E+07	-1.89090507E-02	 1.69809826E-03
5.13672988E+07	-1.86405541E-02	 1.95397546E-03
5.13795068E+07	-1.85533391E-02	 1.69660972E-03
5.13917148E+07	-1.86891017E-02	 1.75560767E-03
5.14039228E+07	-1.86560731E-02	 1.73524615E-03
5.14161309E+07	-1.85164379E-02	 1.71012194E-03
5.14283389E+07	-1.87363965E-02	 1.55593814E-03
5.14405469E+07	-1.85155114E-02	 1.75520322E-03
5.14527549E+07	-1.84779490E-02	 1.86199379E-03
5.14649630E+07	-1.87538380E-02	 1.65744435E-03
5.14771710E+07	-1.86695605E-02	 1.48253706E-03
5.14893790E+07	-1.86366857E-02	 1.94876529E-03
5.15015870E+07	-1.89073262E-02	 1.75629547E-03
5.15137951E+07	-1.88745317E-02	 1.64930266E-03
5.15260031E+07	-1.84352690E-02	 1.62901321E-03
5.15382111E+07	-1.86681869E-02	 1.72479251E-03
5.15504191E+07	-1.86640326E-02	 1.88972513E-03
5.15626272E+07	-1.85131285E-02	 1.45568008E-03
5.15748352E+07	-1.86105619E-02	 1.76549167E-03
5.15870432E+07	-1.86492842E-02	 1.71210496E-03
5.15992512E+07	-1.88776031E-02	 1.50141445E-03
5.16114593E+07	-1.86506798E-02	 1.98899786E-03
5.16236673E+07	-1.85174327E-02	 2.01609923E-03
5.16358753E+07	-1.87662058E-02	 1.48479147E-03
5.16480833E+07	-1.87695034E-02	 1.67024657E-03
5.16602914E+07	-1.86747310E-02	 1.79688535E-03
5.16724994E+07	-1.84795641E-02	 1.82780235E-03
5.16847074E+07	-1.89738334E-02	 1.70184532E-03
5.16969154E+07	-1.90424422E-02	 1.82493833E-03
5.17091235E+07	-1.87138077E-02	 1.71390662E-03
5.17213315E+07	-1.88666564E-02	 1.85468764E-03
5.17335395E+07	-1.86324024E-02	 2.00493026E-03
5.17457475E+07	-1.87315956E-02	 1.54802211E-03
5.17579556E+07	-1.89268935E-02	 1.73707020E-03
5.17701636E+07	-1.87058643E-02	 1.95792296E-03
5.17823716E+07	-1.87838865E-02	 1.97988735E-03
5.17945796E+07	-1.87534840E-02	 1.89722890E-03
5.18067877E+07	-1.89335223E-02	 1.81230648E-03
5.18189957E+07	-1.86543141E-02	 1.58128815E-03
5.18312037E+07	-1.87101337E-02	 1.82848549E-03
5.18434117E+07	-1.85870050E-02	 1.77086568E-03
5.18556198E+07	-1.85039889E-02	 1.83004406E-03
5.18678278E+07	-1.86395484E-02	 1.78580940E-03
5.18800358E+07	-1.87401480E-02	 1.68819427E-03
5.18922438E+07	-1.90574988E-02	 1.86379868E-03
5.19044519E+07	-1.85243116E-02	 1.87232192E-03
5.19166599E+07	-1.87892825E-02	 1.63505578E-03
5.19288679E+07	-1.88983599E-02	 1.71513136E-03
5.19410759E+07	-1.87936520E-02	 1.82409782E-03
5.19532840E+07	-1.88986770E-02	 1.96309147E-03
5.19654920E+07	-1.86487857E-02	 1.65393782E-03
5.19777000E+07	-1.84996561E-02	 1.81196185E-03
5.19899080E+07	-1.85132384E-02	 1.60741248E-03
5.20021161E+07	-1.88501201E-02	 1.74614088E-03
5.20143241E+07	-1.86349634E-02	 1.96587399E-03
5.20265321E+07	-1.87307114E-02	 1.75361666E-03
5.20387401E+07	-1.86575293E-02	 1.94701257E-03
5.20509482E+07	-1.85988984E-02	 1.81945409E-03
5.20631562E+07	-1.86947696E-02	 1.73620876E-03
5.20753642E+07	-1.87318408E-02	 2.08382703E-03
5.20875722E+07	-1.89040928E-02	 1.55318578E-03
5.20997803E+07	-1.87623391E-02	 1.78799593E-03
5.21119883E+07	-1.88141671E-02	 1.82426470E-03
5.21241963E+07	-1.90480770E-02	 1.73349378E-03
5.21364043E+07	-1.85632302E-02	 1.71392899E-03
5.21486124E+07	-1.87288460E-02	 1.71203313E-03
5.21608204E+07	-1.87629092E-02	 1.82965197E-03
5.21730284E+07	-1.88410192E-02	 1.92723759E-03
5.21852364E+07	-1.86097607E-02	 1.29628981E-03
5.21974445E+07	-1.86830628E-02	 1.61542616E-03
5.22096525E+07	-1.87982906E-02	 1.66799300E-03
5.22218605E+07	-1.87127040E-02	 1.97912739E-03
5.22340685E+07	-1.88496090E-02	 2.04005625E-03
5.22462766E+07	-1.86981313E-02	 1.94055903E-03
5.22584846E+07	-1.87114146E-02	 1.96609662E-03
5.22706926E+07	-1.88245638E-02	 1.88452324E-03
5.22829006E+07	-1.86300294E-02	 1.75298405E-03
5.22951087E+07	-1.88137548E-02	 1.90296672E-03
5.23073167E+07	-1.86705834E-02	 1.75634533E-03
5.23195247E+07	-1.85175707E-02	 2.02324353E-03
5.23317327E+07	-1.87700063E-02	 1.88353760E-03
5.23439408E+07	-1.88285965E-02	 1.57463583E-03
5.23561488E+07	-1.90305515E-02	 1.85203056E-03
5.23683568E+07	-1.87803129E-02	 1.85695939E-03
5.23805648E+07	-1.87498405E-02	 1.60043225E-03
5.23927728E+07	-1.86341961E-02	 1.76895188E-03
5.24049809E+07	-1.87484712E-02	 1.94936493E-03
5.24171889E+07	-1.84939284E-02	 1.83761931E-03
5.24293969E+07	-1.87235233E-02	 1.81999238E-03
5.24416049E+07	-1.88633506E-02	 1.79492561E-03
5.24538130E+07	-1.89465917E-02	 1.58620297E-03
5.24660210E+07	-1.84425091E-02	 1.58610316E-03
5.24782290E+07	-1.87248982E-02	 1.87179317E-03
5.24904370E+07	-1.86582083E-02	 1.95071611E-03
5.25026451E+07	-1.90814820E-02	 1.54372503E-03
5.25148531E+07	-1.87489328E-02	 1.75281431E-03
5.25270611E+07	-1.85888277E-02	 1.50268517E-03
5.25392691E+07	-1.86312991E-02	 1.54305811E-03
5.25514772E+07	-1.86724514E-02	 1.66965204E-03
5.25636852E+07	-1.85841664E-02	 1.79450479E-03
5.25758932E+07	-1.83195930E-02	 1.77534399E-03
5.25881012E+07	-1.86162899E-02	 1.77765276E-03
5.26003093E+07	-1.85985129E-02	 1.81290904E-03
5.26125173E+07	-1.86068200E-02	 1.74518940E-03
5.26247253E+07	-1.89164224E-02	 1.76778670E-03
5.26369333E+07	-1.85276430E-02	 1.77009471E-03
5.26491414E+07	-1.89404155E-02	 1.78926460E-03
5.26613494E+07	-1.85521889E-02	 1.96500962E-03
5.26735574E+07	-1.86966576E-02	 1.75696182E-03
5.26857654E+07	-1.87605473E-02	 1.82316538E-03
5.26979735E+07	-1.86266682E-02	 1.77562789E-03
5.27101815E+07	-1.90081973E-02	 1.74678701E-03
5.27223895E+07	-1.87112129E-02	 1.71322518E-03
5.27345975E+07	-1.88288308E-02	 1.72523487E-03
5.27468056E+07	-1.88504181E-02	 1.81575445E-03
5.27590136E+07	-1.84923517E-02	 1.53146634E-03
5.27712216E+07	-1.88211445E-02	 1.68167508E-03
5.27834296E+07	-1.86418656E-02	 1.79154812E-03
5.27956377E+07	-1.86547431E-02	 1.97448943E-03
5.28078457E+07	-1.87905759E-02	 1.94722099E-03
5.28200537E+07	-1.89407426E-02	 1.51843908E-03
5.28322617E+07	-1.87401034E-02	 1.72732486E-03
5.28444698E+07	-1.86385636E-02	 1.67284228E-03
5.28566778E+07	-1.90233467E-02	 1.67639049E-03
5.28688858E+07	-1.87579959E-02	 1.78015990E-03
5.28810938E+07	-1.87109854E-02	 1.73903927E-03
5.28933019E+07	-1.86727861E-02	 1.86236707E-03
5.29055099E+07	-1.87912398E-02	 1.77476944E-03
5.29177179E+07	-1.85042325E-02	 1.56425699E-03
5.29299259E+07	-1.88168790E-02	 1.81717701E-03
5.29421340E+07	-1.87997388E-02	 1.75573326E-03
5.29543420E+07	-1.87455552E-02	 1.86117996E-03
5.29665500E+07	-1.89851369E-02	 1.50278601E-03
5.29787580E+07	-1.85831653E-02	 1.67877346E-03
5.29909661E+07	-1.88131136E-02	 1.66587985E-03
5.30031741E+07	-1.85456002E-02	 1.79179250E-03
5.30153821E+07	-1.86727304E-02	 2.06555410E-03
5.30275901E+07	-1.87604907E-02	 1.67756827E-03
5.30397982E+07	-1.86141069E-02	 1.78160860E-03
5.30520062E+07	-1.87338755E-02	 1.82353439E-03
5.30642142E+07	-1.86182882E-02	 1.70406349E-03
5.30764222E+07	-1.90852571E-02	 1.91265998E-03
5.30886303E+07	-1.88179058E-02	 1.99149458E-03
5.31008383E+07	-1.89114085E-02	 1.75064702E-03
5.31130463E+07	-1.84705318E-02	 1.46739451E-03
5.31252543E+07	-1.87644662E-02	 1.71887130E-03
5.31374624E+07	-1.87478055E-02	 1.64815900E-03
5.31496704E+07	-1.87139311E-02	 1.67125752E-03
5.31618784E+07	-1.85605687E-02	 1.71071085E-03
5.31740864E+07	-1.85967349E-02	 1.66924615E-03
5.31862945E+07	-1.85357058E-02	 1.91300313E-03
5.31985025E+07	-1.85733163E-02	 1.88875485E-03
5.32107105E+07	-1.86397278E-02	 1.87702172E-03
5.32229185E+07	-1.86316544E-02	 1.45180926E-03
5.32351266E+07	-1.88001928E-02	 1.70845813E-03
5.32473346E+07	-1.87842166E-02	 1.76945357E-03
5.32595426E+07	-1.89481450E-02	 1.83851209E-03
5.32717506E+07	-1.88109441E-02	 2.00829318E-03
5.32839587E+07	-1.86567103E-02	 1.89714104E-03
5.32961667E+07	-1.86753653E-02	 1.65126963E-03
5.33083747E+07	-1.88133002E-02	 1.81650052E-03
5.33205827E+07	-1.87777509E-02	 1.52424743E-03
5.33327908E+07	-1.87251094E-02	 1.57174179E-03
5.33449988E+07	-1.90185871E-02	 1.85286685E-03
5.33572068E+07	-1.88062870E-02	 2.00086396E-03
5.33694148E+07	-1.87947293E-02	 1.83440166E-03
5.33816229E+07	-1.89537905E-02	 1.82923956E-03
5.33938309E+07	-1.86262128E-02	 1.60359434E-03
5.34060389E+07	-1.86946731E-02	 1.82644677E-03
5.34182469E+07	-1.89226324E-02	 1.79514656E-03
5.34304550E+07	-1.85007233E-02	 1.70808524E-03
5.34426630E+07	-1.88367351E-02	 1.86715978E-03
5.34548710E+07	-1.88798590E-02	 1.88933750E-03
5.34670790E+07	-1.88105608E-02	 1.60913032E-03
5.34792871E+07	-1.87544055E-02	 1.99043555E-03
5.34914951E+07	-1.87512708E-02	 1.83441244E-03
5.35037031E+07	-1.89661173E-02	 1.86287392E-03
5.35159111E+07	-1.86760279E-02	 1.82244517E-03
5.35281192E+07	-1.87324806E-02	 1.70251298E-03
5.35403272E+07	-1.89588253E-02	 1.89201891E-03
5.35525352E+07	-1.86341046E-02	 1.69168879E-03
5.35647432E+07	-1.84541808E-02	 1.85827818E-03
5.35769512E+07	-1.88162093E-02	 1.71541745E-03
5.35891593E+07	-1.86623732E-02	 1.77947684E-03
5.36013673E+07	-1.86809557E-02	 1.73394596E-03
5.36135753E+07	-1.87431656E-02	 1.80062923E-03
5.36257833E+07	-1.87623939E-02	 1.89076544E-03
5.36379914E+07	-1.85158514E-02	 1.90151559E-03
5.36501994E+07	-1.87063910E-02	 1.91680878E-03
5.36624074E+07	-1.85363509E-02	 1.87794809E-03
5.36746154E+07	-1.88967702E-02	 1.81628216E-03
5.36868235E+07	-1.87285654E-02	 1.87750893E-03
5.36990315E+07	-1.87102986E-02	 1.76269035E-03
5.37112395E+07	-1.87187307E-02	 1.77419650E-03
5.37234475E+07	-1.87213297E-02	 1.78267046E-03
5.37356556E+07	-1.85413242E-02	 1.81066857E-03
5.37478636E+07	-1.85035312E-02	 1.66066757E-03
5.37600716E+07	-1.88108302E-02	 1.88442476E-03
5.37722796E+07	-1.89862537E-02	 1.67194025E-03
5.37844877E+07	-1.86870025E-02	 1.71856319E-03
5.37966957E+07	-1.83274773E-02	 1.34392760E-03
5.38089037E+07	-1.86592019E-02	 1.68198912E-03
5.38211117E+07	-1.90754390E-02	 1.43652866E-03
5.38333198E+07	-1.85992020E-02	 1.78015420E-03
5.38455278E+07	-1.86942400E-02	 1.74629314E-03
5.38577358E+07	-1.86666046E-02	 2.08841986E-03
5.38699438E+07	-1.87106364E-02	 1.89010718E-03
5.38821519E+07	-1.86507353E-02	 1.56824561E-03
5.38943599E+07	-1.88212356E-02	 2.05322257E-03
5.39065679E+07	-1.84652371E-02	 1.82682132E-03
5.39187759E+07	-1.87512501E-02	 1.83919154E-03
5.39309840E+07	-1.88445478E-02	 1.83661088E-03
5.39431920E+07	-1.87671484E-02	 1.98704853E-03
5.39554000E+07	-1.86983800E-02	 1.84333808E-03
5.39676080E+07	-1.86016522E-02	 1.76565390E-03
5.39798161E+07	-1.86997623E-02	 1.78690910E-03
5.39920241E+07	-1.87011076E-02	 2.04111808E-03
5.40042321E+07	-1.85319839E-02	 2.16265990E-03
5.40164401E+07	-1.87592334E-02	 1.66874349E-03
5.40286482E+07	-1.87648168E-02	 1.77800553E-03
5.40408562E+07	-1.84913534E-02	 1.82006111E-03
5.40530642E+07	-1.87269477E-02	 1.69520979E-03
5.40652722E+07	-1.88423223E-02	 1.51196944E-03
5.40774803E+07	-1.86757248E-02	 1.86718982E-03
5.40896883E+07	-1.87338893E-02	 1.97626494E-03
5.41018963E+07	-1.86738713E-02	 1.91108016E-03
5.41141043E+07	-1.87080864E-02	 1.70463152E-03
5.41263124E+07	-1.90852567E-02	 1.86153841E-03
5.41385204E+07	-1.84311674E-02	 1.65955818E-03
5.41507284E+07	-1.87164799E-02	 1.63195713E-03
5.41629364E+07	-1.88297738E-02	 1.63350548E-03
5.41751445E+07	-1.86927861E-02	 1.75814253E-03
5.41873525E+07	-1.86701032E-02	 1.98663725E-03
5.41995605E+07	-1.87344243E-02	 1.68833080E-03
5.42117685E+07	-1.84917412E-02	 1.84333301E-03
5.42239766E+07	-1.85989002E-02	 1.93168659E-03
5.42361846E+07	-1.84795770E-02	 1.86651302E-03
5.42483926E+07	-1.85834915E-02	 2.11473721E-03
5.42606006E+07	-1.87265933E-02	 2.06281387E-03
5.42728087E+07	-1.88565484E-02	 1.95110359E-03
5.42850167E+07	-1.86042603E-02	 2.04586492E-03
5.42972247E+07	-1.85601479E-02	 1.78210955E-03
5.43094327E+07	-1.85317695E-02	 1.78259985E-03
5.43216408E+07	-1.86834363E-02	 1.83908680E-03
5.43338488E+07	-1.85969663E-02	 1.95068859E-03
5.43460568E+07	-1.88551850E-02	 1.67340959E-03
5.43582648E+07	-1.86769541E-02	 1.57441252E-03
5.43704729E+07	-1.87103662E-02	 1.67026635E-03
5.43826809E+07	-1.88231348E-02	 1.97864712E-03
5.43948889E+07	-1.84591552E-02	 2.01706570E-03
5.44070969E+07	-1.87378631E-02	 1.78213668E-03
5.44193050E+07	-1.88671305E-02	 2.08905655E-03
5.44315130E+07	-1.89271973E-02	 1.78654250E-03
5.44437210E+07	-1.85617833E-02	 1.49786609E-03
5.44559290E+07	-1.86612452E-02	 1.62362654E-03
5.44681371E+07	-1.86904232E-02	 1.65497864E-03
5.44803451E+07	-1.89373115E-02	 1.59131967E-03
5.44925531E+07	-1.87252252E-02	 1.79544459E-03
5.45047611E+07	-1.85585217E-02	 1.99483673E-03
5.45169692E+07	-1.91711949E-02	 2.08848927E-03
5.45291772E+07	-1.86063976E-02	 1.76273043E-03
5.45413852E+07	-1.87201386E-02	 1.72759366E-03
5.45535932E+07	-1.88540326E-02	 1.87279434E-03
5.45658013E+07	-1.88208331E-02	 1.61896020E-03
5.45780093E+07	-1.87478341E-02	 1.56107187E-03
5.45902173E+07	-1.88189171E-02	 1.96612278E-03
5.46024253E+07	-1.87008126E-02	 1.87249022E-03
5.46146334E+07	-1.86254259E-02	 2.04783413E-03
5.46268414E+07	-1.84479819E-02	 1.76137728E-03
5.46390494E+07	-1.87270887E-02	 1.67242891E-03
5.46512574E+07	-1.87178622E-02	 1.79630899E-03
5.46634655E+07	-1.86968133E-02	 1.82977186E-03
5.46756735E+07	-1.87767330E-02	 1.66004835E-03
5.46878815E+07	-1.84628803E-02	 1.73528898E-03
5.47000895E+07	-1.87482583E-02	 1.88429038E-03
5.47122976E+07	-1.87006787E-02	 2.04881553E-03
5.47245056E+07	-1.87980037E-02	 1.72981374E-03
5.47367136E+07	-1.87494027E-02	 1.83531058E-03
5.47489216E+07	-1.86098732E-02	 1.75228085E-03
5.47611296E+07	-1.86959957E-02	 1.88624866E-03
5.47733377E+07	-1.86243687E-02	 1.71094992E-03
5.47855457E+07	-1.86547421E-02	 1.80636381E-03
5.47977537E+07	-1.85979775E-02	 1.83209962E-03
5.48099617E+07	-1.88493194E-02	 2.00636488E-03
5.48221698E+07	-1.87453767E-02	 1.95760696E-03
5.48343778E+07	-1.87491554E-02	 1.79850207E-03
5.48465858E+07	-1.86610779E-02	 1.80483616E-03
5.48587938E+07	-1.88236459E-02	 2.26426254E-03
5.48710019E+07	-1.86844596E-02	 1.78970636E-03
5.48832099E+07	-1.91819839E-02	 1.93859699E-03
5.48954179E+07	-1.84507370E-02	 1.74101606E-03
5.49076259E+07	-1.88975573E-02	 1.98104734E-03
5.49198340E+07	-1.84046469E-02	 1.95945681E-03
5.49320420E+07	-1.86097147E-02	 1.67583004E-03
5.49442500E+07	-1.87062283E-02	 1.65051350E-03
5.49564580E+07	-1.89026569E-02	 1.71868642E-03
5.49686661E+07	-1.86632017E-02	 1.85870789E-03
5.49808741E+07	-1.86022581E-02	 1.88241657E-03
5.49930821E+07	-1.88270593E-02	 1.72083712E-03
5.50052901E+07	-1.87944598E-02	 1.88463672E-03
5.50174982E+07	-1.88494599E-02	 2.06095304E-03
5.50297062E+07	-1.83046641E-02	 1.98397637E-03
5.50419142E+07	-1.85996395E-02	 1.85085331E-03
5.50541222E+07	-1.84754487E-02	 1.72858365E-03
5.50663303E+07	-1.87941184E-02	 1.95143438E-03
5.50785383E+07	-1.84626269E-02	 1.75732482E-03
5.50907463E+07	-1.88702239E-02	 1.95610576E-03
5.51029543E+07	-1.86270198E-02	 1.89518250E-03
5.51151624E+07	-1.86349713E-02	 2.01165629E-03
5.51273704E+07	-1.88666572E-02	 1.87390616E-03
